2026-07-25T06:07:39.999917+00:00 TX 01 03 00 00 00 20 44 12
2026-07-25T06:07:40.044658+00:00 RX 01 03 40 00 00 00 00 00 03 00 00 00 03 00 00 00 00 00 00 00 00 00 00 00 00 00 00 00 01 00 00 01 00 05 0A 00 00 00 00 00 00 00 00 00 00 00 00 00 00 00 00 00 00 00 00 00 00 00 00 FF FF 50 B2 FF FF 50 B2 7E 9C
2026-07-25T06:07:40.046658+00:00 TX 01 03 00 20 00 1B 04 0B
2026-07-25T06:07:40.084667+00:00 RX 01 03 36 00 00 00 17 00 00 0A B4 00 00 00 00 00 00 00 00 00 00 00 00 00 03 00 04 00 00 00 00 00 00 00 00 00 00 00 01 00 00 00 00 00 00 00 00 00 00 00 00 00 00 00 00 00 00 A3 3D
2026-07-25T06:07:40.087668+00:00 TX 01 03 01 C0 00 05 84 09
2026-07-25T06:07:40.099667+00:00 RX 01 03 0A 00 02 00 00 00 00 00 00 00 00 3D D6
2026-07-25T06:07:40.101668+00:00 TX 01 03 01 03 00 01 75 F6
2026-07-25T06:07:40.108670+00:00 RX 01 03 02 00 00 B8 44
2026-07-25T06:07:40.110671+00:00 TX 01 03 00 20 00 02 C5 C1
2026-07-25T06:07:40.118174+00:00 RX 01 03 04 00 00 00 18 FA 39
2026-07-25T06:07:40.169686+00:00 TX 01 03 00 20 00 02 C5 C1
2026-07-25T06:07:40.177688+00:00 RX 01 03 04 00 00 00 18 FA 39
2026-07-25T06:07:40.228195+00:00 TX 01 03 00 20 00 02 C5 C1
2026-07-25T06:07:40.236197+00:00 RX 01 03 04 00 00 00 19 3B F9
2026-07-25T06:07:40.286710+00:00 TX 01 03 00 20 00 02 C5 C1
2026-07-25T06:07:40.295712+00:00 RX 01 03 04 00 00 00 1A 7B F8
2026-07-25T06:07:40.345734+00:00 TX 01 03 00 20 00 02 C5 C1
2026-07-25T06:07:40.353736+00:00 RX 01 03 04 00 00 00 1A 7B F8
2026-07-25T06:07:40.403817+00:00 TX 01 03 00 20 00 02 C5 C1
2026-07-25T06:07:40.411819+00:00 RX 01 03 04 00 00 00 1B BA 38
2026-07-25T06:07:40.462331+00:00 TX 01 03 00 20 00 02 C5 C1
2026-07-25T06:07:40.470333+00:00 RX 01 03 04 00 00 00 1B BA 38
2026-07-25T06:07:40.520843+00:00 TX 01 03 00 20 00 02 C5 C1
2026-07-25T06:07:40.528841+00:00 RX 01 03 04 00 00 00 1C FB FA
2026-07-25T06:07:40.579356+00:00 TX 01 03 00 20 00 02 C5 C1
2026-07-25T06:07:40.587354+00:00 RX 01 03 04 00 00 00 1D 3A 3A
2026-07-25T06:07:40.637865+00:00 TX 01 03 00 20 00 02 C5 C1
2026-07-25T06:07:40.645368+00:00 RX 01 03 04 00 00 00 1D 3A 3A
2026-07-25T06:07:40.696894+00:00 TX 01 03 00 20 00 02 C5 C1
2026-07-25T06:07:40.704893+00:00 RX 01 03 04 00 00 00 1E 7A 3B
2026-07-25T06:07:40.754924+00:00 TX 01 03 00 20 00 02 C5 C1
2026-07-25T06:07:40.761926+00:00 RX 01 03 04 00 00 00 1E 7A 3B
2026-07-25T06:07:40.813435+00:00 TX 01 03 00 20 00 02 C5 C1
2026-07-25T06:07:40.821437+00:00 RX 01 03 04 00 00 00 1F BB FB
2026-07-25T06:07:40.871976+00:00 TX 01 03 00 20 00 02 C5 C1
2026-07-25T06:07:40.878977+00:00 RX 01 03 04 00 00 00 20 FB EB
2026-07-25T06:07:40.930969+00:00 TX 01 03 00 20 00 02 C5 C1
2026-07-25T06:07:40.938971+00:00 RX 01 03 04 00 00 00 20 FB EB
2026-07-25T06:07:40.989510+00:00 TX 01 03 00 20 00 02 C5 C1
2026-07-25T06:07:40.998016+00:00 RX 01 03 04 00 00 00 21 3A 2B
2026-07-25T06:07:41.048041+00:00 TX 01 03 00 20 00 02 C5 C1
2026-07-25T06:07:41.056042+00:00 RX 01 03 04 00 00 00 21 3A 2B
2026-07-25T06:07:41.106051+00:00 TX 01 03 00 20 00 02 C5 C1
2026-07-25T06:07:41.114053+00:00 RX 01 03 04 00 00 00 22 7A 2A
2026-07-25T06:07:41.165064+00:00 TX 01 03 00 20 00 02 C5 C1
2026-07-25T06:07:41.173066+00:00 RX 01 03 04 00 00 00 23 BB EA
2026-07-25T06:07:41.223576+00:00 TX 01 03 00 20 00 02 C5 C1
2026-07-25T06:07:41.231577+00:00 RX 01 03 04 00 00 00 23 BB EA
2026-07-25T06:07:41.283087+00:00 TX 01 03 00 20 00 02 C5 C1
2026-07-25T06:07:41.291089+00:00 RX 01 03 04 00 00 00 24 FA 28
2026-07-25T06:07:41.341595+00:00 TX 01 03 00 20 00 02 C5 C1
2026-07-25T06:07:41.349099+00:00 RX 01 03 04 00 00 00 24 FA 28
2026-07-25T06:07:41.400649+00:00 TX 01 03 00 20 00 02 C5 C1
2026-07-25T06:07:41.408649+00:00 RX 01 03 04 00 00 00 25 3B E8
2026-07-25T06:07:41.459160+00:00 TX 01 03 00 20 00 02 C5 C1
2026-07-25T06:07:41.467162+00:00 RX 01 03 04 00 00 00 26 7B E9
2026-07-25T06:07:41.517671+00:00 TX 01 03 00 20 00 02 C5 C1
2026-07-25T06:07:41.525673+00:00 RX 01 03 04 00 00 00 26 7B E9
2026-07-25T06:07:41.576183+00:00 TX 01 03 00 20 00 02 C5 C1
2026-07-25T06:07:41.584181+00:00 RX 01 03 04 00 00 00 27 BA 29
2026-07-25T06:07:41.634193+00:00 TX 01 03 00 20 00 02 C5 C1
2026-07-25T06:07:41.642195+00:00 RX 01 03 04 00 00 00 27 BA 29
2026-07-25T06:07:41.692239+00:00 TX 01 03 00 20 00 02 C5 C1
2026-07-25T06:07:41.699971+00:00 RX 01 03 04 00 00 00 28 FA 2D
2026-07-25T06:07:41.751051+00:00 TX 01 03 00 20 00 02 C5 C1
2026-07-25T06:07:41.759052+00:00 RX 01 03 04 00 00 00 28 FA 2D
2026-07-25T06:07:41.809562+00:00 TX 01 03 00 20 00 02 C5 C1
2026-07-25T06:07:41.817562+00:00 RX 01 03 04 00 00 00 29 3B ED
2026-07-25T06:07:41.867733+00:00 TX 01 03 00 20 00 02 C5 C1
2026-07-25T06:07:41.876236+00:00 RX 01 03 04 00 00 00 2A 7B EC
2026-07-25T06:07:41.926777+00:00 TX 01 03 00 20 00 02 C5 C1
2026-07-25T06:07:41.935776+00:00 RX 01 03 04 00 00 00 2A 7B EC
2026-07-25T06:07:41.986288+00:00 TX 01 03 00 20 00 02 C5 C1
2026-07-25T06:07:41.995290+00:00 RX 01 03 04 00 00 00 2B BA 2C
2026-07-25T06:07:42.045850+00:00 TX 01 03 00 20 00 02 C5 C1
2026-07-25T06:07:42.054354+00:00 RX 01 03 04 00 00 00 2B BA 2C
2026-07-25T06:07:42.105076+00:00 TX 01 03 00 20 00 02 C5 C1
2026-07-25T06:07:42.113078+00:00 RX 01 03 04 00 00 00 2C FB EE
2026-07-25T06:07:42.163089+00:00 TX 01 03 00 20 00 02 C5 C1
2026-07-25T06:07:42.171091+00:00 RX 01 03 04 00 00 00 2D 3A 2E
2026-07-25T06:07:42.221599+00:00 TX 01 03 00 20 00 02 C5 C1
2026-07-25T06:07:42.229602+00:00 RX 01 03 04 00 00 00 2D 3A 2E
2026-07-25T06:07:42.280112+00:00 TX 01 03 00 20 00 02 C5 C1
2026-07-25T06:07:42.288113+00:00 RX 01 03 04 00 00 00 2E 7A 2F
2026-07-25T06:07:42.339348+00:00 TX 01 03 00 20 00 02 C5 C1
2026-07-25T06:07:42.348350+00:00 RX 01 03 04 00 00 00 2E 7A 2F
2026-07-25T06:07:42.398419+00:00 TX 01 03 00 20 00 02 C5 C1
2026-07-25T06:07:42.405922+00:00 RX 01 03 04 00 00 00 2F BB EF
2026-07-25T06:07:42.457432+00:00 TX 01 03 00 20 00 02 C5 C1
2026-07-25T06:07:42.465433+00:00 RX 01 03 04 00 00 00 30 FA 27
2026-07-25T06:07:42.516442+00:00 TX 01 03 00 20 00 02 C5 C1
2026-07-25T06:07:42.524945+00:00 RX 01 03 04 00 00 00 30 FA 27
2026-07-25T06:07:42.575456+00:00 TX 01 03 00 20 00 02 C5 C1
2026-07-25T06:07:42.583458+00:00 RX 01 03 04 00 00 00 31 3B E7
2026-07-25T06:07:42.633967+00:00 TX 01 03 00 20 00 02 C5 C1
2026-07-25T06:07:42.641967+00:00 RX 01 03 04 00 00 00 31 3B E7
2026-07-25T06:07:42.692002+00:00 TX 01 03 00 20 00 02 C5 C1
2026-07-25T06:07:42.700000+00:00 RX 01 03 04 00 00 00 32 7B E6
2026-07-25T06:07:42.750545+00:00 TX 01 03 00 20 00 02 C5 C1
2026-07-25T06:07:42.759048+00:00 RX 01 03 04 00 00 00 33 BA 26
2026-07-25T06:07:42.809558+00:00 TX 01 03 00 20 00 02 C5 C1
2026-07-25T06:07:42.817560+00:00 RX 01 03 04 00 00 00 33 BA 26
2026-07-25T06:07:42.868105+00:00 TX 01 03 00 20 00 02 C5 C1
2026-07-25T06:07:42.877107+00:00 RX 01 03 04 00 00 00 34 FB E4
2026-07-25T06:07:42.927616+00:00 TX 01 03 00 20 00 02 C5 C1
2026-07-25T06:07:42.936164+00:00 RX 01 03 04 00 00 00 34 FB E4
2026-07-25T06:07:42.986274+00:00 TX 01 03 00 20 00 02 C5 C1
2026-07-25T06:07:42.995275+00:00 RX 01 03 04 00 00 00 35 3A 24
2026-07-25T06:07:43.045354+00:00 TX 01 03 00 20 00 02 C5 C1
2026-07-25T06:07:43.053857+00:00 RX 01 03 04 00 00 00 36 7A 25
2026-07-25T06:07:43.103868+00:00 TX 01 03 00 20 00 02 C5 C1
2026-07-25T06:07:43.111867+00:00 RX 01 03 04 00 00 00 36 7A 25
2026-07-25T06:07:43.163537+00:00 TX 01 03 00 20 00 02 C5 C1
2026-07-25T06:07:43.171538+00:00 RX 01 03 04 00 00 00 37 BB E5
2026-07-25T06:07:43.221847+00:00 TX 01 03 00 20 00 02 C5 C1
2026-07-25T06:07:43.229849+00:00 RX 01 03 04 00 00 00 37 BB E5
2026-07-25T06:07:43.280359+00:00 TX 01 03 00 20 00 02 C5 C1
2026-07-25T06:07:43.288361+00:00 RX 01 03 04 00 00 00 38 FB E1
2026-07-25T06:07:43.338983+00:00 TX 01 03 00 20 00 02 C5 C1
2026-07-25T06:07:43.346985+00:00 RX 01 03 04 00 00 00 39 3A 21
2026-07-25T06:07:43.397156+00:00 TX 01 03 00 20 00 02 C5 C1
2026-07-25T06:07:43.405658+00:00 RX 01 03 04 00 00 00 39 3A 21
2026-07-25T06:07:43.456169+00:00 TX 01 03 00 20 00 02 C5 C1
2026-07-25T06:07:43.464171+00:00 RX 01 03 04 00 00 00 3A 7A 20
2026-07-25T06:07:43.514180+00:00 TX 01 03 00 20 00 02 C5 C1
2026-07-25T06:07:43.522683+00:00 RX 01 03 04 00 00 00 3A 7A 20
2026-07-25T06:07:43.573197+00:00 TX 01 03 00 20 00 02 C5 C1
2026-07-25T06:07:43.581199+00:00 RX 01 03 04 00 00 00 3B BB E0
2026-07-25T06:07:43.631709+00:00 TX 01 03 00 20 00 02 C5 C1
2026-07-25T06:07:43.639709+00:00 RX 01 03 04 00 00 00 3C FA 22
2026-07-25T06:07:43.689737+00:00 TX 01 03 00 20 00 02 C5 C1
2026-07-25T06:07:43.697739+00:00 RX 01 03 04 00 00 00 3C FA 22
2026-07-25T06:07:43.747755+00:00 TX 01 03 00 20 00 02 C5 C1
2026-07-25T06:07:43.756258+00:00 RX 01 03 04 00 00 00 3D 3B E2
2026-07-25T06:07:43.806768+00:00 TX 01 03 00 20 00 02 C5 C1
2026-07-25T06:07:43.815770+00:00 RX 01 03 04 00 00 00 3D 3B E2
2026-07-25T06:07:43.865787+00:00 TX 01 03 00 20 00 02 C5 C1
2026-07-25T06:07:43.874289+00:00 RX 01 03 04 00 00 00 3E 7B E3
2026-07-25T06:07:43.924798+00:00 TX 01 03 00 20 00 02 C5 C1
2026-07-25T06:07:43.932800+00:00 RX 01 03 04 00 00 00 3F BA 23
2026-07-25T06:07:43.983373+00:00 TX 01 03 00 20 00 02 C5 C1
2026-07-25T06:07:43.991372+00:00 RX 01 03 04 00 00 00 3F BA 23
2026-07-25T06:07:44.041601+00:00 TX 01 03 00 20 00 02 C5 C1
2026-07-25T06:07:44.049621+00:00 RX 01 03 04 00 00 00 40 FB C3
2026-07-25T06:07:44.100062+00:00 TX 01 03 00 20 00 02 C5 C1
2026-07-25T06:07:44.108060+00:00 RX 01 03 04 00 00 00 40 FB C3
2026-07-25T06:07:44.158070+00:00 TX 01 03 00 20 00 02 C5 C1
2026-07-25T06:07:44.166072+00:00 RX 01 03 04 00 00 00 41 3A 03
2026-07-25T06:07:44.216083+00:00 TX 01 03 00 20 00 02 C5 C1
2026-07-25T06:07:44.224084+00:00 RX 01 03 04 00 00 00 42 7A 02
2026-07-25T06:07:44.274594+00:00 TX 01 03 00 20 00 02 C5 C1
2026-07-25T06:07:44.282592+00:00 RX 01 03 04 00 00 00 42 7A 02
2026-07-25T06:07:44.332603+00:00 TX 01 03 00 20 00 02 C5 C1
2026-07-25T06:07:44.340602+00:00 RX 01 03 04 00 00 00 43 BB C2
2026-07-25T06:07:44.390729+00:00 TX 01 03 00 20 00 02 C5 C1
2026-07-25T06:07:44.398084+00:00 RX 01 03 04 00 00 00 43 BB C2
2026-07-25T06:07:44.448238+00:00 TX 01 03 00 20 00 02 C5 C1
2026-07-25T06:07:44.456240+00:00 RX 01 03 04 00 00 00 44 FA 00
2026-07-25T06:07:44.506443+00:00 TX 01 03 00 20 00 02 C5 C1
2026-07-25T06:07:44.515448+00:00 RX 01 03 04 00 00 00 45 3B C0
2026-07-25T06:07:44.565846+00:00 TX 01 03 00 20 00 02 C5 C1
2026-07-25T06:07:44.574848+00:00 RX 01 03 04 00 00 00 45 3B C0
2026-07-25T06:07:44.625359+00:00 TX 01 03 00 20 00 02 C5 C1
2026-07-25T06:07:44.634361+00:00 RX 01 03 04 00 00 00 46 7B C1
2026-07-25T06:07:44.684402+00:00 TX 01 03 00 20 00 02 C5 C1
2026-07-25T06:07:44.692404+00:00 RX 01 03 04 00 00 00 46 7B C1
2026-07-25T06:07:44.742955+00:00 TX 01 03 00 20 00 02 C5 C1
2026-07-25T06:07:44.750954+00:00 RX 01 03 04 00 00 00 47 BA 01
2026-07-25T06:07:44.801464+00:00 TX 01 03 00 20 00 02 C5 C1
2026-07-25T06:07:44.808967+00:00 RX 01 03 04 00 00 00 48 FA 05
2026-07-25T06:07:44.858978+00:00 TX 01 03 00 20 00 02 C5 C1
2026-07-25T06:07:44.866977+00:00 RX 01 03 04 00 00 00 48 FA 05
2026-07-25T06:07:44.918483+00:00 TX 01 03 00 20 00 02 C5 C1
2026-07-25T06:07:44.925987+00:00 RX 01 03 04 00 00 00 49 3B C5
2026-07-25T06:07:44.976999+00:00 TX 01 03 00 20 00 02 C5 C1
2026-07-25T06:07:44.985001+00:00 RX 01 03 04 00 00 00 49 3B C5
2026-07-25T06:07:45.035033+00:00 TX 01 03 00 20 00 02 C5 C1
2026-07-25T06:07:45.043035+00:00 RX 01 03 04 00 00 00 4A 7B C4
2026-07-25T06:07:45.093050+00:00 TX 01 03 00 20 00 02 C5 C1
2026-07-25T06:07:45.101053+00:00 RX 01 03 04 00 00 00 4B BA 04
2026-07-25T06:07:45.151559+00:00 TX 01 03 00 20 00 02 C5 C1
2026-07-25T06:07:45.159561+00:00 RX 01 03 04 00 00 00 4B BA 04
2026-07-25T06:07:45.209572+00:00 TX 01 03 00 20 00 02 C5 C1
2026-07-25T06:07:45.217573+00:00 RX 01 03 04 00 00 00 4C FB C6
2026-07-25T06:07:45.268082+00:00 TX 01 03 00 20 00 02 C5 C1
2026-07-25T06:07:45.276084+00:00 RX 01 03 04 00 00 00 4C FB C6
2026-07-25T06:07:45.326594+00:00 TX 01 03 00 20 00 02 C5 C1
2026-07-25T06:07:45.335596+00:00 RX 01 03 04 00 00 00 4D 3A 06
2026-07-25T06:07:45.385671+00:00 TX 01 03 00 20 00 02 C5 C1
2026-07-25T06:07:45.394671+00:00 RX 01 03 04 00 00 00 4D 3A 06
2026-07-25T06:07:45.445183+00:00 TX 01 03 00 20 00 02 C5 C1
2026-07-25T06:07:45.453182+00:00 RX 01 03 04 00 00 00 4E 7A 07
2026-07-25T06:07:45.504695+00:00 TX 01 03 00 20 00 02 C5 C1
2026-07-25T06:07:45.512694+00:00 RX 01 03 04 00 00 00 4F BB C7
2026-07-25T06:07:45.562707+00:00 TX 01 03 00 20 00 02 C5 C1
2026-07-25T06:07:45.570709+00:00 RX 01 03 04 00 00 00 4F BB C7
2026-07-25T06:07:45.620725+00:00 TX 01 03 00 20 00 02 C5 C1
2026-07-25T06:07:45.628727+00:00 RX 01 03 04 00 00 00 50 FA 0F
2026-07-25T06:07:45.678774+00:00 TX 01 03 00 20 00 02 C5 C1
2026-07-25T06:07:45.686776+00:00 RX 01 03 04 00 00 00 50 FA 0F
2026-07-25T06:07:45.736796+00:00 TX 01 03 00 20 00 02 C5 C1
2026-07-25T06:07:45.744798+00:00 RX 01 03 04 00 00 00 51 3B CF
2026-07-25T06:07:45.795302+00:00 TX 01 03 00 20 00 02 C5 C1
2026-07-25T06:07:45.803806+00:00 RX 01 03 04 00 00 00 52 7B CE
2026-07-25T06:07:45.854379+00:00 TX 01 03 00 20 00 02 C5 C1
2026-07-25T06:07:45.861886+00:00 RX 01 03 04 00 00 00 52 7B CE
2026-07-25T06:07:45.913405+00:00 TX 01 03 00 20 00 02 C5 C1
2026-07-25T06:07:45.921407+00:00 RX 01 03 04 00 00 00 53 BA 0E
