2026-07-24T18:41:57.053877+00:00 TX 01 03 00 00 00 20 44 12
2026-07-24T18:41:57.098407+00:00 RX 01 03 40 00 00 00 00 00 03 00 00 00 03 00 00 00 00 00 00 00 00 00 00 00 00 00 00 00 01 00 00 01 00 05 0A 00 00 00 00 00 00 00 00 00 00 00 00 00 00 00 00 00 00 00 00 00 00 00 00 FF FF 57 0A FF FF 57 0A DD 72
2026-07-24T18:41:57.102405+00:00 TX 01 03 00 20 00 02 C5 C1
2026-07-24T18:41:57.110406+00:00 RX 01 03 04 00 00 01 5D 3A 5A
2026-07-24T18:41:57.112407+00:00 TX 01 03 01 C4 00 01 C4 0B
2026-07-24T18:41:57.118910+00:00 RX 01 03 02 00 00 B8 44
2026-07-24T18:41:57.169664+00:00 TX 01 03 00 00 00 20 44 12
2026-07-24T18:41:57.214677+00:00 RX 01 03 40 00 00 00 00 00 03 00 00 00 03 00 00 00 00 00 00 00 00 00 00 00 00 00 00 00 01 00 00 01 00 05 0A 00 00 00 00 00 00 00 00 00 00 00 00 00 00 00 00 00 00 00 00 00 00 00 00 FF FF 57 C0 FF FF 57 C0 C5 35
2026-07-24T18:41:57.217677+00:00 TX 01 03 00 20 00 02 C5 C1
2026-07-24T18:41:57.225679+00:00 RX 01 03 04 00 00 01 5E 7A 5B
2026-07-24T18:41:57.228373+00:00 TX 01 03 01 C4 00 01 C4 0B
2026-07-24T18:41:57.235375+00:00 RX 01 03 02 00 00 B8 44
2026-07-24T18:41:57.285882+00:00 TX 01 03 00 00 00 20 44 12
2026-07-24T18:41:57.330892+00:00 RX 01 03 40 00 00 00 00 00 03 00 00 00 03 00 00 00 00 00 00 00 00 00 00 00 00 00 00 00 01 00 00 01 00 05 0A 00 00 00 00 00 00 00 00 00 00 00 00 00 00 00 00 00 00 00 00 00 00 00 00 FF FF 57 AB FF FF 57 AB A1 13
2026-07-24T18:41:57.332892+00:00 TX 01 03 00 20 00 02 C5 C1
2026-07-24T18:41:57.340894+00:00 RX 01 03 04 00 00 01 5F BB 9B
2026-07-24T18:41:57.342895+00:00 TX 01 03 01 C4 00 01 C4 0B
2026-07-24T18:41:57.349897+00:00 RX 01 03 02 00 00 B8 44
2026-07-24T18:41:57.400406+00:00 TX 01 03 00 00 00 20 44 12
2026-07-24T18:41:57.444417+00:00 RX 01 03 40 00 00 00 00 00 03 00 00 00 03 00 00 00 00 00 00 00 00 00 00 00 00 00 00 00 01 00 00 01 00 05 0A 00 00 00 00 00 00 00 00 00 00 00 00 00 00 00 00 00 00 00 00 00 00 00 00 FF FF 56 88 FF FF 56 88 25 4C
2026-07-24T18:41:57.447417+00:00 TX 01 03 00 20 00 02 C5 C1
2026-07-24T18:41:57.455419+00:00 RX 01 03 04 00 00 01 61 3A 4B
2026-07-24T18:41:57.457419+00:00 TX 01 03 01 C4 00 01 C4 0B
2026-07-24T18:41:57.463418+00:00 RX 01 03 02 00 00 B8 44
2026-07-24T18:41:57.513993+00:00 TX 01 03 00 00 00 20 44 12
2026-07-24T18:41:57.558502+00:00 RX 01 03 40 00 00 00 00 00 03 00 00 00 03 00 00 00 00 00 00 00 00 00 00 00 00 00 00 00 01 00 00 01 00 05 0A 00 00 00 00 00 00 00 00 00 00 00 00 00 00 00 00 00 00 00 00 00 00 00 00 FF FF 56 39 FF FF 56 39 99 22
2026-07-24T18:41:57.561503+00:00 TX 01 03 00 20 00 02 C5 C1
2026-07-24T18:41:57.570028+00:00 RX 01 03 04 00 00 01 62 7A 4A
2026-07-24T18:41:57.572029+00:00 TX 01 03 01 C4 00 01 C4 0B
2026-07-24T18:41:57.578531+00:00 RX 01 03 02 00 00 B8 44
2026-07-24T18:41:57.628542+00:00 TX 01 03 00 00 00 20 44 12
2026-07-24T18:41:57.673419+00:00 RX 01 03 40 00 00 00 00 00 03 00 00 00 03 00 00 00 00 00 00 00 00 00 00 00 00 00 00 00 01 00 00 01 00 05 0A 00 00 00 00 00 00 00 00 00 00 00 00 00 00 00 00 00 00 00 00 00 00 00 00 FF FF 57 80 FF FF 57 80 C5 0A
2026-07-24T18:41:57.676416+00:00 TX 01 03 00 20 00 02 C5 C1
2026-07-24T18:41:57.683551+00:00 RX 01 03 04 00 00 01 63 BB 8A
2026-07-24T18:41:57.686553+00:00 TX 01 03 01 C4 00 01 C4 0B
2026-07-24T18:41:57.692553+00:00 RX 01 03 02 00 00 B8 44
2026-07-24T18:41:57.742624+00:00 TX 01 03 00 00 00 20 44 12
2026-07-24T18:41:57.788148+00:00 RX 01 03 40 00 00 00 00 00 03 00 00 00 03 00 00 00 00 00 00 00 00 00 00 00 00 00 00 00 01 00 00 01 00 05 0A 00 00 00 00 00 00 00 00 00 00 00 00 00 00 00 00 00 00 00 00 00 00 00 00 FF FF 56 EF FF FF 56 EF 51 6E
2026-07-24T18:41:57.790148+00:00 TX 01 03 00 20 00 02 C5 C1
2026-07-24T18:41:57.797655+00:00 RX 01 03 04 00 00 01 64 FA 48
2026-07-24T18:41:57.800653+00:00 TX 01 03 01 C4 00 01 C4 0B
2026-07-24T18:41:57.807651+00:00 RX 01 03 02 00 00 B8 44
2026-07-24T18:41:57.857830+00:00 TX 01 03 00 00 00 20 44 12
2026-07-24T18:41:57.903391+00:00 RX 01 03 40 00 00 00 00 00 03 00 00 00 03 00 00 00 00 00 00 00 00 00 00 00 00 00 00 00 01 00 00 01 00 05 0A 00 00 00 00 00 00 00 00 00 00 00 00 00 00 00 00 00 00 00 00 00 00 00 00 FF FF 56 9D FF FF 56 9D E9 40
2026-07-24T18:41:57.905391+00:00 TX 01 03 00 20 00 02 C5 C1
2026-07-24T18:41:57.913393+00:00 RX 01 03 04 00 00 01 65 3B 88
2026-07-24T18:41:57.915394+00:00 TX 01 03 01 C4 00 01 C4 0B
2026-07-24T18:41:57.921898+00:00 RX 01 03 02 00 00 B8 44
2026-07-24T18:41:57.972272+00:00 TX 01 03 00 00 00 20 44 12
2026-07-24T18:41:58.016900+00:00 RX 01 03 40 00 00 00 00 00 03 00 00 00 03 00 00 00 00 00 00 00 00 00 00 00 00 00 00 00 01 00 00 01 00 05 0A 00 00 00 00 00 00 00 00 00 00 00 00 00 00 00 00 00 00 00 00 00 00 00 00 FF FF 59 37 FF FF 59 37 74 28
2026-07-24T18:41:58.018901+00:00 TX 01 03 00 20 00 02 C5 C1
2026-07-24T18:41:58.026903+00:00 RX 01 03 04 00 00 01 66 7B 89
2026-07-24T18:41:58.028904+00:00 TX 01 03 01 C4 00 01 C4 0B
2026-07-24T18:41:58.035905+00:00 RX 01 03 02 00 00 B8 44
2026-07-24T18:41:58.086842+00:00 TX 01 03 00 00 00 20 44 12
2026-07-24T18:41:58.131546+00:00 RX 01 03 40 00 00 00 00 00 03 00 00 00 03 00 00 00 00 00 00 00 00 00 00 00 00 00 00 00 01 00 00 01 00 05 0A 00 00 00 00 00 00 00 00 00 00 00 00 00 00 00 00 00 00 00 00 00 00 00 00 FF FF 59 B4 FF FF 59 B4 70 57
2026-07-24T18:41:58.133547+00:00 TX 01 03 00 20 00 02 C5 C1
2026-07-24T18:41:58.141549+00:00 RX 01 03 04 00 00 01 68 FA 4D
2026-07-24T18:41:58.143763+00:00 TX 01 03 01 C4 00 01 C4 0B
2026-07-24T18:41:58.150309+00:00 RX 01 03 02 00 00 B8 44
2026-07-24T18:41:58.200885+00:00 TX 01 03 00 00 00 20 44 12
2026-07-24T18:41:58.245738+00:00 RX 01 03 40 00 00 00 00 00 03 00 00 00 03 00 00 00 00 00 00 00 00 00 00 00 00 00 00 00 01 00 00 01 00 05 0A 00 00 00 00 00 00 00 00 00 00 00 00 00 00 00 00 00 00 00 00 00 00 00 00 FF FF 5A 78 FF FF 5A 78 60 D1
2026-07-24T18:41:58.247739+00:00 TX 01 03 00 20 00 02 C5 C1
2026-07-24T18:41:58.255740+00:00 RX 01 03 04 00 00 01 69 3B 8D
2026-07-24T18:41:58.257740+00:00 TX 01 03 01 C4 00 01 C4 0B
2026-07-24T18:41:58.263493+00:00 RX 01 03 02 00 00 B8 44
2026-07-24T18:41:58.314955+00:00 TX 01 03 00 00 00 20 44 12
2026-07-24T18:41:58.359463+00:00 RX 01 03 40 00 00 00 00 00 03 00 00 00 03 00 00 00 00 00 00 00 00 00 00 00 00 00 00 00 01 00 00 01 00 05 0A 00 00 00 00 00 00 00 00 00 00 00 00 00 00 00 00 00 00 00 00 00 00 00 00 FF FF 5C 2B FF FF 5C 2B A7 26
2026-07-24T18:41:58.362463+00:00 TX 01 03 00 20 00 02 C5 C1
2026-07-24T18:41:58.371016+00:00 RX 01 03 04 00 00 01 6A 7B 8C
2026-07-24T18:41:58.373016+00:00 TX 01 03 01 C4 00 01 C4 0B
2026-07-24T18:41:58.379519+00:00 RX 01 03 02 00 00 B8 44
2026-07-24T18:41:58.430029+00:00 TX 01 03 00 00 00 20 44 12
2026-07-24T18:41:58.474898+00:00 RX 01 03 40 00 00 00 00 00 03 00 00 00 03 00 00 00 00 00 00 00 00 00 00 00 00 00 00 00 01 00 00 01 00 05 0A 00 00 00 00 00 00 00 00 00 00 00 00 00 00 00 00 00 00 00 00 00 00 00 00 FF FF 59 4B FF FF 59 4B 24 03
2026-07-24T18:41:58.477401+00:00 TX 01 03 00 20 00 02 C5 C1
2026-07-24T18:41:58.485399+00:00 RX 01 03 04 00 00 01 6B BA 4C
2026-07-24T18:41:58.487400+00:00 TX 01 03 01 C4 00 01 C4 0B
2026-07-24T18:41:58.493401+00:00 RX 01 03 02 00 00 B8 44
2026-07-24T18:41:58.544503+00:00 TX 01 03 00 00 00 20 44 12
2026-07-24T18:41:58.588508+00:00 RX 01 03 40 00 00 00 00 00 03 00 00 00 03 00 00 00 00 00 00 00 00 00 00 00 00 00 00 00 01 00 00 01 00 05 0A 00 00 00 00 00 00 00 00 00 00 00 00 00 00 00 00 00 00 00 00 00 00 00 00 FF FF 58 1F FF FF 58 1F 14 71
2026-07-24T18:41:58.592509+00:00 TX 01 03 00 20 00 02 C5 C1
2026-07-24T18:41:58.601013+00:00 RX 01 03 04 00 00 01 6C FB 8E
2026-07-24T18:41:58.603013+00:00 TX 01 03 01 C4 00 01 C4 0B
2026-07-24T18:41:58.610015+00:00 RX 01 03 02 00 00 B8 44
2026-07-24T18:41:58.660054+00:00 TX 01 03 00 00 00 20 44 12
2026-07-24T18:41:58.704061+00:00 RX 01 03 40 00 00 00 00 00 03 00 00 00 03 00 00 00 00 00 00 00 00 00 00 00 00 00 00 00 01 00 00 01 00 05 0A 00 00 00 00 00 00 00 00 00 00 00 00 00 00 00 00 00 00 00 00 00 00 00 00 FF FF 58 AE FF FF 58 AE A8 1F
2026-07-24T18:41:58.707059+00:00 TX 01 03 00 20 00 02 C5 C1
2026-07-24T18:41:58.714060+00:00 RX 01 03 04 00 00 01 6D 3A 4E
2026-07-24T18:41:58.717061+00:00 TX 01 03 01 C4 00 01 C4 0B
2026-07-24T18:41:58.723565+00:00 RX 01 03 02 00 00 B8 44
2026-07-24T18:41:58.773603+00:00 TX 01 03 00 00 00 20 44 12
2026-07-24T18:41:58.818638+00:00 RX 01 03 40 00 00 00 00 00 03 00 00 00 03 00 00 00 00 00 00 00 00 00 00 00 00 00 00 00 01 00 00 01 00 05 0A 00 00 00 00 00 00 00 00 00 00 00 00 00 00 00 00 00 00 00 00 00 00 00 00 FF FF 5B B2 FF FF 5B B2 78 D7
2026-07-24T18:41:58.820638+00:00 TX 01 03 00 20 00 02 C5 C1
2026-07-24T18:41:58.829142+00:00 RX 01 03 04 00 00 01 6F BB 8F
2026-07-24T18:41:58.832143+00:00 TX 01 03 01 C4 00 01 C4 0B
2026-07-24T18:41:58.838145+00:00 RX 01 03 02 00 00 B8 44
2026-07-24T18:41:58.889651+00:00 TX 01 03 00 00 00 20 44 12
2026-07-24T18:41:58.934660+00:00 RX 01 03 40 00 00 00 00 00 03 00 00 00 03 00 00 00 00 00 00 00 00 00 00 00 00 00 00 00 01 00 00 01 00 05 0A 00 00 00 00 00 00 00 00 00 00 00 00 00 00 00 00 00 00 00 00 00 00 00 00 FF FF 5B 00 FF FF 5B 00 C0 B8
2026-07-24T18:41:58.937658+00:00 TX 01 03 00 20 00 02 C5 C1
2026-07-24T18:41:58.945660+00:00 RX 01 03 04 00 00 01 70 FA 47
2026-07-24T18:41:58.947660+00:00 TX 01 03 01 C4 00 01 C4 0B
2026-07-24T18:41:58.954159+00:00 RX 01 03 02 00 00 B8 44
2026-07-24T18:41:59.004690+00:00 TX 01 03 00 00 00 20 44 12
2026-07-24T18:41:59.049701+00:00 RX 01 03 40 00 00 00 00 00 03 00 00 00 03 00 00 00 00 00 00 00 00 00 00 00 00 00 00 00 01 00 00 01 00 05 0A 00 00 00 00 00 00 00 00 00 00 00 00 00 00 00 00 00 00 00 00 00 00 00 00 FF FF 57 82 FF FF 57 82 3D 0B
2026-07-24T18:41:59.051701+00:00 TX 01 03 00 20 00 02 C5 C1
2026-07-24T18:41:59.059703+00:00 RX 01 03 04 00 00 01 71 3B 87
2026-07-24T18:41:59.061704+00:00 TX 01 03 01 C4 00 01 C4 0B
2026-07-24T18:41:59.068702+00:00 RX 01 03 02 00 00 B8 44
2026-07-24T18:41:59.118709+00:00 TX 01 03 00 00 00 20 44 12
2026-07-24T18:41:59.163792+00:00 RX 01 03 40 00 00 00 00 00 03 00 00 00 03 00 00 00 00 00 00 00 00 00 00 00 00 00 00 00 01 00 00 01 00 05 0A 00 00 00 00 00 00 00 00 00 00 00 00 00 00 00 00 00 00 00 00 00 00 00 00 FF FF 56 FA FF FF 56 FA 9D 62
2026-07-24T18:41:59.165793+00:00 TX 01 03 00 20 00 02 C5 C1
2026-07-24T18:41:59.173296+00:00 RX 01 03 04 00 00 01 72 7B 86
2026-07-24T18:41:59.175296+00:00 TX 01 03 01 C4 00 01 C4 0B
2026-07-24T18:41:59.181799+00:00 RX 01 03 02 00 00 B8 44
2026-07-24T18:41:59.232309+00:00 TX 01 03 00 00 00 20 44 12
2026-07-24T18:41:59.277317+00:00 RX 01 03 40 00 00 00 00 00 03 00 00 00 03 00 00 00 00 00 00 00 00 00 00 00 00 00 00 00 01 00 00 01 00 05 0A 00 00 00 00 00 00 00 00 00 00 00 00 00 00 00 00 00 00 00 00 00 00 00 00 FF FF 58 32 FF FF 58 32 78 6A
2026-07-24T18:41:59.279818+00:00 TX 01 03 00 20 00 02 C5 C1
2026-07-24T18:41:59.288817+00:00 RX 01 03 04 00 00 01 73 BA 46
2026-07-24T18:41:59.290818+00:00 TX 01 03 01 C4 00 01 C4 0B
2026-07-24T18:41:59.297820+00:00 RX 01 03 02 00 00 B8 44
2026-07-24T18:41:59.347858+00:00 TX 01 03 00 00 00 20 44 12
2026-07-24T18:41:59.393868+00:00 RX 01 03 40 00 00 00 00 00 03 00 00 00 03 00 00 00 00 00 00 00 00 00 00 00 00 00 00 00 01 00 00 01 00 05 0A 00 00 00 00 00 00 00 00 00 00 00 00 00 00 00 00 00 00 00 00 00 00 00 00 FF FF 57 5B FF FF 57 5B E1 42
2026-07-24T18:41:59.395868+00:00 TX 01 03 00 20 00 02 C5 C1
2026-07-24T18:41:59.403375+00:00 RX 01 03 04 00 00 01 74 FB 84
2026-07-24T18:41:59.406372+00:00 TX 01 03 01 C4 00 01 C4 0B
2026-07-24T18:41:59.412374+00:00 RX 01 03 02 00 00 B8 44
2026-07-24T18:41:59.463386+00:00 TX 01 03 00 00 00 20 44 12
2026-07-24T18:41:59.508908+00:00 RX 01 03 40 00 00 00 00 00 03 00 00 00 03 00 00 00 00 00 00 00 00 00 00 00 00 00 00 00 01 00 00 01 00 05 0A 00 00 00 00 00 00 00 00 00 00 00 00 00 00 00 00 00 00 00 00 00 00 00 00 FF FF 56 B5 FF FF 56 B5 89 58
2026-07-24T18:41:59.510908+00:00 TX 01 03 00 20 00 02 C5 C1
2026-07-24T18:41:59.518910+00:00 RX 01 03 04 00 00 01 76 7A 45
2026-07-24T18:41:59.520911+00:00 TX 01 03 01 C4 00 01 C4 0B
2026-07-24T18:41:59.528414+00:00 RX 01 03 02 00 00 B8 44
2026-07-24T18:41:59.579444+00:00 TX 01 03 00 00 00 20 44 12
2026-07-24T18:41:59.624948+00:00 RX 01 03 40 00 00 00 00 00 03 00 00 00 03 00 00 00 00 00 00 00 00 00 00 00 00 00 00 00 01 00 00 01 00 05 0A 00 00 00 00 00 00 00 00 00 00 00 00 00 00 00 00 00 00 00 00 00 00 00 00 FF FF 54 FF FF FF 54 FF 91 E3
2026-07-24T18:41:59.626949+00:00 TX 01 03 00 20 00 02 C5 C1
2026-07-24T18:41:59.634492+00:00 RX 01 03 04 00 00 01 77 BB 85
2026-07-24T18:41:59.637493+00:00 TX 01 03 01 C4 00 01 C4 0B
2026-07-24T18:41:59.643494+00:00 RX 01 03 02 00 00 B8 44
2026-07-24T18:41:59.694768+00:00 TX 01 03 00 00 00 20 44 12
2026-07-24T18:41:59.739776+00:00 RX 01 03 40 00 00 00 00 00 03 00 00 00 03 00 00 00 00 00 00 00 00 00 00 00 00 00 00 00 01 00 00 01 00 05 0A 00 00 00 00 00 00 00 00 00 00 00 00 00 00 00 00 00 00 00 00 00 00 00 00 FF FF 56 8D FF FF 56 8D 29 4F
2026-07-24T18:41:59.741777+00:00 TX 01 03 00 20 00 02 C5 C1
2026-07-24T18:41:59.749778+00:00 RX 01 03 04 00 00 01 78 FB 81
2026-07-24T18:41:59.752284+00:00 TX 01 03 01 C4 00 01 C4 0B
2026-07-24T18:41:59.758838+00:00 RX 01 03 02 00 00 B8 44
2026-07-24T18:41:59.809368+00:00 TX 01 03 00 00 00 20 44 12
2026-07-24T18:41:59.854379+00:00 RX 01 03 40 00 00 00 00 00 03 00 00 00 03 00 00 00 00 00 00 00 00 00 00 00 00 00 00 00 01 00 00 01 00 05 0A 00 00 00 00 00 00 00 00 00 00 00 00 00 00 00 00 00 00 00 00 00 00 00 00 FF FF 57 CB FF FF 57 CB 21 33
2026-07-24T18:41:59.856379+00:00 TX 01 03 00 20 00 02 C5 C1
2026-07-24T18:41:59.864381+00:00 RX 01 03 04 00 00 01 79 3A 41
2026-07-24T18:41:59.867378+00:00 TX 01 03 01 C4 00 01 C4 0B
2026-07-24T18:41:59.873380+00:00 RX 01 03 02 00 00 B8 44
2026-07-24T18:41:59.924597+00:00 TX 01 03 00 00 00 20 44 12
2026-07-24T18:41:59.969106+00:00 RX 01 03 40 00 00 00 00 00 03 00 00 00 03 00 00 00 00 00 00 00 00 00 00 00 00 00 00 00 01 00 00 01 00 05 0A 00 00 00 00 00 00 00 00 00 00 00 00 00 00 00 00 00 00 00 00 00 00 00 00 FF FF 57 A2 FF FF 57 A2 BD 14
2026-07-24T18:41:59.971107+00:00 TX 01 03 00 20 00 02 C5 C1
2026-07-24T18:41:59.979108+00:00 RX 01 03 04 00 00 01 7A 7A 40
2026-07-24T18:41:59.981109+00:00 TX 01 03 01 C4 00 01 C4 0B
2026-07-24T18:41:59.987611+00:00 RX 01 03 02 00 00 B8 44
2026-07-24T18:42:00.038124+00:00 TX 01 03 00 00 00 20 44 12
2026-07-24T18:42:00.083154+00:00 RX 01 03 40 00 00 00 00 00 03 00 00 00 03 00 00 00 00 00 00 00 00 00 00 00 00 00 00 00 01 00 00 01 00 05 0A 00 00 00 00 00 00 00 00 00 00 00 00 00 00 00 00 00 00 00 00 00 00 00 00 FF FF 57 16 FF FF 57 16 0D 79
2026-07-24T18:42:00.086154+00:00 TX 01 03 00 20 00 02 C5 C1
2026-07-24T18:42:00.094152+00:00 RX 01 03 04 00 00 01 7B BB 80
2026-07-24T18:42:00.096153+00:00 TX 01 03 01 C4 00 01 C4 0B
2026-07-24T18:42:00.102154+00:00 RX 01 03 02 00 00 B8 44
2026-07-24T18:42:00.152181+00:00 TX 01 03 00 00 00 20 44 12
2026-07-24T18:42:00.196388+00:00 RX 01 03 40 00 00 00 00 00 03 00 00 00 03 00 00 00 00 00 00 00 00 00 00 00 00 00 00 00 01 00 00 01 00 05 0A 00 00 00 00 00 00 00 00 00 00 00 00 00 00 00 00 00 00 00 00 00 00 00 00 FF FF 57 72 FF FF 57 72 7D 5A
2026-07-24T18:42:00.199387+00:00 TX 01 03 00 20 00 02 C5 C1
2026-07-24T18:42:00.207890+00:00 RX 01 03 04 00 00 01 7D 3B 82
2026-07-24T18:42:00.209890+00:00 TX 01 03 01 C4 00 01 C4 0B
2026-07-24T18:42:00.215891+00:00 RX 01 03 02 00 00 B8 44
2026-07-24T18:42:00.266903+00:00 TX 01 03 00 00 00 20 44 12
2026-07-24T18:42:00.313926+00:00 RX 01 03 40 00 00 00 00 00 03 00 00 00 03 00 00 00 00 00 00 00 00 00 00 00 00 00 00 00 01 00 00 01 00 05 0A 00 00 00 00 00 00 00 00 00 00 00 00 00 00 00 00 00 00 00 00 00 00 00 00 FF FF 56 8E FF FF 56 8E 2D 4E
2026-07-24T18:42:00.315927+00:00 TX 01 03 00 20 00 02 C5 C1
2026-07-24T18:42:00.323431+00:00 RX 01 03 04 00 00 01 7E 7B 83
2026-07-24T18:42:00.325431+00:00 TX 01 03 01 C4 00 01 C4 0B
2026-07-24T18:42:00.331432+00:00 RX 01 03 02 00 00 B8 44
2026-07-24T18:42:00.382478+00:00 TX 01 03 00 00 00 20 44 12
2026-07-24T18:42:00.426989+00:00 RX 01 03 40 00 00 00 00 00 03 00 00 00 03 00 00 00 00 00 00 00 00 00 00 00 00 00 00 00 01 00 00 01 00 05 0A 00 00 00 00 00 00 00 00 00 00 00 00 00 00 00 00 00 00 00 00 00 00 00 00 FF FF 57 F5 FF FF 57 F5 89 26
2026-07-24T18:42:00.429989+00:00 TX 01 03 00 20 00 02 C5 C1
2026-07-24T18:42:00.437991+00:00 RX 01 03 04 00 00 01 7F BA 43
2026-07-24T18:42:00.439991+00:00 TX 01 03 01 C4 00 01 C4 0B
2026-07-24T18:42:00.445993+00:00 RX 01 03 02 00 00 B8 44
2026-07-24T18:42:00.497260+00:00 TX 01 03 00 00 00 20 44 12
2026-07-24T18:42:00.542794+00:00 RX 01 03 40 00 00 00 00 00 03 00 00 00 03 00 00 00 00 00 00 00 00 00 00 00 00 00 00 00 01 00 00 01 00 05 0A 00 00 00 00 00 00 00 00 00 00 00 00 00 00 00 00 00 00 00 00 00 00 00 00 FF FF 58 5D FF FF 58 5D EC 4F
2026-07-24T18:42:00.544794+00:00 TX 01 03 00 20 00 02 C5 C1
2026-07-24T18:42:00.552796+00:00 RX 01 03 04 00 00 01 80 FA 03
2026-07-24T18:42:00.555794+00:00 TX 01 03 01 C4 00 01 C4 0B
2026-07-24T18:42:00.562478+00:00 RX 01 03 02 00 00 B8 44
2026-07-24T18:42:00.612991+00:00 TX 01 03 00 00 00 20 44 12
2026-07-24T18:42:00.657019+00:00 RX 01 03 40 00 00 00 00 00 03 00 00 00 03 00 00 00 00 00 00 00 00 00 00 00 00 00 00 00 01 00 00 01 00 05 0A 00 00 00 00 00 00 00 00 00 00 00 00 00 00 00 00 00 00 00 00 00 00 00 00 FF FF 55 65 FF FF 55 65 49 D5
2026-07-24T18:42:00.660020+00:00 TX 01 03 00 20 00 02 C5 C1
2026-07-24T18:42:00.668022+00:00 RX 01 03 04 00 00 01 81 3B C3
2026-07-24T18:42:00.671020+00:00 TX 01 03 01 C4 00 01 C4 0B
2026-07-24T18:42:00.678022+00:00 RX 01 03 02 00 00 B8 44
2026-07-24T18:42:00.728557+00:00 TX 01 03 00 00 00 20 44 12
2026-07-24T18:42:00.773626+00:00 RX 01 03 40 00 00 00 00 00 03 00 00 00 03 00 00 00 00 00 00 00 00 00 00 00 00 00 00 00 01 00 00 01 00 05 0A 00 00 00 00 00 00 00 00 00 00 00 00 00 00 00 00 00 00 00 00 00 00 00 00 FF FF 55 48 FF FF 55 48 25 CE
2026-07-24T18:42:00.775627+00:00 TX 01 03 00 20 00 02 C5 C1
2026-07-24T18:42:00.783629+00:00 RX 01 03 04 00 00 01 82 7B C2
2026-07-24T18:42:00.787133+00:00 TX 01 03 01 C4 00 01 C4 0B
2026-07-24T18:42:00.793134+00:00 RX 01 03 02 00 00 B8 44
2026-07-24T18:42:00.843644+00:00 TX 01 03 00 00 00 20 44 12
2026-07-24T18:42:00.888153+00:00 RX 01 03 40 00 00 00 00 00 03 00 00 00 03 00 00 00 00 00 00 00 00 00 00 00 00 00 00 00 01 00 00 01 00 05 0A 00 00 00 00 00 00 00 00 00 00 00 00 00 00 00 00 00 00 00 00 00 00 00 00 FF FF 57 78 FF FF 57 78 65 5C
2026-07-24T18:42:00.890154+00:00 TX 01 03 00 20 00 02 C5 C1
2026-07-24T18:42:00.898152+00:00 RX 01 03 04 00 00 01 84 FB C0
2026-07-24T18:42:00.900152+00:00 TX 01 03 01 C4 00 01 C4 0B
2026-07-24T18:42:00.906154+00:00 RX 01 03 02 00 00 B8 44
2026-07-24T18:42:00.956181+00:00 TX 01 03 00 00 00 20 44 12
2026-07-24T18:42:01.001217+00:00 RX 01 03 40 00 00 00 00 00 03 00 00 00 03 00 00 00 00 00 00 00 00 00 00 00 00 00 00 00 01 00 00 01 00 05 0A 00 00 00 00 00 00 00 00 00 00 00 00 00 00 00 00 00 00 00 00 00 00 00 00 FF FF 57 46 FF FF 57 46 CD 49
2026-07-24T18:42:01.003218+00:00 TX 01 03 00 20 00 02 C5 C1
2026-07-24T18:42:01.010720+00:00 RX 01 03 04 00 00 01 85 3A 00
2026-07-24T18:42:01.012721+00:00 TX 01 03 01 C4 00 01 C4 0B
2026-07-24T18:42:01.018722+00:00 RX 01 03 02 00 00 B8 44
2026-07-24T18:42:01.068734+00:00 TX 01 03 00 00 00 20 44 12
2026-07-24T18:42:01.113335+00:00 RX 01 03 40 00 00 00 00 00 03 00 00 00 03 00 00 00 00 00 00 00 00 00 00 00 00 00 00 00 01 00 00 01 00 05 0A 00 00 00 00 00 00 00 00 00 00 00 00 00 00 00 00 00 00 00 00 00 00 00 00 FF FF 56 BA FF FF 56 BA 9D 5D
2026-07-24T18:42:01.115336+00:00 TX 01 03 00 20 00 02 C5 C1
2026-07-24T18:42:01.123844+00:00 RX 01 03 04 00 00 01 86 7A 01
2026-07-24T18:42:01.126842+00:00 TX 01 03 01 C4 00 01 C4 0B
2026-07-24T18:42:01.133844+00:00 RX 01 03 02 00 00 B8 44
2026-07-24T18:42:01.184728+00:00 TX 01 03 00 00 00 20 44 12
2026-07-24T18:42:01.229238+00:00 RX 01 03 40 00 00 00 00 00 03 00 00 00 03 00 00 00 00 00 00 00 00 00 00 00 00 00 00 00 01 00 00 01 00 05 0A 00 00 00 00 00 00 00 00 00 00 00 00 00 00 00 00 00 00 00 00 00 00 00 00 FF FF 57 BA FF FF 57 BA 9D 1C
2026-07-24T18:42:01.231239+00:00 TX 01 03 00 20 00 02 C5 C1
2026-07-24T18:42:01.239240+00:00 RX 01 03 04 00 00 01 87 BB C1
2026-07-24T18:42:01.242241+00:00 TX 01 03 01 C4 00 01 C4 0B
2026-07-24T18:42:01.249242+00:00 RX 01 03 02 00 00 B8 44
2026-07-24T18:42:01.299750+00:00 TX 01 03 00 00 00 20 44 12
2026-07-24T18:42:01.344764+00:00 RX 01 03 40 00 00 00 00 00 03 00 00 00 03 00 00 00 00 00 00 00 00 00 00 00 00 00 00 00 01 00 00 01 00 05 0A 00 00 00 00 00 00 00 00 00 00 00 00 00 00 00 00 00 00 00 00 00 00 00 00 FF FF 57 B7 FF FF 57 B7 71 18
2026-07-24T18:42:01.346765+00:00 TX 01 03 00 20 00 02 C5 C1
2026-07-24T18:42:01.354763+00:00 RX 01 03 04 00 00 01 88 FB C5
2026-07-24T18:42:01.356764+00:00 TX 01 03 01 C4 00 01 C4 0B
2026-07-24T18:42:01.363765+00:00 RX 01 03 02 00 00 B8 44
2026-07-24T18:42:01.414276+00:00 TX 01 03 00 00 00 20 44 12
2026-07-24T18:42:01.459286+00:00 RX 01 03 40 00 00 00 00 00 03 00 00 00 03 00 00 00 00 00 00 00 00 00 00 00 00 00 00 00 01 00 00 01 00 05 0A 00 00 00 00 00 00 00 00 00 00 00 00 00 00 00 00 00 00 00 00 00 00 00 00 FF FF 56 D9 FF FF 56 D9 19 7C
2026-07-24T18:42:01.461286+00:00 TX 01 03 00 20 00 02 C5 C1
2026-07-24T18:42:01.470288+00:00 RX 01 03 04 00 00 01 89 3A 05
2026-07-24T18:42:01.472410+00:00 TX 01 03 01 C4 00 01 C4 0B
2026-07-24T18:42:01.479121+00:00 RX 01 03 02 00 00 B8 44
2026-07-24T18:42:01.529817+00:00 TX 01 03 00 00 00 20 44 12
2026-07-24T18:42:01.574323+00:00 RX 01 03 40 00 00 00 00 00 03 00 00 00 03 00 00 00 00 00 00 00 00 00 00 00 00 00 00 00 01 00 00 01 00 05 0A 00 00 00 00 00 00 00 00 00 00 00 00 00 00 00 00 00 00 00 00 00 00 00 00 FF FF 57 49 FF FF 57 49 D9 4C
2026-07-24T18:42:01.576323+00:00 TX 01 03 00 20 00 02 C5 C1
2026-07-24T18:42:01.584326+00:00 RX 01 03 04 00 00 01 8B BB C4
2026-07-24T18:42:01.586831+00:00 TX 01 03 01 C4 00 01 C4 0B
2026-07-24T18:42:01.593829+00:00 RX 01 03 02 00 00 B8 44
2026-07-24T18:42:01.644502+00:00 TX 01 03 00 00 00 20 44 12
2026-07-24T18:42:01.690011+00:00 RX 01 03 40 00 00 00 00 00 03 00 00 00 03 00 00 00 00 00 00 00 00 00 00 00 00 00 00 00 01 00 00 01 00 05 0A 00 00 00 00 00 00 00 00 00 00 00 00 00 00 00 00 00 00 00 00 00 00 00 00 FF FF 55 2F FF FF 55 2F 51 EC
2026-07-24T18:42:01.692012+00:00 TX 01 03 00 20 00 02 C5 C1
2026-07-24T18:42:01.699010+00:00 RX 01 03 04 00 00 01 8C FA 06
2026-07-24T18:42:01.702011+00:00 TX 01 03 01 C4 00 01 C4 0B
2026-07-24T18:42:01.708013+00:00 RX 01 03 02 00 00 B8 44
2026-07-24T18:42:01.758330+00:00 TX 01 03 00 00 00 20 44 12
2026-07-24T18:42:01.803879+00:00 RX 01 03 40 00 00 00 00 00 03 00 00 00 03 00 00 00 00 00 00 00 00 00 00 00 00 00 00 00 01 00 00 01 00 05 0A 00 00 00 00 00 00 00 00 00 00 00 00 00 00 00 00 00 00 00 00 00 00 00 00 FF FF 57 DE FF FF 57 DE ED 3F
2026-07-24T18:42:01.805879+00:00 TX 01 03 00 20 00 02 C5 C1
2026-07-24T18:42:01.813383+00:00 RX 01 03 04 00 00 01 8D 3B C6
2026-07-24T18:42:01.815383+00:00 TX 01 03 01 C4 00 01 C4 0B
2026-07-24T18:42:01.821910+00:00 RX 01 03 02 00 00 B8 44
2026-07-24T18:42:01.871974+00:00 TX 01 03 00 00 00 20 44 12
2026-07-24T18:42:01.916052+00:00 RX 01 03 40 00 00 00 00 00 03 00 00 00 03 00 00 00 00 00 00 00 00 00 00 00 00 00 00 00 01 00 00 01 00 05 0A 00 00 00 00 00 00 00 00 00 00 00 00 00 00 00 00 00 00 00 00 00 00 00 00 FF FF 56 BE FF FF 56 BE 6D 5E
2026-07-24T18:42:01.919053+00:00 TX 01 03 00 20 00 02 C5 C1
2026-07-24T18:42:01.926555+00:00 RX 01 03 04 00 00 01 8E 7B C7
2026-07-24T18:42:01.928556+00:00 TX 01 03 01 C4 00 01 C4 0B
2026-07-24T18:42:01.934557+00:00 RX 01 03 02 00 00 B8 44
2026-07-24T18:42:01.984708+00:00 TX 01 03 00 00 00 20 44 12
2026-07-24T18:42:02.029719+00:00 RX 01 03 40 00 00 00 00 00 03 00 00 00 03 00 00 00 00 00 00 00 00 00 00 00 00 00 00 00 01 00 00 01 00 05 0A 00 00 00 00 00 00 00 00 00 00 00 00 00 00 00 00 00 00 00 00 00 00 00 00 FF FF 57 C8 FF FF 57 C8 25 32
2026-07-24T18:42:02.031719+00:00 TX 01 03 00 20 00 02 C5 C1
2026-07-24T18:42:02.039721+00:00 RX 01 03 04 00 00 01 8F BA 07
2026-07-24T18:42:02.041721+00:00 TX 01 03 01 C4 00 01 C4 0B
2026-07-24T18:42:02.048724+00:00 RX 01 03 02 00 00 B8 44
2026-07-24T18:42:02.098807+00:00 TX 01 03 00 00 00 20 44 12
2026-07-24T18:42:02.143808+00:00 RX 01 03 40 00 00 00 00 00 03 00 00 00 03 00 00 00 00 00 00 00 00 00 00 00 00 00 00 00 01 00 00 01 00 05 0A 00 00 00 00 00 00 00 00 00 00 00 00 00 00 00 00 00 00 00 00 00 00 00 00 FF FF 57 7D FF FF 57 7D 69 5F
2026-07-24T18:42:02.146337+00:00 TX 01 03 00 20 00 02 C5 C1
2026-07-24T18:42:02.154368+00:00 RX 01 03 04 00 00 01 90 FB CF
2026-07-24T18:42:02.157366+00:00 TX 01 03 01 C4 00 01 C4 0B
2026-07-24T18:42:02.164040+00:00 RX 01 03 02 00 00 B8 44
2026-07-24T18:42:02.214936+00:00 TX 01 03 00 00 00 20 44 12
2026-07-24T18:42:02.258946+00:00 RX 01 03 40 00 00 00 00 00 03 00 00 00 03 00 00 00 00 00 00 00 00 00 00 00 00 00 00 00 01 00 00 01 00 05 0A 00 00 00 00 00 00 00 00 00 00 00 00 00 00 00 00 00 00 00 00 00 00 00 00 FF FF 58 35 FF FF 58 35 8C 68
2026-07-24T18:42:02.261947+00:00 TX 01 03 00 20 00 02 C5 C1
2026-07-24T18:42:02.269949+00:00 RX 01 03 04 00 00 01 92 7A 0E
2026-07-24T18:42:02.271949+00:00 TX 01 03 01 C4 00 01 C4 0B
2026-07-24T18:42:02.277948+00:00 RX 01 03 02 00 00 B8 44
2026-07-24T18:42:02.328993+00:00 TX 01 03 00 00 00 20 44 12
2026-07-24T18:42:02.373503+00:00 RX 01 03 40 00 00 00 00 00 03 00 00 00 03 00 00 00 00 00 00 00 00 00 00 00 00 00 00 00 01 00 00 01 00 05 0A 00 00 00 00 00 00 00 00 00 00 00 00 00 00 00 00 00 00 00 00 00 00 00 00 FF FF 57 A7 FF FF 57 A7 B1 17
2026-07-24T18:42:02.376500+00:00 TX 01 03 00 20 00 02 C5 C1
2026-07-24T18:42:02.384502+00:00 RX 01 03 04 00 00 01 93 BB CE
2026-07-24T18:42:02.386503+00:00 TX 01 03 01 C4 00 01 C4 0B
2026-07-24T18:42:02.393005+00:00 RX 01 03 02 00 00 B8 44
2026-07-24T18:42:02.443516+00:00 TX 01 03 00 00 00 20 44 12
2026-07-24T18:42:02.487524+00:00 RX 01 03 40 00 00 00 00 00 03 00 00 00 03 00 00 00 00 00 00 00 00 00 00 00 00 00 00 00 01 00 00 01 00 05 0A 00 00 00 00 00 00 00 00 00 00 00 00 00 00 00 00 00 00 00 00 00 00 00 00 FF FF 58 24 FF FF 58 24 B0 67
2026-07-24T18:42:02.491055+00:00 TX 01 03 00 20 00 02 C5 C1
2026-07-24T18:42:02.499057+00:00 RX 01 03 04 00 00 01 94 FA 0C
2026-07-24T18:42:02.501057+00:00 TX 01 03 01 C4 00 01 C4 0B
2026-07-24T18:42:02.508093+00:00 RX 01 03 02 00 00 B8 44
2026-07-24T18:42:02.558106+00:00 TX 01 03 00 00 00 20 44 12
2026-07-24T18:42:02.603115+00:00 RX 01 03 40 00 00 00 00 00 03 00 00 00 03 00 00 00 00 00 00 00 00 00 00 00 00 00 00 00 01 00 00 01 00 05 0A 00 00 00 00 00 00 00 00 00 00 00 00 00 00 00 00 00 00 00 00 00 00 00 00 FF FF 55 83 FF FF 55 83 C1 89
2026-07-24T18:42:02.605115+00:00 TX 01 03 00 20 00 02 C5 C1
2026-07-24T18:42:02.613117+00:00 RX 01 03 04 00 00 01 95 3B CC
2026-07-24T18:42:02.615639+00:00 TX 01 03 01 C4 00 01 C4 0B
2026-07-24T18:42:02.622640+00:00 RX 01 03 02 00 00 B8 44
2026-07-24T18:42:02.673200+00:00 TX 01 03 00 00 00 20 44 12
2026-07-24T18:42:02.718209+00:00 RX 01 03 40 00 00 00 00 00 03 00 00 00 03 00 00 00 00 00 00 00 00 00 00 00 00 00 00 00 01 00 00 01 00 05 0A 00 00 00 00 00 00 00 00 00 00 00 00 00 00 00 00 00 00 00 00 00 00 00 00 FF FF 54 B5 FF FF 54 B5 89 DA
2026-07-24T18:42:02.720209+00:00 TX 01 03 00 20 00 02 C5 C1
2026-07-24T18:42:02.728713+00:00 RX 01 03 04 00 00 01 96 7B CD
2026-07-24T18:42:02.730714+00:00 TX 01 03 01 C4 00 01 C4 0B
2026-07-24T18:42:02.737712+00:00 RX 01 03 02 00 00 B8 44
2026-07-24T18:42:02.787723+00:00 TX 01 03 00 00 00 20 44 12
2026-07-24T18:42:02.832733+00:00 RX 01 03 40 00 00 00 00 00 03 00 00 00 03 00 00 00 00 00 00 00 00 00 00 00 00 00 00 00 01 00 00 01 00 05 0A 00 00 00 00 00 00 00 00 00 00 00 00 00 00 00 00 00 00 00 00 00 00 00 00 FF FF 55 49 FF FF 55 49 D9 CE
2026-07-24T18:42:02.834733+00:00 TX 01 03 00 20 00 02 C5 C1
2026-07-24T18:42:02.842736+00:00 RX 01 03 04 00 00 01 97 BA 0D
2026-07-24T18:42:02.845237+00:00 TX 01 03 01 C4 00 01 C4 0B
2026-07-24T18:42:02.852239+00:00 RX 01 03 02 00 00 B8 44
2026-07-24T18:42:02.902747+00:00 TX 01 03 00 00 00 20 44 12
2026-07-24T18:42:02.947760+00:00 RX 01 03 40 00 00 00 00 00 03 00 00 00 03 00 00 00 00 00 00 00 00 00 00 00 00 00 00 00 01 00 00 01 00 05 0A 00 00 00 00 00 00 00 00 00 00 00 00 00 00 00 00 00 00 00 00 00 00 00 00 FF FF 56 13 FF FF 56 13 01 3B
2026-07-24T18:42:02.949761+00:00 TX 01 03 00 20 00 02 C5 C1
2026-07-24T18:42:02.957760+00:00 RX 01 03 04 00 00 01 99 3B C9
2026-07-24T18:42:02.959760+00:00 TX 01 03 01 C4 00 01 C4 0B
2026-07-24T18:42:02.966762+00:00 RX 01 03 02 00 00 B8 44
2026-07-24T18:42:03.017273+00:00 TX 01 03 00 00 00 20 44 12
2026-07-24T18:42:03.062284+00:00 RX 01 03 40 00 00 00 00 00 03 00 00 00 03 00 00 00 00 00 00 00 00 00 00 00 00 00 00 00 01 00 00 01 00 05 0A 00 00 00 00 00 00 00 00 00 00 00 00 00 00 00 00 00 00 00 00 00 00 00 00 FF FF 54 BC FF FF 54 BC 95 DD
2026-07-24T18:42:03.064285+00:00 TX 01 03 00 20 00 02 C5 C1
2026-07-24T18:42:03.072818+00:00 RX 01 03 04 00 00 01 9A 7B C8
2026-07-24T18:42:03.075815+00:00 TX 01 03 01 C4 00 01 C4 0B
2026-07-24T18:42:03.081812+00:00 RX 01 03 02 00 00 B8 44
2026-07-24T18:42:03.133336+00:00 TX 01 03 00 00 00 20 44 12
2026-07-24T18:42:03.177967+00:00 RX 01 03 40 00 00 00 00 00 03 00 00 00 03 00 00 00 00 00 00 00 00 00 00 00 00 00 00 00 01 00 00 01 00 05 0A 00 00 00 00 00 00 00 00 00 00 00 00 00 00 00 00 00 00 00 00 00 00 00 00 FF FF 54 F9 FF FF 54 F9 99 E1
2026-07-24T18:42:03.179968+00:00 TX 01 03 00 20 00 02 C5 C1
2026-07-24T18:42:03.187969+00:00 RX 01 03 04 00 00 01 9B BA 08
2026-07-24T18:42:03.191475+00:00 TX 01 03 01 C4 00 01 C4 0B
2026-07-24T18:42:03.198474+00:00 RX 01 03 02 00 00 B8 44
2026-07-24T18:42:03.248985+00:00 TX 01 03 00 00 00 20 44 12
2026-07-24T18:42:03.293494+00:00 RX 01 03 40 00 00 00 00 00 03 00 00 00 03 00 00 00 00 00 00 00 00 00 00 00 00 00 00 00 01 00 00 01 00 05 0A 00 00 00 00 00 00 00 00 00 00 00 00 00 00 00 00 00 00 00 00 00 00 00 00 FF FF 52 06 FF FF 52 06 CE 73
2026-07-24T18:42:03.295494+00:00 TX 01 03 00 20 00 02 C5 C1
2026-07-24T18:42:03.303492+00:00 RX 01 03 04 00 00 01 9C FB CA
2026-07-24T18:42:03.305493+00:00 TX 01 03 01 C4 00 01 C4 0B
2026-07-24T18:42:03.311495+00:00 RX 01 03 02 00 00 B8 44
2026-07-24T18:42:03.361508+00:00 TX 01 03 00 00 00 20 44 12
2026-07-24T18:42:03.406515+00:00 RX 01 03 40 00 00 00 00 00 03 00 00 00 03 00 00 00 00 00 00 00 00 00 00 00 00 00 00 00 01 00 00 01 00 05 0A 00 00 00 00 00 00 00 00 00 00 00 00 00 00 00 00 00 00 00 00 00 00 00 00 FF FF 51 FB FF FF 51 FB 62 E5
2026-07-24T18:42:03.408516+00:00 TX 01 03 00 20 00 02 C5 C1
2026-07-24T18:42:03.416518+00:00 RX 01 03 04 00 00 01 9D 3A 0A
2026-07-24T18:42:03.419019+00:00 TX 01 03 01 C4 00 01 C4 0B
2026-07-24T18:42:03.425021+00:00 RX 01 03 02 00 00 B8 44
2026-07-24T18:42:03.475033+00:00 TX 01 03 00 00 00 20 44 12
2026-07-24T18:42:03.519585+00:00 RX 01 03 40 00 00 00 00 00 03 00 00 00 03 00 00 00 00 00 00 00 00 00 00 00 00 00 00 00 01 00 00 01 00 05 0A 00 00 00 00 00 00 00 00 00 00 00 00 00 00 00 00 00 00 00 00 00 00 00 00 FF FF 51 C8 FF FF 51 C8 26 F4
2026-07-24T18:42:03.521586+00:00 TX 01 03 00 20 00 02 C5 C1
2026-07-24T18:42:03.530089+00:00 RX 01 03 04 00 00 01 9E 7A 0B
2026-07-24T18:42:03.532090+00:00 TX 01 03 01 C4 00 01 C4 0B
2026-07-24T18:42:03.538091+00:00 RX 01 03 02 00 00 B8 44
2026-07-24T18:42:03.588599+00:00 TX 01 03 00 00 00 20 44 12
2026-07-24T18:42:03.633138+00:00 RX 01 03 40 00 00 00 00 00 03 00 00 00 03 00 00 00 00 00 00 00 00 00 00 00 00 00 00 00 01 00 00 01 00 05 0A 00 00 00 00 00 00 00 00 00 00 00 00 00 00 00 00 00 00 00 00 00 00 00 00 FF FF 54 1D FF FF 54 1D E9 BC
2026-07-24T18:42:03.635138+00:00 TX 01 03 00 20 00 02 C5 C1
2026-07-24T18:42:03.642140+00:00 RX 01 03 04 00 00 01 A0 FB DB
2026-07-24T18:42:03.644141+00:00 TX 01 03 01 C4 00 01 C4 0B
2026-07-24T18:42:03.650142+00:00 RX 01 03 02 00 00 B8 44
2026-07-24T18:42:03.700651+00:00 TX 01 03 00 00 00 20 44 12
2026-07-24T18:42:03.745668+00:00 RX 01 03 40 00 00 00 00 00 03 00 00 00 03 00 00 00 00 00 00 00 00 00 00 00 00 00 00 00 01 00 00 01 00 05 0A 00 00 00 00 00 00 00 00 00 00 00 00 00 00 00 00 00 00 00 00 00 00 00 00 FF FF 57 2F FF FF 57 2F 51 6E
2026-07-24T18:42:03.747669+00:00 TX 01 03 00 20 00 02 C5 C1
2026-07-24T18:42:03.755173+00:00 RX 01 03 04 00 00 01 A1 3A 1B
2026-07-24T18:42:03.757173+00:00 TX 01 03 01 C4 00 01 C4 0B
2026-07-24T18:42:03.763172+00:00 RX 01 03 02 00 00 B8 44
2026-07-24T18:42:03.813180+00:00 TX 01 03 00 00 00 20 44 12
2026-07-24T18:42:03.858692+00:00 RX 01 03 40 00 00 00 00 00 03 00 00 00 03 00 00 00 00 00 00 00 00 00 00 00 00 00 00 00 01 00 00 01 00 05 0A 00 00 00 00 00 00 00 00 00 00 00 00 00 00 00 00 00 00 00 00 00 00 00 00 FF FF 56 60 FF FF 56 60 45 15
2026-07-24T18:42:03.860692+00:00 TX 01 03 00 20 00 02 C5 C1
2026-07-24T18:42:03.869694+00:00 RX 01 03 04 00 00 01 A2 7A 1A
2026-07-24T18:42:03.871695+00:00 TX 01 03 01 C4 00 01 C4 0B
2026-07-24T18:42:03.878697+00:00 RX 01 03 02 00 00 B8 44
2026-07-24T18:42:03.928706+00:00 TX 01 03 00 00 00 20 44 12
2026-07-24T18:42:03.973721+00:00 RX 01 03 40 00 00 00 00 00 03 00 00 00 03 00 00 00 00 00 00 00 00 00 00 00 00 00 00 00 01 00 00 01 00 05 0A 00 00 00 00 00 00 00 00 00 00 00 00 00 00 00 00 00 00 00 00 00 00 00 00 FF FF 52 43 FF FF 52 43 C2 4F
2026-07-24T18:42:03.976718+00:00 TX 01 03 00 20 00 02 C5 C1
2026-07-24T18:42:03.984717+00:00 RX 01 03 04 00 00 01 A3 BB DA
2026-07-24T18:42:03.986717+00:00 TX 01 03 01 C4 00 01 C4 0B
2026-07-24T18:42:03.992718+00:00 RX 01 03 02 00 00 B8 44
2026-07-24T18:42:04.042729+00:00 TX 01 03 00 00 00 20 44 12
2026-07-24T18:42:04.088190+00:00 RX 01 03 40 00 00 00 00 00 03 00 00 00 03 00 00 00 00 00 00 00 00 00 00 00 00 00 00 00 01 00 00 01 00 05 0A 00 00 00 00 00 00 00 00 00 00 00 00 00 00 00 00 00 00 00 00 00 00 00 00 FF FF 52 FF FF FF 52 FF 92 25
2026-07-24T18:42:04.090338+00:00 TX 01 03 00 20 00 02 C5 C1
2026-07-24T18:42:04.098528+00:00 RX 01 03 04 00 00 01 A4 FA 18
2026-07-24T18:42:04.100528+00:00 TX 01 03 01 C4 00 01 C4 0B
2026-07-24T18:42:04.107530+00:00 RX 01 03 02 00 00 B8 44
2026-07-24T18:42:04.157893+00:00 TX 01 03 00 00 00 20 44 12
2026-07-24T18:42:04.202903+00:00 RX 01 03 40 00 00 00 00 00 03 00 00 00 03 00 00 00 00 00 00 00 00 00 00 00 00 00 00 00 01 00 00 01 00 05 0A 00 00 00 00 00 00 00 00 00 00 00 00 00 00 00 00 00 00 00 00 00 00 00 00 FF FF 54 03 FF FF 54 03 C1 B6
2026-07-24T18:42:04.204903+00:00 TX 01 03 00 20 00 02 C5 C1
2026-07-24T18:42:04.211901+00:00 RX 01 03 04 00 00 01 A5 3B D8
2026-07-24T18:42:04.214902+00:00 TX 01 03 01 C4 00 01 C4 0B
2026-07-24T18:42:04.221409+00:00 RX 01 03 02 00 00 B8 44
2026-07-24T18:42:04.271418+00:00 TX 01 03 00 00 00 20 44 12
2026-07-24T18:42:04.315925+00:00 RX 01 03 40 00 00 00 00 00 03 00 00 00 03 00 00 00 00 00 00 00 00 00 00 00 00 00 00 00 01 00 00 01 00 05 0A 00 00 00 00 00 00 00 00 00 00 00 00 00 00 00 00 00 00 00 00 00 00 00 00 FF FF 53 87 FF FF 53 87 32 4C
2026-07-24T18:42:04.318926+00:00 TX 01 03 00 20 00 02 C5 C1
2026-07-24T18:42:04.326446+00:00 RX 01 03 04 00 00 01 A7 BA 19
2026-07-24T18:42:04.329444+00:00 TX 01 03 01 C4 00 01 C4 0B
2026-07-24T18:42:04.335947+00:00 RX 01 03 02 00 00 B8 44
2026-07-24T18:42:04.386462+00:00 TX 01 03 00 00 00 20 44 12
2026-07-24T18:42:04.431471+00:00 RX 01 03 40 00 00 00 00 00 03 00 00 00 03 00 00 00 00 00 00 00 00 00 00 00 00 00 00 00 01 00 00 01 00 05 0A 00 00 00 00 00 00 00 00 00 00 00 00 00 00 00 00 00 00 00 00 00 00 00 00 FF FF 54 7F FF FF 54 7F 91 9D
2026-07-24T18:42:04.433472+00:00 TX 01 03 00 20 00 02 C5 C1
2026-07-24T18:42:04.441474+00:00 RX 01 03 04 00 00 01 A8 FA 1D
2026-07-24T18:42:04.443474+00:00 TX 01 03 01 C4 00 01 C4 0B
2026-07-24T18:42:04.450476+00:00 RX 01 03 02 00 00 B8 44
2026-07-24T18:42:04.500732+00:00 TX 01 03 00 00 00 20 44 12
2026-07-24T18:42:04.544890+00:00 RX 01 03 40 00 00 00 00 00 03 00 00 00 03 00 00 00 00 00 00 00 00 00 00 00 00 00 00 00 01 00 00 01 00 05 0A 00 00 00 00 00 00 00 00 00 00 00 00 00 00 00 00 00 00 00 00 00 00 00 00 FF FF 54 94 FF FF 54 94 F5 C5
2026-07-24T18:42:04.546891+00:00 TX 01 03 00 20 00 02 C5 C1
2026-07-24T18:42:04.553893+00:00 RX 01 03 04 00 00 01 A9 3B DD
2026-07-24T18:42:04.555893+00:00 TX 01 03 01 C4 00 01 C4 0B
2026-07-24T18:42:04.561891+00:00 RX 01 03 02 00 00 B8 44
2026-07-24T18:42:04.611899+00:00 TX 01 03 00 00 00 20 44 12
2026-07-24T18:42:04.656462+00:00 RX 01 03 40 00 00 00 00 00 03 00 00 00 03 00 00 00 00 00 00 00 00 00 00 00 00 00 00 00 01 00 00 01 00 05 0A 00 00 00 00 00 00 00 00 00 00 00 00 00 00 00 00 00 00 00 00 00 00 00 00 FF FF 52 CA FF FF 52 CA DE 36
2026-07-24T18:42:04.658463+00:00 TX 01 03 00 20 00 02 C5 C1
2026-07-24T18:42:04.665465+00:00 RX 01 03 04 00 00 01 AA 7B DC
2026-07-24T18:42:04.668465+00:00 TX 01 03 01 C4 00 01 C4 0B
2026-07-24T18:42:04.674467+00:00 RX 01 03 02 00 00 B8 44
2026-07-24T18:42:04.724478+00:00 TX 01 03 00 00 00 20 44 12
2026-07-24T18:42:04.769027+00:00 RX 01 03 40 00 00 00 00 00 03 00 00 00 03 00 00 00 00 00 00 00 00 00 00 00 00 00 00 00 01 00 00 01 00 05 0A 00 00 00 00 00 00 00 00 00 00 00 00 00 00 00 00 00 00 00 00 00 00 00 00 FF FF 53 FF FF FF 53 FF 92 64
2026-07-24T18:42:04.771028+00:00 TX 01 03 00 20 00 02 C5 C1
2026-07-24T18:42:04.778531+00:00 RX 01 03 04 00 00 01 AB BA 1C
2026-07-24T18:42:04.780532+00:00 TX 01 03 01 C4 00 01 C4 0B
2026-07-24T18:42:04.787530+00:00 RX 01 03 02 00 00 B8 44
2026-07-24T18:42:04.838085+00:00 TX 01 03 00 00 00 20 44 12
2026-07-24T18:42:04.883092+00:00 RX 01 03 40 00 00 00 00 00 03 00 00 00 03 00 00 00 00 00 00 00 00 00 00 00 00 00 00 00 01 00 00 01 00 05 0A 00 00 00 00 00 00 00 00 00 00 00 00 00 00 00 00 00 00 00 00 00 00 00 00 FF FF 56 49 FF FF 56 49 D9 0D
2026-07-24T18:42:04.885093+00:00 TX 01 03 00 20 00 02 C5 C1
2026-07-24T18:42:04.892094+00:00 RX 01 03 04 00 00 01 AC FB DE
2026-07-24T18:42:04.894095+00:00 TX 01 03 01 C4 00 01 C4 0B
2026-07-24T18:42:04.899597+00:00 RX 01 03 02 00 00 B8 44
2026-07-24T18:42:04.951118+00:00 TX 01 03 00 00 00 20 44 12
2026-07-24T18:42:04.995626+00:00 RX 01 03 40 00 00 00 00 00 03 00 00 00 03 00 00 00 00 00 00 00 00 00 00 00 00 00 00 00 01 00 00 01 00 05 0A 00 00 00 00 00 00 00 00 00 00 00 00 00 00 00 00 00 00 00 00 00 00 00 00 FF FF 58 A0 FF FF 58 A0 40 1A
2026-07-24T18:42:04.999128+00:00 TX 01 03 00 20 00 02 C5 C1
2026-07-24T18:42:05.007131+00:00 RX 01 03 04 00 00 01 AD 3A 1E
2026-07-24T18:42:05.009131+00:00 TX 01 03 01 C4 00 01 C4 0B
2026-07-24T18:42:05.015129+00:00 RX 01 03 02 00 00 B8 44
2026-07-24T18:42:05.065641+00:00 TX 01 03 00 00 00 20 44 12
2026-07-24T18:42:05.109677+00:00 RX 01 03 40 00 00 00 00 00 03 00 00 00 03 00 00 00 00 00 00 00 00 00 00 00 00 00 00 00 01 00 00 01 00 05 0A 00 00 00 00 00 00 00 00 00 00 00 00 00 00 00 00 00 00 00 00 00 00 00 00 FF FF 58 FF FF FF 58 FF 94 2F
2026-07-24T18:42:05.113675+00:00 TX 01 03 00 20 00 02 C5 C1
2026-07-24T18:42:05.121351+00:00 RX 01 03 04 00 00 01 AF BB DF
2026-07-24T18:42:05.123351+00:00 TX 01 03 01 C4 00 01 C4 0B
2026-07-24T18:42:05.129872+00:00 RX 01 03 02 00 00 B8 44
2026-07-24T18:42:05.180479+00:00 TX 01 03 00 00 00 20 44 12
2026-07-24T18:42:05.224671+00:00 RX 01 03 40 00 00 00 00 00 03 00 00 00 03 00 00 00 00 00 00 00 00 00 00 00 00 00 00 00 01 00 00 01 00 05 0A 00 00 00 00 00 00 00 00 00 00 00 00 00 00 00 00 00 00 00 00 00 00 00 00 FF FF 59 7D FF FF 59 7D 6C 11
2026-07-24T18:42:05.227173+00:00 TX 01 03 00 20 00 02 C5 C1
2026-07-24T18:42:05.234174+00:00 RX 01 03 04 00 00 01 B0 FA 17
2026-07-24T18:42:05.237175+00:00 TX 01 03 01 C4 00 01 C4 0B
2026-07-24T18:42:05.243177+00:00 RX 01 03 02 00 00 B8 44
2026-07-24T18:42:05.293184+00:00 TX 01 03 00 00 00 20 44 12
2026-07-24T18:42:05.337695+00:00 RX 01 03 40 00 00 00 00 00 03 00 00 00 03 00 00 00 00 00 00 00 00 00 00 00 00 00 00 00 01 00 00 01 00 05 0A 00 00 00 00 00 00 00 00 00 00 00 00 00 00 00 00 00 00 00 00 00 00 00 00 FF FF 58 87 FF FF 58 87 34 07
2026-07-24T18:42:05.340696+00:00 TX 01 03 00 20 00 02 C5 C1
2026-07-24T18:42:05.348697+00:00 RX 01 03 04 00 00 01 B1 3B D7
2026-07-24T18:42:05.350698+00:00 TX 01 03 01 C4 00 01 C4 0B
2026-07-24T18:42:05.356699+00:00 RX 01 03 02 00 00 B8 44
2026-07-24T18:42:05.406707+00:00 TX 01 03 00 00 00 20 44 12
2026-07-24T18:42:05.451215+00:00 RX 01 03 40 00 00 00 00 00 03 00 00 00 03 00 00 00 00 00 00 00 00 00 00 00 00 00 00 00 01 00 00 01 00 05 0A 00 00 00 00 00 00 00 00 00 00 00 00 00 00 00 00 00 00 00 00 00 00 00 00 FF FF 54 52 FF FF 54 52 FD 86
2026-07-24T18:42:05.453215+00:00 TX 01 03 00 20 00 02 C5 C1
2026-07-24T18:42:05.460217+00:00 RX 01 03 04 00 00 01 B2 7B D6
2026-07-24T18:42:05.463218+00:00 TX 01 03 01 C4 00 01 C4 0B
2026-07-24T18:42:05.469219+00:00 RX 01 03 02 00 00 B8 44
2026-07-24T18:42:05.519769+00:00 TX 01 03 00 00 00 20 44 12
2026-07-24T18:42:05.563799+00:00 RX 01 03 40 00 00 00 00 00 03 00 00 00 03 00 00 00 00 00 00 00 00 00 00 00 00 00 00 00 01 00 00 01 00 05 0A 00 00 00 00 00 00 00 00 00 00 00 00 00 00 00 00 00 00 00 00 00 00 00 00 FF FF 56 55 FF FF 56 55 09 06
2026-07-24T18:42:05.565799+00:00 TX 01 03 00 20 00 02 C5 C1
2026-07-24T18:42:05.572801+00:00 RX 01 03 04 00 00 01 B3 BA 16
2026-07-24T18:42:05.574801+00:00 TX 01 03 01 C4 00 01 C4 0B
2026-07-24T18:42:05.581308+00:00 RX 01 03 02 00 00 B8 44
2026-07-24T18:42:05.631411+00:00 TX 01 03 00 00 00 20 44 12
2026-07-24T18:42:05.676442+00:00 RX 01 03 40 00 00 00 00 00 03 00 00 00 03 00 00 00 00 00 00 00 00 00 00 00 00 00 00 00 01 00 00 01 00 05 0A 00 00 00 00 00 00 00 00 00 00 00 00 00 00 00 00 00 00 00 00 00 00 00 00 FF FF 57 34 FF FF 57 34 75 67
2026-07-24T18:42:05.678443+00:00 TX 01 03 00 20 00 02 C5 C1
2026-07-24T18:42:05.686442+00:00 RX 01 03 04 00 00 01 B4 FB D4
2026-07-24T18:42:05.688443+00:00 TX 01 03 01 C4 00 01 C4 0B
2026-07-24T18:42:05.694444+00:00 RX 01 03 02 00 00 B8 44
2026-07-24T18:42:05.744952+00:00 TX 01 03 00 00 00 20 44 12
2026-07-24T18:42:05.789487+00:00 RX 01 03 40 00 00 00 00 00 03 00 00 00 03 00 00 00 00 00 00 00 00 00 00 00 00 00 00 00 01 00 00 01 00 05 0A 00 00 00 00 00 00 00 00 00 00 00 00 00 00 00 00 00 00 00 00 00 00 00 00 FF FF 57 4C FF FF 57 4C D5 4F
2026-07-24T18:42:05.791487+00:00 TX 01 03 00 20 00 02 C5 C1
2026-07-24T18:42:05.799191+00:00 RX 01 03 04 00 00 01 B6 7A 15
2026-07-24T18:42:05.801694+00:00 TX 01 03 01 C4 00 01 C4 0B
2026-07-24T18:42:05.807695+00:00 RX 01 03 02 00 00 B8 44
2026-07-24T18:42:05.858205+00:00 TX 01 03 00 00 00 20 44 12
2026-07-24T18:42:05.902715+00:00 RX 01 03 40 00 00 00 00 00 03 00 00 00 03 00 00 00 00 00 00 00 00 00 00 00 00 00 00 00 01 00 00 01 00 05 0A 00 00 00 00 00 00 00 00 00 00 00 00 00 00 00 00 00 00 00 00 00 00 00 00 FF FF 58 6E FF FF 58 6E A8 5E
2026-07-24T18:42:05.904715+00:00 TX 01 03 00 20 00 02 C5 C1
2026-07-24T18:42:05.911717+00:00 RX 01 03 04 00 00 01 B7 BB D5
2026-07-24T18:42:05.914714+00:00 TX 01 03 01 C4 00 01 C4 0B
2026-07-24T18:42:05.920716+00:00 RX 01 03 02 00 00 B8 44
2026-07-24T18:42:05.970727+00:00 TX 01 03 00 00 00 20 44 12
2026-07-24T18:42:06.015300+00:00 RX 01 03 40 00 00 00 00 00 03 00 00 00 03 00 00 00 00 00 00 00 00 00 00 00 00 00 00 00 01 00 00 01 00 05 0A 00 00 00 00 00 00 00 00 00 00 00 00 00 00 00 00 00 00 00 00 00 00 00 00 FF FF 56 D1 FF FF 56 D1 F9 7B
2026-07-24T18:42:06.017300+00:00 TX 01 03 00 20 00 02 C5 C1
2026-07-24T18:42:06.025302+00:00 RX 01 03 04 00 00 01 B8 FB D1
2026-07-24T18:42:06.027302+00:00 TX 01 03 01 C4 00 01 C4 0B
2026-07-24T18:42:06.033804+00:00 RX 01 03 02 00 00 B8 44
2026-07-24T18:42:06.084414+00:00 TX 01 03 00 00 00 20 44 12
2026-07-24T18:42:06.129424+00:00 RX 01 03 40 00 00 00 00 00 03 00 00 00 03 00 00 00 00 00 00 00 00 00 00 00 00 00 00 00 01 00 00 01 00 05 0A 00 00 00 00 00 00 00 00 00 00 00 00 00 00 00 00 00 00 00 00 00 00 00 00 FF FF 56 AA FF FF 56 AA 5D 52
2026-07-24T18:42:06.132019+00:00 TX 01 03 00 20 00 02 C5 C1
2026-07-24T18:42:06.139863+00:00 RX 01 03 04 00 00 01 B9 3A 11
2026-07-24T18:42:06.141863+00:00 TX 01 03 01 C4 00 01 C4 0B
2026-07-24T18:42:06.148427+00:00 RX 01 03 02 00 00 B8 44
2026-07-24T18:42:06.198835+00:00 TX 01 03 00 00 00 20 44 12
2026-07-24T18:42:06.243341+00:00 RX 01 03 40 00 00 00 00 00 03 00 00 00 03 00 00 00 00 00 00 00 00 00 00 00 00 00 00 00 01 00 00 01 00 05 0A 00 00 00 00 00 00 00 00 00 00 00 00 00 00 00 00 00 00 00 00 00 00 00 00 FF FF 55 9F FF FF 55 9F 11 82
2026-07-24T18:42:06.245341+00:00 TX 01 03 00 20 00 02 C5 C1
2026-07-24T18:42:06.253399+00:00 RX 01 03 04 00 00 01 BA 7A 10
2026-07-24T18:42:06.256073+00:00 TX 01 03 01 C4 00 01 C4 0B
2026-07-24T18:42:06.261830+00:00 RX 01 03 02 00 00 B8 44
2026-07-24T18:42:06.313616+00:00 TX 01 03 00 00 00 20 44 12
2026-07-24T18:42:06.358627+00:00 RX 01 03 40 00 00 00 00 00 03 00 00 00 03 00 00 00 00 00 00 00 00 00 00 00 00 00 00 00 01 00 00 01 00 05 0A 00 00 00 00 00 00 00 00 00 00 00 00 00 00 00 00 00 00 00 00 00 00 00 00 FF FF 55 AA FF FF 55 AA 5D 91
2026-07-24T18:42:06.360627+00:00 TX 01 03 00 20 00 02 C5 C1
2026-07-24T18:42:06.369626+00:00 RX 01 03 04 00 00 01 BB BB D0
2026-07-24T18:42:06.371626+00:00 TX 01 03 01 C4 00 01 C4 0B
2026-07-24T18:42:06.378129+00:00 RX 01 03 02 00 00 B8 44
2026-07-24T18:42:06.428845+00:00 TX 01 03 00 00 00 20 44 12
2026-07-24T18:42:06.473357+00:00 RX 01 03 40 00 00 00 00 00 03 00 00 00 03 00 00 00 00 00 00 00 00 00 00 00 00 00 00 00 01 00 00 01 00 05 0A 00 00 00 00 00 00 00 00 00 00 00 00 00 00 00 00 00 00 00 00 00 00 00 00 FF FF 54 E4 FF FF 54 E4 B5 EA
2026-07-24T18:42:06.475357+00:00 TX 01 03 00 20 00 02 C5 C1
2026-07-24T18:42:06.483356+00:00 RX 01 03 04 00 00 01 BD 3B D2
2026-07-24T18:42:06.485356+00:00 TX 01 03 01 C4 00 01 C4 0B
2026-07-24T18:42:06.491384+00:00 RX 01 03 02 00 00 B8 44
2026-07-24T18:42:06.541949+00:00 TX 01 03 00 00 00 20 44 12
2026-07-24T18:42:06.586459+00:00 RX 01 03 40 00 00 00 00 00 03 00 00 00 03 00 00 00 00 00 00 00 00 00 00 00 00 00 00 00 01 00 00 01 00 05 0A 00 00 00 00 00 00 00 00 00 00 00 00 00 00 00 00 00 00 00 00 00 00 00 00 FF FF 53 F2 FF FF 53 F2 7E 60
2026-07-24T18:42:06.589455+00:00 TX 01 03 00 20 00 02 C5 C1
2026-07-24T18:42:06.597457+00:00 RX 01 03 04 00 00 01 BE 7B D3
2026-07-24T18:42:06.599458+00:00 TX 01 03 01 C4 00 01 C4 0B
2026-07-24T18:42:06.605961+00:00 RX 01 03 02 00 00 B8 44
2026-07-24T18:42:06.656215+00:00 TX 01 03 00 00 00 20 44 12
2026-07-24T18:42:06.701222+00:00 RX 01 03 40 00 00 00 00 00 03 00 00 00 03 00 00 00 00 00 00 00 00 00 00 00 00 00 00 00 01 00 00 01 00 05 0A 00 00 00 00 00 00 00 00 00 00 00 00 00 00 00 00 00 00 00 00 00 00 00 00 FF FF 53 18 FF FF 53 18 E6 38
2026-07-24T18:42:06.703223+00:00 TX 01 03 00 20 00 02 C5 C1
2026-07-24T18:42:06.711727+00:00 RX 01 03 04 00 00 01 BF BA 13
2026-07-24T18:42:06.713728+00:00 TX 01 03 01 C4 00 01 C4 0B
2026-07-24T18:42:06.720727+00:00 RX 01 03 02 00 00 B8 44
2026-07-24T18:42:06.771256+00:00 TX 01 03 00 00 00 20 44 12
2026-07-24T18:42:06.816263+00:00 RX 01 03 40 00 00 00 00 00 03 00 00 00 03 00 00 00 00 00 00 00 00 00 00 00 00 00 00 00 01 00 00 01 00 05 0A 00 00 00 00 00 00 00 00 00 00 00 00 00 00 00 00 00 00 00 00 00 00 00 00 FF FF 53 97 FF FF 53 97 F2 43
2026-07-24T18:42:06.818263+00:00 TX 01 03 00 20 00 02 C5 C1
2026-07-24T18:42:06.826265+00:00 RX 01 03 04 00 00 01 C0 FB F3
2026-07-24T18:42:06.828265+00:00 TX 01 03 01 C4 00 01 C4 0B
2026-07-24T18:42:06.834768+00:00 RX 01 03 02 00 00 B8 44
2026-07-24T18:42:06.884780+00:00 TX 01 03 00 00 00 20 44 12
2026-07-24T18:42:06.929283+00:00 RX 01 03 40 00 00 00 00 00 03 00 00 00 03 00 00 00 00 00 00 00 00 00 00 00 00 00 00 00 01 00 00 01 00 05 0A 00 00 00 00 00 00 00 00 00 00 00 00 00 00 00 00 00 00 00 00 00 00 00 00 FF FF 53 EF FF FF 53 EF 52 6B
2026-07-24T18:42:06.931283+00:00 TX 01 03 00 20 00 02 C5 C1
2026-07-24T18:42:06.939287+00:00 RX 01 03 04 00 00 01 C1 3A 33
2026-07-24T18:42:06.941288+00:00 TX 01 03 01 C4 00 01 C4 0B
2026-07-24T18:42:06.948289+00:00 RX 01 03 02 00 00 B8 44
2026-07-24T18:42:06.998794+00:00 TX 01 03 00 00 00 20 44 12
2026-07-24T18:42:07.042801+00:00 RX 01 03 40 00 00 00 00 00 03 00 00 00 03 00 00 00 00 00 00 00 00 00 00 00 00 00 00 00 01 00 00 01 00 05 0A 00 00 00 00 00 00 00 00 00 00 00 00 00 00 00 00 00 00 00 00 00 00 00 00 FF FF 53 2F FF FF 53 2F 52 2A
2026-07-24T18:42:07.044802+00:00 TX 01 03 00 20 00 02 C5 C1
2026-07-24T18:42:07.051803+00:00 RX 01 03 04 00 00 01 C2 7A 32
2026-07-24T18:42:07.053804+00:00 TX 01 03 01 C4 00 01 C4 0B
2026-07-24T18:42:07.059811+00:00 RX 01 03 02 00 00 B8 44
2026-07-24T18:42:07.109873+00:00 TX 01 03 00 00 00 20 44 12
2026-07-24T18:42:07.154558+00:00 RX 01 03 40 00 00 00 00 00 03 00 00 00 03 00 00 00 00 00 00 00 00 00 00 00 00 00 00 00 01 00 00 01 00 05 0A 00 00 00 00 00 00 00 00 00 00 00 00 00 00 00 00 00 00 00 00 00 00 00 00 FF FF 52 E0 FF FF 52 E0 46 2F
2026-07-24T18:42:07.156559+00:00 TX 01 03 00 20 00 02 C5 C1
2026-07-24T18:42:07.164592+00:00 RX 01 03 04 00 00 01 C3 BB F2
2026-07-24T18:42:07.166592+00:00 TX 01 03 01 C4 00 01 C4 0B
2026-07-24T18:42:07.172593+00:00 RX 01 03 02 00 00 B8 44
2026-07-24T18:42:07.222599+00:00 TX 01 03 00 00 00 20 44 12
2026-07-24T18:42:07.267497+00:00 RX 01 03 40 00 00 00 00 00 03 00 00 00 03 00 00 00 00 00 00 00 00 00 00 00 00 00 00 00 01 00 00 01 00 05 0A 00 00 00 00 00 00 00 00 00 00 00 00 00 00 00 00 00 00 00 00 00 00 00 00 FF FF 53 F5 FF FF 53 F5 8A 62
2026-07-24T18:42:07.269498+00:00 TX 01 03 00 20 00 02 C5 C1
2026-07-24T18:42:07.277499+00:00 RX 01 03 04 00 00 01 C5 3B F0
2026-07-24T18:42:07.279500+00:00 TX 01 03 01 C4 00 01 C4 0B
2026-07-24T18:42:07.285501+00:00 RX 01 03 02 00 00 B8 44
2026-07-24T18:42:07.335510+00:00 TX 01 03 00 00 00 20 44 12
2026-07-24T18:42:07.380020+00:00 RX 01 03 40 00 00 00 00 00 03 00 00 00 03 00 00 00 00 00 00 00 00 00 00 00 00 00 00 00 01 00 00 01 00 05 0A 00 00 00 00 00 00 00 00 00 00 00 00 00 00 00 00 00 00 00 00 00 00 00 00 FF FF 53 20 FF FF 53 20 46 2F
2026-07-24T18:42:07.382020+00:00 TX 01 03 00 20 00 02 C5 C1
2026-07-24T18:42:07.389022+00:00 RX 01 03 04 00 00 01 C6 7B F1
2026-07-24T18:42:07.392020+00:00 TX 01 03 01 C4 00 01 C4 0B
2026-07-24T18:42:07.398021+00:00 RX 01 03 02 00 00 B8 44
2026-07-24T18:42:07.448035+00:00 TX 01 03 00 00 00 20 44 12
2026-07-24T18:42:07.493042+00:00 RX 01 03 40 00 00 00 00 00 03 00 00 00 03 00 00 00 00 00 00 00 00 00 00 00 00 00 00 00 01 00 00 01 00 05 0A 00 00 00 00 00 00 00 00 00 00 00 00 00 00 00 00 00 00 00 00 00 00 00 00 FF FF 55 6A FF FF 55 6A 5D D0
2026-07-24T18:42:07.495043+00:00 TX 01 03 00 20 00 02 C5 C1
2026-07-24T18:42:07.502256+00:00 RX 01 03 04 00 00 01 C7 BA 31
2026-07-24T18:42:07.504833+00:00 TX 01 03 01 C4 00 01 C4 0B
2026-07-24T18:42:07.511463+00:00 RX 01 03 02 00 00 B8 44
2026-07-24T18:42:07.561476+00:00 TX 01 03 00 00 00 20 44 12
2026-07-24T18:42:07.606489+00:00 RX 01 03 40 00 00 00 00 00 03 00 00 00 03 00 00 00 00 00 00 00 00 00 00 00 00 00 00 00 01 00 00 01 00 05 0A 00 00 00 00 00 00 00 00 00 00 00 00 00 00 00 00 00 00 00 00 00 00 00 00 FF FF 52 60 FF FF 52 60 46 51
2026-07-24T18:42:07.609487+00:00 TX 01 03 00 20 00 02 C5 C1
2026-07-24T18:42:07.617487+00:00 RX 01 03 04 00 00 01 C8 FA 35
2026-07-24T18:42:07.620488+00:00 TX 01 03 01 C4 00 01 C4 0B
2026-07-24T18:42:07.627489+00:00 RX 01 03 02 00 00 B8 44
2026-07-24T18:42:07.678439+00:00 TX 01 03 00 00 00 20 44 12
2026-07-24T18:42:07.722947+00:00 RX 01 03 40 00 00 00 00 00 03 00 00 00 03 00 00 00 00 00 00 00 00 00 00 00 00 00 00 00 01 00 00 01 00 05 0A 00 00 00 00 00 00 00 00 00 00 00 00 00 00 00 00 00 00 00 00 00 00 00 00 FF FF 54 55 FF FF 54 55 09 84
2026-07-24T18:42:07.725948+00:00 TX 01 03 00 20 00 02 C5 C1
2026-07-24T18:42:07.733950+00:00 RX 01 03 04 00 00 01 C9 3B F5
2026-07-24T18:42:07.736454+00:00 TX 01 03 01 C4 00 01 C4 0B
2026-07-24T18:42:07.743453+00:00 RX 01 03 02 00 00 B8 44
2026-07-24T18:42:07.793995+00:00 TX 01 03 00 00 00 20 44 12
2026-07-24T18:42:07.838087+00:00 RX 01 03 40 00 00 00 00 00 03 00 00 00 03 00 00 00 00 00 00 00 00 00 00 00 00 00 00 00 01 00 00 01 00 05 0A 00 00 00 00 00 00 00 00 00 00 00 00 00 00 00 00 00 00 00 00 00 00 00 00 FF FF 53 50 FF FF 53 50 06 00
2026-07-24T18:42:07.840592+00:00 TX 01 03 00 20 00 02 C5 C1
2026-07-24T18:42:07.849591+00:00 RX 01 03 04 00 00 01 CA 7B F4
2026-07-24T18:42:07.851591+00:00 TX 01 03 01 C4 00 01 C4 0B
2026-07-24T18:42:07.858592+00:00 RX 01 03 02 00 00 B8 44
2026-07-24T18:42:07.909104+00:00 TX 01 03 00 00 00 20 44 12
2026-07-24T18:42:07.953620+00:00 RX 01 03 40 00 00 00 00 00 03 00 00 00 03 00 00 00 00 00 00 00 00 00 00 00 00 00 00 00 01 00 00 01 00 05 0A 00 00 00 00 00 00 00 00 00 00 00 00 00 00 00 00 00 00 00 00 00 00 00 00 FF FF 54 8D FF FF 54 8D 29 CD
2026-07-24T18:42:07.955621+00:00 TX 01 03 00 20 00 02 C5 C1
2026-07-24T18:42:07.963622+00:00 RX 01 03 04 00 00 01 CC FB F6
2026-07-24T18:42:07.966620+00:00 TX 01 03 01 C4 00 01 C4 0B
2026-07-24T18:42:07.973622+00:00 RX 01 03 02 00 00 B8 44
2026-07-24T18:42:08.023636+00:00 TX 01 03 00 00 00 20 44 12
2026-07-24T18:42:08.068147+00:00 RX 01 03 40 00 00 00 00 00 03 00 00 00 03 00 00 00 00 00 00 00 00 00 00 00 00 00 00 00 01 00 00 01 00 05 0A 00 00 00 00 00 00 00 00 00 00 00 00 00 00 00 00 00 00 00 00 00 00 00 00 FF FF 55 4C FF FF 55 4C D5 CD
2026-07-24T18:42:08.070148+00:00 TX 01 03 00 20 00 02 C5 C1
2026-07-24T18:42:08.078692+00:00 RX 01 03 04 00 00 01 CD 3A 36
2026-07-24T18:42:08.080693+00:00 TX 01 03 01 C4 00 01 C4 0B
2026-07-24T18:42:08.088694+00:00 RX 01 03 02 00 00 B8 44
2026-07-24T18:42:08.139204+00:00 TX 01 03 00 00 00 20 44 12
2026-07-24T18:42:08.184223+00:00 RX 01 03 40 00 00 00 00 00 03 00 00 00 03 00 00 00 00 00 00 00 00 00 00 00 00 00 00 00 01 00 00 01 00 05 0A 00 00 00 00 00 00 00 00 00 00 00 00 00 00 00 00 00 00 00 00 00 00 00 00 FF FF 53 D3 FF FF 53 D3 02 7F
2026-07-24T18:42:08.187224+00:00 TX 01 03 00 20 00 02 C5 C1
2026-07-24T18:42:08.195226+00:00 RX 01 03 04 00 00 01 CE 7A 37
2026-07-24T18:42:08.198227+00:00 TX 01 03 01 C4 00 01 C4 0B
2026-07-24T18:42:08.205225+00:00 RX 01 03 02 00 00 B8 44
2026-07-24T18:42:08.255240+00:00 TX 01 03 00 00 00 20 44 12
2026-07-24T18:42:08.300615+00:00 RX 01 03 40 00 00 00 00 00 03 00 00 00 03 00 00 00 00 00 00 00 00 00 00 00 00 00 00 00 01 00 00 01 00 05 0A 00 00 00 00 00 00 00 00 00 00 00 00 00 00 00 00 00 00 00 00 00 00 00 00 FF FF 52 72 FF FF 52 72 7E 5F
2026-07-24T18:42:08.303615+00:00 TX 01 03 00 20 00 02 C5 C1
2026-07-24T18:42:08.311615+00:00 RX 01 03 04 00 00 01 CF BB F7
2026-07-24T18:42:08.313615+00:00 TX 01 03 01 C4 00 01 C4 0B
2026-07-24T18:42:08.320616+00:00 RX 01 03 02 00 00 B8 44
2026-07-24T18:42:08.371285+00:00 TX 01 03 00 00 00 20 44 12
2026-07-24T18:42:08.416292+00:00 RX 01 03 40 00 00 00 00 00 03 00 00 00 03 00 00 00 00 00 00 00 00 00 00 00 00 00 00 00 01 00 00 01 00 05 0A 00 00 00 00 00 00 00 00 00 00 00 00 00 00 00 00 00 00 00 00 00 00 00 00 FF FF 53 D5 FF FF 53 D5 0A 7D
2026-07-24T18:42:08.418293+00:00 TX 01 03 00 20 00 02 C5 C1
2026-07-24T18:42:08.426797+00:00 RX 01 03 04 00 00 01 D0 FA 3F
2026-07-24T18:42:08.428798+00:00 TX 01 03 01 C4 00 01 C4 0B
2026-07-24T18:42:08.434800+00:00 RX 01 03 02 00 00 B8 44
2026-07-24T18:42:08.486310+00:00 TX 01 03 00 00 00 20 44 12
2026-07-24T18:42:08.531314+00:00 RX 01 03 40 00 00 00 00 00 03 00 00 00 03 00 00 00 00 00 00 00 00 00 00 00 00 00 00 00 01 00 00 01 00 05 0A 00 00 00 00 00 00 00 00 00 00 00 00 00 00 00 00 00 00 00 00 00 00 00 00 FF FF 52 6C FF FF 52 6C 56 55
2026-07-24T18:42:08.533315+00:00 TX 01 03 00 20 00 02 C5 C1
2026-07-24T18:42:08.541313+00:00 RX 01 03 04 00 00 01 D1 3B FF
2026-07-24T18:42:08.543313+00:00 TX 01 03 01 C4 00 01 C4 0B
2026-07-24T18:42:08.550315+00:00 RX 01 03 02 00 00 B8 44
2026-07-24T18:42:08.600327+00:00 TX 01 03 00 00 00 20 44 12
2026-07-24T18:42:08.644919+00:00 RX 01 03 40 00 00 00 00 00 03 00 00 00 03 00 00 00 00 00 00 00 00 00 00 00 00 00 00 00 01 00 00 01 00 05 0A 00 00 00 00 00 00 00 00 00 00 00 00 00 00 00 00 00 00 00 00 00 00 00 00 FF FF 50 92 FF FF 50 92 FE 83
2026-07-24T18:42:08.647932+00:00 TX 01 03 00 20 00 02 C5 C1
2026-07-24T18:42:08.655957+00:00 RX 01 03 04 00 00 01 D3 BA 3E
2026-07-24T18:42:08.657958+00:00 TX 01 03 01 C4 00 01 C4 0B
2026-07-24T18:42:08.663959+00:00 RX 01 03 02 00 00 B8 44
2026-07-24T18:42:08.713967+00:00 TX 01 03 00 00 00 20 44 12
2026-07-24T18:42:08.758477+00:00 RX 01 03 40 00 00 00 00 00 03 00 00 00 03 00 00 00 00 00 00 00 00 00 00 00 00 00 00 00 01 00 00 01 00 05 0A 00 00 00 00 00 00 00 00 00 00 00 00 00 00 00 00 00 00 00 00 00 00 00 00 FF FF 50 60 FF FF 50 60 46 D3
2026-07-24T18:42:08.760477+00:00 TX 01 03 00 20 00 02 C5 C1
2026-07-24T18:42:08.768979+00:00 RX 01 03 04 00 00 01 D4 FB FC
2026-07-24T18:42:08.770980+00:00 TX 01 03 01 C4 00 01 C4 0B
2026-07-24T18:42:08.777982+00:00 RX 01 03 02 00 00 B8 44
2026-07-24T18:42:08.827988+00:00 TX 01 03 00 00 00 20 44 12
2026-07-24T18:42:08.872495+00:00 RX 01 03 40 00 00 00 00 00 03 00 00 00 03 00 00 00 00 00 00 00 00 00 00 00 00 00 00 00 01 00 00 01 00 05 0A 00 00 00 00 00 00 00 00 00 00 00 00 00 00 00 00 00 00 00 00 00 00 00 00 FF FF 52 95 FF FF 52 95 0A 03
2026-07-24T18:42:08.874496+00:00 TX 01 03 00 20 00 02 C5 C1
2026-07-24T18:42:08.882497+00:00 RX 01 03 04 00 00 01 D5 3A 3C
2026-07-24T18:42:08.884498+00:00 TX 01 03 01 C4 00 01 C4 0B
2026-07-24T18:42:08.890500+00:00 RX 01 03 02 00 00 B8 44
2026-07-24T18:42:08.941007+00:00 TX 01 03 00 00 00 20 44 12
2026-07-24T18:42:08.986023+00:00 RX 01 03 40 00 00 00 00 00 03 00 00 00 03 00 00 00 00 00 00 00 00 00 00 00 00 00 00 00 01 00 00 01 00 05 0A 00 00 00 00 00 00 00 00 00 00 00 00 00 00 00 00 00 00 00 00 00 00 00 00 FF FF 51 EA FF FF 51 EA 5E EA
2026-07-24T18:42:08.990021+00:00 TX 01 03 00 20 00 02 C5 C1
2026-07-24T18:42:08.998023+00:00 RX 01 03 04 00 00 01 D6 7A 3D
2026-07-24T18:42:09.000023+00:00 TX 01 03 01 C4 00 01 C4 0B
2026-07-24T18:42:09.007526+00:00 RX 01 03 02 00 00 B8 44
2026-07-24T18:42:09.057539+00:00 TX 01 03 00 00 00 20 44 12
2026-07-24T18:42:09.102113+00:00 RX 01 03 40 00 00 00 00 00 03 00 00 00 03 00 00 00 00 00 00 00 00 00 00 00 00 00 00 00 01 00 00 01 00 05 0A 00 00 00 00 00 00 00 00 00 00 00 00 00 00 00 00 00 00 00 00 00 00 00 00 FF FF 51 DB FF FF 51 DB E2 FA
2026-07-24T18:42:09.104113+00:00 TX 01 03 00 20 00 02 C5 C1
2026-07-24T18:42:09.111114+00:00 RX 01 03 04 00 00 01 D7 BB FD
2026-07-24T18:42:09.115113+00:00 TX 01 03 01 C4 00 01 C4 0B
2026-07-24T18:42:09.121114+00:00 RX 01 03 02 00 00 B8 44
2026-07-24T18:42:09.171741+00:00 TX 01 03 00 00 00 20 44 12
2026-07-24T18:42:09.216247+00:00 RX 01 03 40 00 00 00 00 00 03 00 00 00 03 00 00 00 00 00 00 00 00 00 00 00 00 00 00 00 01 00 00 01 00 05 0A 00 00 00 00 00 00 00 00 00 00 00 00 00 00 00 00 00 00 00 00 00 00 00 00 FF FF 51 5D FF FF 51 5D EA 86
2026-07-24T18:42:09.218247+00:00 TX 01 03 00 20 00 02 C5 C1
2026-07-24T18:42:09.225248+00:00 RX 01 03 04 00 00 01 D8 FB F9
2026-07-24T18:42:09.227249+00:00 TX 01 03 01 C4 00 01 C4 0B
2026-07-24T18:42:09.232752+00:00 RX 01 03 02 00 00 B8 44
2026-07-24T18:42:09.283261+00:00 TX 01 03 00 00 00 20 44 12
2026-07-24T18:42:09.327773+00:00 RX 01 03 40 00 00 00 00 00 03 00 00 00 03 00 00 00 00 00 00 00 00 00 00 00 00 00 00 00 01 00 00 01 00 05 0A 00 00 00 00 00 00 00 00 00 00 00 00 00 00 00 00 00 00 00 00 00 00 00 00 FF FF 53 16 FF FF 53 16 0E 3D
2026-07-24T18:42:09.330771+00:00 TX 01 03 00 20 00 02 C5 C1
2026-07-24T18:42:09.337773+00:00 RX 01 03 04 00 00 01 DA 7A 38
2026-07-24T18:42:09.339773+00:00 TX 01 03 01 C4 00 01 C4 0B
2026-07-24T18:42:09.345489+00:00 RX 01 03 02 00 00 B8 44
2026-07-24T18:42:09.396498+00:00 TX 01 03 00 00 00 20 44 12
2026-07-24T18:42:09.440507+00:00 RX 01 03 40 00 00 00 00 00 03 00 00 00 03 00 00 00 00 00 00 00 00 00 00 00 00 00 00 00 01 00 00 01 00 05 0A 00 00 00 00 00 00 00 00 00 00 00 00 00 00 00 00 00 00 00 00 00 00 00 00 FF FF 53 8E FF FF 53 8E 2E 4B
2026-07-24T18:42:09.444505+00:00 TX 01 03 00 20 00 02 C5 C1
2026-07-24T18:42:09.452507+00:00 RX 01 03 04 00 00 01 DB BB F8
2026-07-24T18:42:09.455508+00:00 TX 01 03 01 C4 00 01 C4 0B
2026-07-24T18:42:09.462013+00:00 RX 01 03 02 00 00 B8 44
2026-07-24T18:42:09.513062+00:00 TX 01 03 00 00 00 20 44 12
2026-07-24T18:42:09.558075+00:00 RX 01 03 40 00 00 00 00 00 03 00 00 00 03 00 00 00 00 00 00 00 00 00 00 00 00 00 00 00 01 00 00 01 00 05 0A 00 00 00 00 00 00 00 00 00 00 00 00 00 00 00 00 00 00 00 00 00 00 00 00 FF FF 53 80 FF FF 53 80 C6 4E
2026-07-24T18:42:09.561073+00:00 TX 01 03 00 20 00 02 C5 C1
2026-07-24T18:42:09.569578+00:00 RX 01 03 04 00 00 01 DC FA 3A
2026-07-24T18:42:09.571579+00:00 TX 01 03 01 C4 00 01 C4 0B
2026-07-24T18:42:09.578580+00:00 RX 01 03 02 00 00 B8 44
2026-07-24T18:42:09.628698+00:00 TX 01 03 00 00 00 20 44 12
2026-07-24T18:42:09.673230+00:00 RX 01 03 40 00 00 00 00 00 03 00 00 00 03 00 00 00 00 00 00 00 00 00 00 00 00 00 00 00 01 00 00 01 00 05 0A 00 00 00 00 00 00 00 00 00 00 00 00 00 00 00 00 00 00 00 00 00 00 00 00 FF FF 56 67 FF FF 56 67 B1 17
2026-07-24T18:42:09.675231+00:00 TX 01 03 00 20 00 02 C5 C1
2026-07-24T18:42:09.683746+00:00 RX 01 03 04 00 00 01 DD 3B FA
2026-07-24T18:42:09.685746+00:00 TX 01 03 01 C4 00 01 C4 0B
2026-07-24T18:42:09.692748+00:00 RX 01 03 02 00 00 B8 44
2026-07-24T18:42:09.743257+00:00 TX 01 03 00 00 00 20 44 12
2026-07-24T18:42:09.788565+00:00 RX 01 03 40 00 00 00 00 00 03 00 00 00 03 00 00 00 00 00 00 00 00 00 00 00 00 00 00 00 01 00 00 01 00 05 0A 00 00 00 00 00 00 00 00 00 00 00 00 00 00 00 00 00 00 00 00 00 00 00 00 FF FF 56 D3 FF FF 56 D3 01 7A
2026-07-24T18:42:09.790565+00:00 TX 01 03 00 20 00 02 C5 C1
2026-07-24T18:42:09.798564+00:00 RX 01 03 04 00 00 01 DE 7B FB
2026-07-24T18:42:09.800565+00:00 TX 01 03 01 C4 00 01 C4 0B
2026-07-24T18:42:09.808070+00:00 RX 01 03 02 00 00 B8 44
2026-07-24T18:42:09.858580+00:00 TX 01 03 00 00 00 20 44 12
2026-07-24T18:42:09.903094+00:00 RX 01 03 40 00 00 00 00 00 03 00 00 00 03 00 00 00 00 00 00 00 00 00 00 00 00 00 00 00 01 00 00 01 00 05 0A 00 00 00 00 00 00 00 00 00 00 00 00 00 00 00 00 00 00 00 00 00 00 00 00 FF FF 56 51 FF FF 56 51 F9 05
2026-07-24T18:42:09.905094+00:00 TX 01 03 00 20 00 02 C5 C1
2026-07-24T18:42:09.913096+00:00 RX 01 03 04 00 00 01 DF BA 3B
2026-07-24T18:42:09.915097+00:00 TX 01 03 01 C4 00 01 C4 0B
2026-07-24T18:42:09.922095+00:00 RX 01 03 02 00 00 B8 44
2026-07-24T18:42:09.972154+00:00 TX 01 03 00 00 00 20 44 12
2026-07-24T18:42:10.017167+00:00 RX 01 03 40 00 00 00 00 00 03 00 00 00 03 00 00 00 00 00 00 00 00 00 00 00 00 00 00 00 01 00 00 01 00 05 0A 00 00 00 00 00 00 00 00 00 00 00 00 00 00 00 00 00 00 00 00 00 00 00 00 FF FF 56 FB FF FF 56 FB 61 62
2026-07-24T18:42:10.018168+00:00 TX 01 03 00 20 00 02 C5 C1
2026-07-24T18:42:10.026167+00:00 RX 01 03 04 00 00 01 E1 3B EB
2026-07-24T18:42:10.028167+00:00 TX 01 03 01 C4 00 01 C4 0B
2026-07-24T18:42:10.034693+00:00 RX 01 03 02 00 00 B8 44
2026-07-24T18:42:10.085782+00:00 TX 01 03 00 00 00 20 44 12
2026-07-24T18:42:10.130655+00:00 RX 01 03 40 00 00 00 00 00 03 00 00 00 03 00 00 00 00 00 00 00 00 00 00 00 00 00 00 00 01 00 00 01 00 05 0A 00 00 00 00 00 00 00 00 00 00 00 00 00 00 00 00 00 00 00 00 00 00 00 00 FF FF 57 09 FF FF 57 09 D9 73
2026-07-24T18:42:10.132656+00:00 TX 01 03 00 20 00 02 C5 C1
2026-07-24T18:42:10.140161+00:00 RX 01 03 04 00 00 01 E2 7B EA
2026-07-24T18:42:10.142162+00:00 TX 01 03 01 C4 00 01 C4 0B
2026-07-24T18:42:10.148514+00:00 RX 01 03 02 00 00 B8 44
2026-07-24T18:42:10.199153+00:00 TX 01 03 00 00 00 20 44 12
2026-07-24T18:42:10.244168+00:00 RX 01 03 40 00 00 00 00 00 03 00 00 00 03 00 00 00 00 00 00 00 00 00 00 00 00 00 00 00 01 00 00 01 00 05 0A 00 00 00 00 00 00 00 00 00 00 00 00 00 00 00 00 00 00 00 00 00 00 00 00 FF FF 57 93 FF FF 57 93 01 04
2026-07-24T18:42:10.246168+00:00 TX 01 03 00 20 00 02 C5 C1
2026-07-24T18:42:10.254167+00:00 RX 01 03 04 00 00 01 E3 BA 2A
2026-07-24T18:42:10.256168+00:00 TX 01 03 01 C4 00 01 C4 0B
2026-07-24T18:42:10.262169+00:00 RX 01 03 02 00 00 B8 44
2026-07-24T18:42:10.313684+00:00 TX 01 03 00 00 00 20 44 12
2026-07-24T18:42:10.358193+00:00 RX 01 03 40 00 00 00 00 00 03 00 00 00 03 00 00 00 00 00 00 00 00 00 00 00 00 00 00 00 01 00 00 01 00 05 0A 00 00 00 00 00 00 00 00 00 00 00 00 00 00 00 00 00 00 00 00 00 00 00 00 FF FF 57 A2 FF FF 57 A2 BD 14
2026-07-24T18:42:10.360193+00:00 TX 01 03 00 20 00 02 C5 C1
2026-07-24T18:42:10.367697+00:00 RX 01 03 04 00 00 01 E4 FB E8
2026-07-24T18:42:10.370698+00:00 TX 01 03 01 C4 00 01 C4 0B
2026-07-24T18:42:10.377202+00:00 RX 01 03 02 00 00 B8 44
2026-07-24T18:42:10.427713+00:00 TX 01 03 00 00 00 20 44 12
2026-07-24T18:42:10.471723+00:00 RX 01 03 40 00 00 00 00 00 03 00 00 00 03 00 00 00 00 00 00 00 00 00 00 00 00 00 00 00 01 00 00 01 00 05 0A 00 00 00 00 00 00 00 00 00 00 00 00 00 00 00 00 00 00 00 00 00 00 00 00 FF FF 57 70 FF FF 57 70 85 5B
2026-07-24T18:42:10.473723+00:00 TX 01 03 00 20 00 02 C5 C1
2026-07-24T18:42:10.480725+00:00 RX 01 03 04 00 00 01 E5 3A 28
2026-07-24T18:42:10.482725+00:00 TX 01 03 01 C4 00 01 C4 0B
2026-07-24T18:42:10.488727+00:00 RX 01 03 02 00 00 B8 44
2026-07-24T18:42:10.539318+00:00 TX 01 03 00 00 00 20 44 12
2026-07-24T18:42:10.583833+00:00 RX 01 03 40 00 00 00 00 00 03 00 00 00 03 00 00 00 00 00 00 00 00 00 00 00 00 00 00 00 01 00 00 01 00 05 0A 00 00 00 00 00 00 00 00 00 00 00 00 00 00 00 00 00 00 00 00 00 00 00 00 FF FF 55 AA FF FF 55 AA 5D 91
2026-07-24T18:42:10.585834+00:00 TX 01 03 00 20 00 02 C5 C1
2026-07-24T18:42:10.592835+00:00 RX 01 03 04 00 00 01 E6 7A 29
2026-07-24T18:42:10.595833+00:00 TX 01 03 01 C4 00 01 C4 0B
2026-07-24T18:42:10.601834+00:00 RX 01 03 02 00 00 B8 44
2026-07-24T18:42:10.653773+00:00 TX 01 03 00 00 00 20 44 12
2026-07-24T18:42:10.698287+00:00 RX 01 03 40 00 00 00 00 00 03 00 00 00 03 00 00 00 00 00 00 00 00 00 00 00 00 00 00 00 01 00 00 01 00 05 0A 00 00 00 00 00 00 00 00 00 00 00 00 00 00 00 00 00 00 00 00 00 00 00 00 FF FF 56 07 FF FF 56 07 31 37
2026-07-24T18:42:10.701287+00:00 TX 01 03 00 20 00 02 C5 C1
2026-07-24T18:42:10.709290+00:00 RX 01 03 04 00 00 01 E8 FB ED
2026-07-24T18:42:10.711290+00:00 TX 01 03 01 C4 00 01 C4 0B
2026-07-24T18:42:10.717291+00:00 RX 01 03 02 00 00 B8 44
2026-07-24T18:42:10.768849+00:00 TX 01 03 00 00 00 20 44 12
2026-07-24T18:42:10.813863+00:00 RX 01 03 40 00 00 00 00 00 03 00 00 00 03 00 00 00 00 00 00 00 00 00 00 00 00 00 00 00 01 00 00 01 00 05 0A 00 00 00 00 00 00 00 00 00 00 00 00 00 00 00 00 00 00 00 00 00 00 00 00 FF FF 57 EF FF FF 57 EF 51 2F
2026-07-24T18:42:10.815863+00:00 TX 01 03 00 20 00 02 C5 C1
2026-07-24T18:42:10.823393+00:00 RX 01 03 04 00 00 01 E9 3A 2D
2026-07-24T18:42:10.825394+00:00 TX 01 03 01 C4 00 01 C4 0B
2026-07-24T18:42:10.831392+00:00 RX 01 03 02 00 00 B8 44
2026-07-24T18:42:10.881405+00:00 TX 01 03 00 00 00 20 44 12
2026-07-24T18:42:10.926416+00:00 RX 01 03 40 00 00 00 00 00 03 00 00 00 03 00 00 00 00 00 00 00 00 00 00 00 00 00 00 00 01 00 00 01 00 05 0A 00 00 00 00 00 00 00 00 00 00 00 00 00 00 00 00 00 00 00 00 00 00 00 00 FF FF 57 B4 FF FF 57 B4 75 19
2026-07-24T18:42:10.929416+00:00 TX 01 03 00 20 00 02 C5 C1
2026-07-24T18:42:10.937414+00:00 RX 01 03 04 00 00 01 EA 7A 2C
2026-07-24T18:42:10.939415+00:00 TX 01 03 01 C4 00 01 C4 0B
2026-07-24T18:42:10.945922+00:00 RX 01 03 02 00 00 B8 44
2026-07-24T18:42:10.996452+00:00 TX 01 03 00 00 00 20 44 12
2026-07-24T18:42:11.040960+00:00 RX 01 03 40 00 00 00 00 00 03 00 00 00 03 00 00 00 00 00 00 00 00 00 00 00 00 00 00 00 01 00 00 01 00 05 0A 00 00 00 00 00 00 00 00 00 00 00 00 00 00 00 00 00 00 00 00 00 00 00 00 FF FF 58 E2 FF FF 58 E2 B8 24
2026-07-24T18:42:11.042961+00:00 TX 01 03 00 20 00 02 C5 C1
2026-07-24T18:42:11.050464+00:00 RX 01 03 04 00 00 01 EB BB EC
2026-07-24T18:42:11.053464+00:00 TX 01 03 01 C4 00 01 C4 0B
2026-07-24T18:42:11.059462+00:00 RX 01 03 02 00 00 B8 44
2026-07-24T18:42:11.109491+00:00 TX 01 03 00 00 00 20 44 12
2026-07-24T18:42:11.154557+00:00 RX 01 03 40 00 00 00 00 00 03 00 00 00 03 00 00 00 00 00 00 00 00 00 00 00 00 00 00 00 01 00 00 01 00 05 0A 00 00 00 00 00 00 00 00 00 00 00 00 00 00 00 00 00 00 00 00 00 00 00 00 FF FF 57 5F FF FF 57 5F 11 41
2026-07-24T18:42:11.156557+00:00 TX 01 03 00 20 00 02 C5 C1
2026-07-24T18:42:11.164142+00:00 RX 01 03 04 00 00 01 EC FA 2E
2026-07-24T18:42:11.166143+00:00 TX 01 03 01 C4 00 01 C4 0B
2026-07-24T18:42:11.172668+00:00 RX 01 03 02 00 00 B8 44
2026-07-24T18:42:11.222681+00:00 TX 01 03 00 00 00 20 44 12
2026-07-24T18:42:11.267189+00:00 RX 01 03 40 00 00 00 00 00 03 00 00 00 03 00 00 00 00 00 00 00 00 00 00 00 00 00 00 00 01 00 00 01 00 05 0A 00 00 00 00 00 00 00 00 00 00 00 00 00 00 00 00 00 00 00 00 00 00 00 00 FF FF 53 00 FF FF 53 00 C6 30
2026-07-24T18:42:11.270190+00:00 TX 01 03 00 20 00 02 C5 C1
2026-07-24T18:42:11.277695+00:00 RX 01 03 04 00 00 01 ED 3B EE
2026-07-24T18:42:11.280695+00:00 TX 01 03 01 C4 00 01 C4 0B
2026-07-24T18:42:11.287697+00:00 RX 01 03 02 00 00 B8 44
2026-07-24T18:42:11.338706+00:00 TX 01 03 00 00 00 20 44 12
2026-07-24T18:42:11.383240+00:00 RX 01 03 40 00 00 00 00 00 03 00 00 00 03 00 00 00 00 00 00 00 00 00 00 00 00 00 00 00 01 00 00 01 00 05 0A 00 00 00 00 00 00 00 00 00 00 00 00 00 00 00 00 00 00 00 00 00 00 00 00 FF FF 53 59 FF FF 53 59 1A 07
2026-07-24T18:42:11.385241+00:00 TX 01 03 00 20 00 02 C5 C1
2026-07-24T18:42:11.393243+00:00 RX 01 03 04 00 00 01 EE 7B EF
2026-07-24T18:42:11.396240+00:00 TX 01 03 01 C4 00 01 C4 0B
2026-07-24T18:42:11.402242+00:00 RX 01 03 02 00 00 B8 44
2026-07-24T18:42:11.452259+00:00 TX 01 03 00 00 00 20 44 12
2026-07-24T18:42:11.496764+00:00 RX 01 03 40 00 00 00 00 00 03 00 00 00 03 00 00 00 00 00 00 00 00 00 00 00 00 00 00 00 01 00 00 01 00 05 0A 00 00 00 00 00 00 00 00 00 00 00 00 00 00 00 00 00 00 00 00 00 00 00 00 FF FF 52 65 FF FF 52 65 4A 52
2026-07-24T18:42:11.499765+00:00 TX 01 03 00 20 00 02 C5 C1
2026-07-24T18:42:11.507809+00:00 RX 01 03 04 00 00 01 F0 FB E7
2026-07-24T18:42:11.509809+00:00 TX 01 03 01 C4 00 01 C4 0B
2026-07-24T18:42:11.516810+00:00 RX 01 03 02 00 00 B8 44
2026-07-24T18:42:11.567317+00:00 TX 01 03 00 00 00 20 44 12
2026-07-24T18:42:11.612825+00:00 RX 01 03 40 00 00 00 00 00 03 00 00 00 03 00 00 00 00 00 00 00 00 00 00 00 00 00 00 00 01 00 00 01 00 05 0A 00 00 00 00 00 00 00 00 00 00 00 00 00 00 00 00 00 00 00 00 00 00 00 00 FF FF 53 48 FF FF 53 48 26 08
2026-07-24T18:42:11.615822+00:00 TX 01 03 00 20 00 02 C5 C1
2026-07-24T18:42:11.623824+00:00 RX 01 03 04 00 00 01 F1 3A 27
2026-07-24T18:42:11.625824+00:00 TX 01 03 01 C4 00 01 C4 0B
2026-07-24T18:42:11.632324+00:00 RX 01 03 02 00 00 B8 44
2026-07-24T18:42:11.682895+00:00 TX 01 03 00 00 00 20 44 12
2026-07-24T18:42:11.727905+00:00 RX 01 03 40 00 00 00 00 00 03 00 00 00 03 00 00 00 00 00 00 00 00 00 00 00 00 00 00 00 01 00 00 01 00 05 0A 00 00 00 00 00 00 00 00 00 00 00 00 00 00 00 00 00 00 00 00 00 00 00 00 FF FF 52 BF FF FF 52 BF 92 1A
2026-07-24T18:42:11.729905+00:00 TX 01 03 00 20 00 02 C5 C1
2026-07-24T18:42:11.737904+00:00 RX 01 03 04 00 00 01 F2 7A 26
2026-07-24T18:42:11.739904+00:00 TX 01 03 01 C4 00 01 C4 0B
2026-07-24T18:42:11.745906+00:00 RX 01 03 02 00 00 B8 44
2026-07-24T18:42:11.795928+00:00 TX 01 03 00 00 00 20 44 12
2026-07-24T18:42:11.840435+00:00 RX 01 03 40 00 00 00 00 00 03 00 00 00 03 00 00 00 00 00 00 00 00 00 00 00 00 00 00 00 01 00 00 01 00 05 0A 00 00 00 00 00 00 00 00 00 00 00 00 00 00 00 00 00 00 00 00 00 00 00 00 FF FF 54 40 FF FF 54 40 C5 88
2026-07-24T18:42:11.842435+00:00 TX 01 03 00 20 00 02 C5 C1
2026-07-24T18:42:11.849939+00:00 RX 01 03 04 00 00 01 F3 BB E6
2026-07-24T18:42:11.851939+00:00 TX 01 03 01 C4 00 01 C4 0B
2026-07-24T18:42:11.857937+00:00 RX 01 03 02 00 00 B8 44
2026-07-24T18:42:11.907951+00:00 TX 01 03 00 00 00 20 44 12
2026-07-24T18:42:11.952459+00:00 RX 01 03 40 00 00 00 00 00 03 00 00 00 03 00 00 00 00 00 00 00 00 00 00 00 00 00 00 00 01 00 00 01 00 05 0A 00 00 00 00 00 00 00 00 00 00 00 00 00 00 00 00 00 00 00 00 00 00 00 00 FF FF 51 70 FF FF 51 70 86 9D
2026-07-24T18:42:11.954460+00:00 TX 01 03 00 20 00 02 C5 C1
2026-07-24T18:42:11.962457+00:00 RX 01 03 04 00 00 01 F4 FA 24
2026-07-24T18:42:11.964458+00:00 TX 01 03 01 C4 00 01 C4 0B
2026-07-24T18:42:11.970459+00:00 RX 01 03 02 00 00 B8 44
2026-07-24T18:42:12.020542+00:00 TX 01 03 00 00 00 20 44 12
2026-07-24T18:42:12.065048+00:00 RX 01 03 40 00 00 00 00 00 03 00 00 00 03 00 00 00 00 00 00 00 00 00 00 00 00 00 00 00 01 00 00 01 00 05 0A 00 00 00 00 00 00 00 00 00 00 00 00 00 00 00 00 00 00 00 00 00 00 00 00 FF FF 51 53 FF FF 51 53 02 83
2026-07-24T18:42:12.067048+00:00 TX 01 03 00 20 00 02 C5 C1
2026-07-24T18:42:12.074552+00:00 RX 01 03 04 00 00 01 F5 3B E4
2026-07-24T18:42:12.076552+00:00 TX 01 03 01 C4 00 01 C4 0B
2026-07-24T18:42:12.083067+00:00 RX 01 03 02 00 00 B8 44
2026-07-24T18:42:12.133362+00:00 TX 01 03 00 00 00 20 44 12
2026-07-24T18:42:12.178388+00:00 RX 01 03 40 00 00 00 00 00 03 00 00 00 03 00 00 00 00 00 00 00 00 00 00 00 00 00 00 00 01 00 00 01 00 05 0A 00 00 00 00 00 00 00 00 00 00 00 00 00 00 00 00 00 00 00 00 00 00 00 00 FF FF 52 D5 FF FF 52 D5 0A 3C
2026-07-24T18:42:12.180890+00:00 TX 01 03 00 20 00 02 C5 C1
2026-07-24T18:42:12.188891+00:00 RX 01 03 04 00 00 01 F7 BA 25
2026-07-24T18:42:12.190892+00:00 TX 01 03 01 C4 00 01 C4 0B
2026-07-24T18:42:12.197890+00:00 RX 01 03 02 00 00 B8 44
2026-07-24T18:42:12.248400+00:00 TX 01 03 00 00 00 20 44 12
2026-07-24T18:42:12.293408+00:00 RX 01 03 40 00 00 00 00 00 03 00 00 00 03 00 00 00 00 00 00 00 00 00 00 00 00 00 00 00 01 00 00 01 00 05 0A 00 00 00 00 00 00 00 00 00 00 00 00 00 00 00 00 00 00 00 00 00 00 00 00 FF FF 53 19 FF FF 53 19 1A 38
2026-07-24T18:42:12.295409+00:00 TX 01 03 00 20 00 02 C5 C1
2026-07-24T18:42:12.303411+00:00 RX 01 03 04 00 00 01 F8 FA 21
2026-07-24T18:42:12.305411+00:00 TX 01 03 01 C4 00 01 C4 0B
2026-07-24T18:42:12.311413+00:00 RX 01 03 02 00 00 B8 44
2026-07-24T18:42:12.361921+00:00 TX 01 03 00 00 00 20 44 12
2026-07-24T18:42:12.407432+00:00 RX 01 03 40 00 00 00 00 00 03 00 00 00 03 00 00 00 00 00 00 00 00 00 00 00 00 00 00 00 01 00 00 01 00 05 0A 00 00 00 00 00 00 00 00 00 00 00 00 00 00 00 00 00 00 00 00 00 00 00 00 FF FF 51 6C FF FF 51 6C 56 96
2026-07-24T18:42:12.409432+00:00 TX 01 03 00 20 00 02 C5 C1
2026-07-24T18:42:12.417936+00:00 RX 01 03 04 00 00 01 F9 3B E1
2026-07-24T18:42:12.419937+00:00 TX 01 03 01 C4 00 01 C4 0B
2026-07-24T18:42:12.426938+00:00 RX 01 03 02 00 00 B8 44
2026-07-24T18:42:12.477852+00:00 TX 01 03 00 00 00 20 44 12
2026-07-24T18:42:12.521969+00:00 RX 01 03 40 00 00 00 00 00 03 00 00 00 03 00 00 00 00 00 00 00 00 00 00 00 00 00 00 00 01 00 00 01 00 05 0A 00 00 00 00 00 00 00 00 00 00 00 00 00 00 00 00 00 00 00 00 00 00 00 00 FF FF 52 80 FF FF 52 80 C6 0F
2026-07-24T18:42:12.524966+00:00 TX 01 03 00 20 00 02 C5 C1
2026-07-24T18:42:12.531968+00:00 RX 01 03 04 00 00 01 FA 7B E0
2026-07-24T18:42:12.534968+00:00 TX 01 03 01 C4 00 01 C4 0B
2026-07-24T18:42:12.540966+00:00 RX 01 03 02 00 00 B8 44
2026-07-24T18:42:12.591479+00:00 TX 01 03 00 00 00 20 44 12
2026-07-24T18:42:12.636009+00:00 RX 01 03 40 00 00 00 00 00 03 00 00 00 03 00 00 00 00 00 00 00 00 00 00 00 00 00 00 00 01 00 00 01 00 05 0A 00 00 00 00 00 00 00 00 00 00 00 00 00 00 00 00 00 00 00 00 00 00 00 00 FF FF 53 95 FF FF 53 95 0A 42
2026-07-24T18:42:12.638010+00:00 TX 01 03 00 20 00 02 C5 C1
2026-07-24T18:42:12.645011+00:00 RX 01 03 04 00 00 01 FB BA 20
2026-07-24T18:42:12.647012+00:00 TX 01 03 01 C4 00 01 C4 0B
2026-07-24T18:42:12.653515+00:00 RX 01 03 02 00 00 B8 44
2026-07-24T18:42:12.704024+00:00 TX 01 03 00 00 00 20 44 12
2026-07-24T18:42:12.748031+00:00 RX 01 03 40 00 00 00 00 00 03 00 00 00 03 00 00 00 00 00 00 00 00 00 00 00 00 00 00 00 01 00 00 01 00 05 0A 00 00 00 00 00 00 00 00 00 00 00 00 00 00 00 00 00 00 00 00 00 00 00 00 FF FF 53 6B FF FF 53 6B A2 16
2026-07-24T18:42:12.751537+00:00 TX 01 03 00 20 00 02 C5 C1
2026-07-24T18:42:12.759037+00:00 RX 01 03 04 00 00 01 FC FB E2
2026-07-24T18:42:12.762034+00:00 TX 01 03 01 C4 00 01 C4 0B
2026-07-24T18:42:12.768035+00:00 RX 01 03 02 00 00 B8 44
2026-07-24T18:42:12.818699+00:00 TX 01 03 00 00 00 20 44 12
2026-07-24T18:42:12.863202+00:00 RX 01 03 40 00 00 00 00 00 03 00 00 00 03 00 00 00 00 00 00 00 00 00 00 00 00 00 00 00 01 00 00 01 00 05 0A 00 00 00 00 00 00 00 00 00 00 00 00 00 00 00 00 00 00 00 00 00 00 00 00 FF FF 52 8D FF FF 52 8D 2A 0B
2026-07-24T18:42:12.865203+00:00 TX 01 03 00 20 00 02 C5 C1
2026-07-24T18:42:12.873205+00:00 RX 01 03 04 00 00 01 FE 7A 23
2026-07-24T18:42:12.875205+00:00 TX 01 03 01 C4 00 01 C4 0B
2026-07-24T18:42:12.881708+00:00 RX 01 03 02 00 00 B8 44
2026-07-24T18:42:12.931720+00:00 TX 01 03 00 00 00 20 44 12
2026-07-24T18:42:12.976292+00:00 RX 01 03 40 00 00 00 00 00 03 00 00 00 03 00 00 00 00 00 00 00 00 00 00 00 00 00 00 00 01 00 00 01 00 05 0A 00 00 00 00 00 00 00 00 00 00 00 00 00 00 00 00 00 00 00 00 00 00 00 00 FF FF 50 8B FF FF 50 8B 22 8B
2026-07-24T18:42:12.978293+00:00 TX 01 03 00 20 00 02 C5 C1
2026-07-24T18:42:12.985795+00:00 RX 01 03 04 00 00 01 FF BB E3
2026-07-24T18:42:12.987795+00:00 TX 01 03 01 C4 00 01 C4 0B
2026-07-24T18:42:12.993797+00:00 RX 01 03 02 00 00 B8 44
2026-07-24T18:42:13.043804+00:00 TX 01 03 00 00 00 20 44 12
2026-07-24T18:42:13.088340+00:00 RX 01 03 40 00 00 00 00 00 03 00 00 00 03 00 00 00 00 00 00 00 00 00 00 00 00 00 00 00 01 00 00 01 00 05 0A 00 00 00 00 00 00 00 00 00 00 00 00 00 00 00 00 00 00 00 00 00 00 00 00 FF FF 4E 8B FF FF 4E 8B 28 95
2026-07-24T18:42:13.091016+00:00 TX 01 03 00 20 00 02 C5 C1
2026-07-24T18:42:13.098010+00:00 RX 01 03 04 00 00 02 00 FB 53
2026-07-24T18:42:13.101011+00:00 TX 01 03 01 C4 00 01 C4 0B
2026-07-24T18:42:13.108013+00:00 RX 01 03 02 00 00 B8 44
2026-07-24T18:42:13.158583+00:00 TX 01 03 00 00 00 20 44 12
2026-07-24T18:42:13.202646+00:00 RX 01 03 40 00 00 00 00 00 03 00 00 00 03 00 00 00 00 00 00 00 00 00 00 00 00 00 00 00 01 00 00 01 00 05 0A 00 00 00 00 00 00 00 00 00 00 00 00 00 00 00 00 00 00 00 00 00 00 00 00 FF FF 51 23 FF FF 51 23 42 AC
2026-07-24T18:42:13.205647+00:00 TX 01 03 00 20 00 02 C5 C1
2026-07-24T18:42:13.213148+00:00 RX 01 03 04 00 00 02 01 3A 93
2026-07-24T18:42:13.215149+00:00 TX 01 03 01 C4 00 01 C4 0B
2026-07-24T18:42:13.221150+00:00 RX 01 03 02 00 00 B8 44
2026-07-24T18:42:13.271657+00:00 TX 01 03 00 00 00 20 44 12
2026-07-24T18:42:13.316169+00:00 RX 01 03 40 00 00 00 00 00 03 00 00 00 03 00 00 00 00 00 00 00 00 00 00 00 00 00 00 00 01 00 00 01 00 05 0A 00 00 00 00 00 00 00 00 00 00 00 00 00 00 00 00 00 00 00 00 00 00 00 00 FF FF 51 F0 FF FF 51 F0 86 E3
2026-07-24T18:42:13.319170+00:00 TX 01 03 00 20 00 02 C5 C1
2026-07-24T18:42:13.327172+00:00 RX 01 03 04 00 00 02 02 7A 92
2026-07-24T18:42:13.329172+00:00 TX 01 03 01 C4 00 01 C4 0B
2026-07-24T18:42:13.335174+00:00 RX 01 03 02 00 00 B8 44
2026-07-24T18:42:13.385691+00:00 TX 01 03 00 00 00 20 44 12
2026-07-24T18:42:13.430200+00:00 RX 01 03 40 00 00 00 00 00 03 00 00 00 03 00 00 00 00 00 00 00 00 00 00 00 00 00 00 00 01 00 00 01 00 05 0A 00 00 00 00 00 00 00 00 00 00 00 00 00 00 00 00 00 00 00 00 00 00 00 00 FF FF 4F 3B FF FF 4F 3B 68 BA
2026-07-24T18:42:13.432201+00:00 TX 01 03 00 20 00 02 C5 C1
2026-07-24T18:42:13.440199+00:00 RX 01 03 04 00 00 02 03 BB 52
2026-07-24T18:42:13.442200+00:00 TX 01 03 01 C4 00 01 C4 0B
2026-07-24T18:42:13.449201+00:00 RX 01 03 02 00 00 B8 44
2026-07-24T18:42:13.499209+00:00 TX 01 03 00 00 00 20 44 12
2026-07-24T18:42:13.543585+00:00 RX 01 03 40 00 00 00 00 00 03 00 00 00 03 00 00 00 00 00 00 00 00 00 00 00 00 00 00 00 01 00 00 01 00 05 0A 00 00 00 00 00 00 00 00 00 00 00 00 00 00 00 00 00 00 00 00 00 00 00 00 FF FF 4E EF FF FF 4E EF 58 B6
2026-07-24T18:42:13.546585+00:00 TX 01 03 00 20 00 02 C5 C1
2026-07-24T18:42:13.554091+00:00 RX 01 03 04 00 00 02 04 FA 90
2026-07-24T18:42:13.557089+00:00 TX 01 03 01 C4 00 01 C4 0B
2026-07-24T18:42:13.563090+00:00 RX 01 03 02 00 00 B8 44
2026-07-24T18:42:13.613604+00:00 TX 01 03 00 00 00 20 44 12
2026-07-24T18:42:13.657653+00:00 RX 01 03 40 00 00 00 00 00 03 00 00 00 03 00 00 00 00 00 00 00 00 00 00 00 00 00 00 00 01 00 00 01 00 05 0A 00 00 00 00 00 00 00 00 00 00 00 00 00 00 00 00 00 00 00 00 00 00 00 00 FF FF 4F 72 FF FF 4F 72 74 82
2026-07-24T18:42:13.660653+00:00 TX 01 03 00 20 00 02 C5 C1
2026-07-24T18:42:13.668652+00:00 RX 01 03 04 00 00 02 06 7B 51
2026-07-24T18:42:13.670653+00:00 TX 01 03 01 C4 00 01 C4 0B
2026-07-24T18:42:13.677655+00:00 RX 01 03 02 00 00 B8 44
2026-07-24T18:42:13.728167+00:00 TX 01 03 00 00 00 20 44 12
2026-07-24T18:42:13.772712+00:00 RX 01 03 40 00 00 00 00 00 03 00 00 00 03 00 00 00 00 00 00 00 00 00 00 00 00 00 00 00 01 00 00 01 00 05 0A 00 00 00 00 00 00 00 00 00 00 00 00 00 00 00 00 00 00 00 00 00 00 00 00 FF FF 4F 92 FF FF 4F 92 F4 DC
2026-07-24T18:42:13.775713+00:00 TX 01 03 00 20 00 02 C5 C1
2026-07-24T18:42:13.782716+00:00 RX 01 03 04 00 00 02 07 BA 91
2026-07-24T18:42:13.784716+00:00 TX 01 03 01 C4 00 01 C4 0B
2026-07-24T18:42:13.790718+00:00 RX 01 03 02 00 00 B8 44
2026-07-24T18:42:13.840749+00:00 TX 01 03 00 00 00 20 44 12
2026-07-24T18:42:13.884757+00:00 RX 01 03 40 00 00 00 00 00 03 00 00 00 03 00 00 00 00 00 00 00 00 00 00 00 00 00 00 00 01 00 00 01 00 05 0A 00 00 00 00 00 00 00 00 00 00 00 00 00 00 00 00 00 00 00 00 00 00 00 00 FF FF 4E 0C FF FF 4E 0C DC E9
2026-07-24T18:42:13.886757+00:00 TX 01 03 00 20 00 02 C5 C1
2026-07-24T18:42:13.893759+00:00 RX 01 03 04 00 00 02 08 FA 95
2026-07-24T18:42:13.895759+00:00 TX 01 03 01 C4 00 01 C4 0B
2026-07-24T18:42:13.901761+00:00 RX 01 03 02 00 00 B8 44
2026-07-24T18:42:13.951769+00:00 TX 01 03 00 00 00 20 44 12
2026-07-24T18:42:13.996288+00:00 RX 01 03 40 00 00 00 00 00 03 00 00 00 03 00 00 00 00 00 00 00 00 00 00 00 00 00 00 00 01 00 00 01 00 05 0A 00 00 00 00 00 00 00 00 00 00 00 00 00 00 00 00 00 00 00 00 00 00 00 00 FF FF 4D 24 FF FF 4D 24 BC 32
2026-07-24T18:42:13.998289+00:00 TX 01 03 00 20 00 02 C5 C1
2026-07-24T18:42:14.006291+00:00 RX 01 03 04 00 00 02 09 3B 55
2026-07-24T18:42:14.008291+00:00 TX 01 03 01 C4 00 01 C4 0B
2026-07-24T18:42:14.014793+00:00 RX 01 03 02 00 00 B8 44
2026-07-24T18:42:14.065299+00:00 TX 01 03 00 00 00 20 44 12
2026-07-24T18:42:14.110331+00:00 RX 01 03 40 00 00 00 00 00 03 00 00 00 03 00 00 00 00 00 00 00 00 00 00 00 00 00 00 00 01 00 00 01 00 05 0A 00 00 00 00 00 00 00 00 00 00 00 00 00 00 00 00 00 00 00 00 00 00 00 00 FF FF 4D 82 FF FF 4D 82 34 51
2026-07-24T18:42:14.112331+00:00 TX 01 03 00 20 00 02 C5 C1
2026-07-24T18:42:14.120333+00:00 RX 01 03 04 00 00 02 0A 7B 54
2026-07-24T18:42:14.122334+00:00 TX 01 03 01 C4 00 01 C4 0B
2026-07-24T18:42:14.128972+00:00 RX 01 03 02 00 00 B8 44
2026-07-24T18:42:14.179084+00:00 TX 01 03 00 00 00 20 44 12
2026-07-24T18:42:14.223595+00:00 RX 01 03 40 00 00 00 00 00 03 00 00 00 03 00 00 00 00 00 00 00 00 00 00 00 00 00 00 00 01 00 00 01 00 05 0A 00 00 00 00 00 00 00 00 00 00 00 00 00 00 00 00 00 00 00 00 00 00 00 00 FF FF 4D AE FF FF 4D AE A4 4A
2026-07-24T18:42:14.226596+00:00 TX 01 03 00 20 00 02 C5 C1
2026-07-24T18:42:14.234598+00:00 RX 01 03 04 00 00 02 0B BA 94
2026-07-24T18:42:14.236598+00:00 TX 01 03 01 C4 00 01 C4 0B
2026-07-24T18:42:14.242596+00:00 RX 01 03 02 00 00 B8 44
2026-07-24T18:42:14.293609+00:00 TX 01 03 00 00 00 20 44 12
2026-07-24T18:42:14.337620+00:00 RX 01 03 40 00 00 00 00 00 03 00 00 00 03 00 00 00 00 00 00 00 00 00 00 00 00 00 00 00 01 00 00 01 00 05 0A 00 00 00 00 00 00 00 00 00 00 00 00 00 00 00 00 00 00 00 00 00 00 00 00 FF FF 4D D8 FF FF 4D D8 EC 67
2026-07-24T18:42:14.341617+00:00 TX 01 03 00 20 00 02 C5 C1
2026-07-24T18:42:14.348619+00:00 RX 01 03 04 00 00 02 0D 3A 96
2026-07-24T18:42:14.351620+00:00 TX 01 03 01 C4 00 01 C4 0B
2026-07-24T18:42:14.358123+00:00 RX 01 03 02 00 00 B8 44
2026-07-24T18:42:14.408134+00:00 TX 01 03 00 00 00 20 44 12
2026-07-24T18:42:14.452643+00:00 RX 01 03 40 00 00 00 00 00 03 00 00 00 03 00 00 00 00 00 00 00 00 00 00 00 00 00 00 00 01 00 00 01 00 05 0A 00 00 00 00 00 00 00 00 00 00 00 00 00 00 00 00 00 00 00 00 00 00 00 00 FF FF 4D DF FF FF 4D DF 18 65
2026-07-24T18:42:14.455644+00:00 TX 01 03 00 20 00 02 C5 C1
2026-07-24T18:42:14.463147+00:00 RX 01 03 04 00 00 02 0E 7A 97
2026-07-24T18:42:14.465147+00:00 TX 01 03 01 C4 00 01 C4 0B
2026-07-24T18:42:14.471145+00:00 RX 01 03 02 00 00 B8 44
2026-07-24T18:42:14.521694+00:00 TX 01 03 00 00 00 20 44 12
2026-07-24T18:42:14.566202+00:00 RX 01 03 40 00 00 00 00 00 03 00 00 00 03 00 00 00 00 00 00 00 00 00 00 00 00 00 00 00 01 00 00 01 00 05 0A 00 00 00 00 00 00 00 00 00 00 00 00 00 00 00 00 00 00 00 00 00 00 00 00 FF FF 4E 49 FF FF 4E 49 D0 D5
2026-07-24T18:42:14.569199+00:00 TX 01 03 00 20 00 02 C5 C1
2026-07-24T18:42:14.577201+00:00 RX 01 03 04 00 00 02 0F BB 57
2026-07-24T18:42:14.579201+00:00 TX 01 03 01 C4 00 01 C4 0B
2026-07-24T18:42:14.585708+00:00 RX 01 03 02 00 00 B8 44
2026-07-24T18:42:14.636237+00:00 TX 01 03 00 00 00 20 44 12
2026-07-24T18:42:14.680742+00:00 RX 01 03 40 00 00 00 00 00 03 00 00 00 03 00 00 00 00 00 00 00 00 00 00 00 00 00 00 00 01 00 00 01 00 05 0A 00 00 00 00 00 00 00 00 00 00 00 00 00 00 00 00 00 00 00 00 00 00 00 00 FF FF 4D AF FF FF 4D AF 58 4A
2026-07-24T18:42:14.682743+00:00 TX 01 03 00 20 00 02 C5 C1
2026-07-24T18:42:14.691247+00:00 RX 01 03 04 00 00 02 10 FA 9F
2026-07-24T18:42:14.693247+00:00 TX 01 03 01 C4 00 01 C4 0B
2026-07-24T18:42:14.699249+00:00 RX 01 03 02 00 00 B8 44
2026-07-24T18:42:14.749257+00:00 TX 01 03 00 00 00 20 44 12
2026-07-24T18:42:14.794283+00:00 RX 01 03 40 00 00 00 00 00 03 00 00 00 03 00 00 00 00 00 00 00 00 00 00 00 00 00 00 00 01 00 00 01 00 05 0A 00 00 00 00 00 00 00 00 00 00 00 00 00 00 00 00 00 00 00 00 00 00 00 00 FF FF 4C 80 FF FF 4C 80 CC 11
2026-07-24T18:42:14.796284+00:00 TX 01 03 00 20 00 02 C5 C1
2026-07-24T18:42:14.804282+00:00 RX 01 03 04 00 00 02 11 3B 5F
2026-07-24T18:42:14.806283+00:00 TX 01 03 01 C4 00 01 C4 0B
2026-07-24T18:42:14.812786+00:00 RX 01 03 02 00 00 B8 44
2026-07-24T18:42:14.863295+00:00 TX 01 03 00 00 00 20 44 12
2026-07-24T18:42:14.907804+00:00 RX 01 03 40 00 00 00 00 00 03 00 00 00 03 00 00 00 00 00 00 00 00 00 00 00 00 00 00 00 01 00 00 01 00 05 0A 00 00 00 00 00 00 00 00 00 00 00 00 00 00 00 00 00 00 00 00 00 00 00 00 FF FF 4F 96 FF FF 4F 96 04 DF
2026-07-24T18:42:14.909804+00:00 TX 01 03 00 20 00 02 C5 C1
2026-07-24T18:42:14.917806+00:00 RX 01 03 04 00 00 02 12 7B 5E
2026-07-24T18:42:14.919807+00:00 TX 01 03 01 C4 00 01 C4 0B
2026-07-24T18:42:14.926808+00:00 RX 01 03 02 00 00 B8 44
2026-07-24T18:42:14.977314+00:00 TX 01 03 00 00 00 20 44 12
2026-07-24T18:42:15.022324+00:00 RX 01 03 40 00 00 00 00 00 03 00 00 00 03 00 00 00 00 00 00 00 00 00 00 00 00 00 00 00 01 00 00 01 00 05 0A 00 00 00 00 00 00 00 00 00 00 00 00 00 00 00 00 00 00 00 00 00 00 00 00 FF FF 4D 99 FF FF 4D 99 10 58
2026-07-24T18:42:15.024325+00:00 TX 01 03 00 20 00 02 C5 C1
2026-07-24T18:42:15.032327+00:00 RX 01 03 04 00 00 02 14 FB 5C
2026-07-24T18:42:15.034327+00:00 TX 01 03 01 C4 00 01 C4 0B
2026-07-24T18:42:15.040329+00:00 RX 01 03 02 00 00 B8 44
2026-07-24T18:42:15.090857+00:00 TX 01 03 00 00 00 20 44 12
2026-07-24T18:42:15.135867+00:00 RX 01 03 40 00 00 00 00 00 03 00 00 00 03 00 00 00 00 00 00 00 00 00 00 00 00 00 00 00 01 00 00 01 00 05 0A 00 00 00 00 00 00 00 00 00 00 00 00 00 00 00 00 00 00 00 00 00 00 00 00 FF FF 4D A5 FF FF 4D A5 40 4C
2026-07-24T18:42:15.137868+00:00 TX 01 03 00 20 00 02 C5 C1
2026-07-24T18:42:15.144942+00:00 RX 01 03 04 00 00 02 15 3A 9C
2026-07-24T18:42:15.146956+00:00 TX 01 03 01 C4 00 01 C4 0B
2026-07-24T18:42:15.152957+00:00 RX 01 03 02 00 00 B8 44
2026-07-24T18:42:15.203766+00:00 TX 01 03 00 00 00 20 44 12
2026-07-24T18:42:15.248275+00:00 RX 01 03 40 00 00 00 00 00 03 00 00 00 03 00 00 00 00 00 00 00 00 00 00 00 00 00 00 00 01 00 00 01 00 05 0A 00 00 00 00 00 00 00 00 00 00 00 00 00 00 00 00 00 00 00 00 00 00 00 00 FF FF 4E 3A FF FF 4E 3A 94 FB
2026-07-24T18:42:15.250275+00:00 TX 01 03 00 20 00 02 C5 C1
2026-07-24T18:42:15.258278+00:00 RX 01 03 04 00 00 02 16 7A 9D
2026-07-24T18:42:15.261780+00:00 TX 01 03 01 C4 00 01 C4 0B
2026-07-24T18:42:15.267782+00:00 RX 01 03 02 00 00 B8 44
2026-07-24T18:42:15.318291+00:00 TX 01 03 00 00 00 20 44 12
2026-07-24T18:42:15.362799+00:00 RX 01 03 40 00 00 00 00 00 03 00 00 00 03 00 00 00 00 00 00 00 00 00 00 00 00 00 00 00 01 00 00 01 00 05 0A 00 00 00 00 00 00 00 00 00 00 00 00 00 00 00 00 00 00 00 00 00 00 00 00 FF FF 4E E0 FF FF 4E E0 4C B3
2026-07-24T18:42:15.364799+00:00 TX 01 03 00 20 00 02 C5 C1
2026-07-24T18:42:15.372798+00:00 RX 01 03 04 00 00 02 17 BB 5D
2026-07-24T18:42:15.374798+00:00 TX 01 03 01 C4 00 01 C4 0B
2026-07-24T18:42:15.380799+00:00 RX 01 03 02 00 00 B8 44
2026-07-24T18:42:15.430811+00:00 TX 01 03 00 00 00 20 44 12
2026-07-24T18:42:15.476318+00:00 RX 01 03 40 00 00 00 00 00 03 00 00 00 03 00 00 00 00 00 00 00 00 00 00 00 00 00 00 00 01 00 00 01 00 05 0A 00 00 00 00 00 00 00 00 00 00 00 00 00 00 00 00 00 00 00 00 00 00 00 00 FF FF 4C EA FF FF 4C EA 54 37
2026-07-24T18:42:15.478318+00:00 TX 01 03 00 20 00 02 C5 C1
2026-07-24T18:42:15.486821+00:00 RX 01 03 04 00 00 02 18 FB 59
2026-07-24T18:42:15.489820+00:00 TX 01 03 01 C4 00 01 C4 0B
2026-07-24T18:42:15.495821+00:00 RX 01 03 02 00 00 B8 44
2026-07-24T18:42:15.545865+00:00 TX 01 03 00 00 00 20 44 12
2026-07-24T18:42:15.590391+00:00 RX 01 03 40 00 00 00 00 00 03 00 00 00 03 00 00 00 00 00 00 00 00 00 00 00 00 00 00 00 01 00 00 01 00 05 0A 00 00 00 00 00 00 00 00 00 00 00 00 00 00 00 00 00 00 00 00 00 00 00 00 FF FF 4D 67 FF FF 4D 67 B8 0C
2026-07-24T18:42:15.592392+00:00 TX 01 03 00 20 00 02 C5 C1
2026-07-24T18:42:15.600391+00:00 RX 01 03 04 00 00 02 19 3A 99
2026-07-24T18:42:15.603391+00:00 TX 01 03 01 C4 00 01 C4 0B
2026-07-24T18:42:15.609392+00:00 RX 01 03 02 00 00 B8 44
2026-07-24T18:42:15.659415+00:00 TX 01 03 00 00 00 20 44 12
2026-07-24T18:42:15.703919+00:00 RX 01 03 40 00 00 00 00 00 03 00 00 00 03 00 00 00 00 00 00 00 00 00 00 00 00 00 00 00 01 00 00 01 00 05 0A 00 00 00 00 00 00 00 00 00 00 00 00 00 00 00 00 00 00 00 00 00 00 00 00 FF FF 4D D4 FF FF 4D D4 FC 63
2026-07-24T18:42:15.705920+00:00 TX 01 03 00 20 00 02 C5 C1
2026-07-24T18:42:15.712921+00:00 RX 01 03 04 00 00 02 1A 7A 98
2026-07-24T18:42:15.715922+00:00 TX 01 03 01 C4 00 01 C4 0B
2026-07-24T18:42:15.721932+00:00 RX 01 03 02 00 00 B8 44
2026-07-24T18:42:15.772462+00:00 TX 01 03 00 00 00 20 44 12
2026-07-24T18:42:15.817972+00:00 RX 01 03 40 00 00 00 00 00 03 00 00 00 03 00 00 00 00 00 00 00 00 00 00 00 00 00 00 00 01 00 00 01 00 05 0A 00 00 00 00 00 00 00 00 00 00 00 00 00 00 00 00 00 00 00 00 00 00 00 00 FF FF 4C C1 FF FF 4C C1 30 2E
2026-07-24T18:42:15.819972+00:00 TX 01 03 00 20 00 02 C5 C1
2026-07-24T18:42:15.827974+00:00 RX 01 03 04 00 00 02 1C FA 9A
2026-07-24T18:42:15.830975+00:00 TX 01 03 01 C4 00 01 C4 0B
2026-07-24T18:42:15.836976+00:00 RX 01 03 02 00 00 B8 44
2026-07-24T18:42:15.887481+00:00 TX 01 03 00 00 00 20 44 12
2026-07-24T18:42:15.931993+00:00 RX 01 03 40 00 00 00 00 00 03 00 00 00 03 00 00 00 00 00 00 00 00 00 00 00 00 00 00 00 01 00 00 01 00 05 0A 00 00 00 00 00 00 00 00 00 00 00 00 00 00 00 00 00 00 00 00 00 00 00 00 FF FF 4C 88 FF FF 4C 88 2C 16
2026-07-24T18:42:15.933994+00:00 TX 01 03 00 20 00 02 C5 C1
2026-07-24T18:42:15.941995+00:00 RX 01 03 04 00 00 02 1D 3B 5A
2026-07-24T18:42:15.943996+00:00 TX 01 03 01 C4 00 01 C4 0B
2026-07-24T18:42:15.949995+00:00 RX 01 03 02 00 00 B8 44
2026-07-24T18:42:16.000003+00:00 TX 01 03 00 00 00 20 44 12
2026-07-24T18:42:16.044514+00:00 RX 01 03 40 00 00 00 00 00 03 00 00 00 03 00 00 00 00 00 00 00 00 00 00 00 00 00 00 00 01 00 00 01 00 05 0A 00 00 00 00 00 00 00 00 00 00 00 00 00 00 00 00 00 00 00 00 00 00 00 00 FF FF 4D 75 FF FF 4D 75 80 02
2026-07-24T18:42:16.047511+00:00 TX 01 03 00 20 00 02 C5 C1
2026-07-24T18:42:16.054513+00:00 RX 01 03 04 00 00 02 1E 7B 5B
2026-07-24T18:42:16.057513+00:00 TX 01 03 01 C4 00 01 C4 0B
2026-07-24T18:42:16.064015+00:00 RX 01 03 02 00 00 B8 44
2026-07-24T18:42:16.114151+00:00 TX 01 03 00 00 00 20 44 12
2026-07-24T18:42:16.158193+00:00 RX 01 03 40 00 00 00 00 00 03 00 00 00 03 00 00 00 00 00 00 00 00 00 00 00 00 00 00 00 01 00 00 01 00 05 0A 00 00 00 00 00 00 00 00 00 00 00 00 00 00 00 00 00 00 00 00 00 00 00 00 FF FF 4A 1C FF FF 4A 1C 1F A2
2026-07-24T18:42:16.160698+00:00 TX 01 03 00 20 00 02 C5 C1
2026-07-24T18:42:16.169209+00:00 RX 01 03 04 00 00 02 1F BA 9B
2026-07-24T18:42:16.171210+00:00 TX 01 03 01 C4 00 01 C4 0B
2026-07-24T18:42:16.176208+00:00 RX 01 03 02 00 00 B8 44
2026-07-24T18:42:16.227888+00:00 TX 01 03 00 00 00 20 44 12
2026-07-24T18:42:16.272158+00:00 RX 01 03 40 00 00 00 00 00 03 00 00 00 03 00 00 00 00 00 00 00 00 00 00 00 00 00 00 00 01 00 00 01 00 05 0A 00 00 00 00 00 00 00 00 00 00 00 00 00 00 00 00 00 00 00 00 00 00 00 00 FF FF 4A E8 FF FF 4A E8 AF F0
2026-07-24T18:42:16.275763+00:00 TX 01 03 00 20 00 02 C5 C1
2026-07-24T18:42:16.283386+00:00 RX 01 03 04 00 00 02 20 FA 8B
2026-07-24T18:42:16.285386+00:00 TX 01 03 01 C4 00 01 C4 0B
2026-07-24T18:42:16.291888+00:00 RX 01 03 02 00 00 B8 44
2026-07-24T18:42:16.341899+00:00 TX 01 03 00 00 00 20 44 12
2026-07-24T18:42:16.387404+00:00 RX 01 03 40 00 00 00 00 00 03 00 00 00 03 00 00 00 00 00 00 00 00 00 00 00 00 00 00 00 01 00 00 01 00 05 0A 00 00 00 00 00 00 00 00 00 00 00 00 00 00 00 00 00 00 00 00 00 00 00 00 FF FF 4B 19 FF FF 4B 19 13 E0
2026-07-24T18:42:16.389414+00:00 TX 01 03 00 20 00 02 C5 C1
2026-07-24T18:42:16.397413+00:00 RX 01 03 04 00 00 02 21 3B 4B
2026-07-24T18:42:16.400409+00:00 TX 01 03 01 C4 00 01 C4 0B
2026-07-24T18:42:16.407411+00:00 RX 01 03 02 00 00 B8 44
2026-07-24T18:42:16.457920+00:00 TX 01 03 00 00 00 20 44 12
2026-07-24T18:42:16.501939+00:00 RX 01 03 40 00 00 00 00 00 03 00 00 00 03 00 00 00 00 00 00 00 00 00 00 00 00 00 00 00 01 00 00 01 00 05 0A 00 00 00 00 00 00 00 00 00 00 00 00 00 00 00 00 00 00 00 00 00 00 00 00 FF FF 4A C0 FF FF 4A C0 CF E8
2026-07-24T18:42:16.503973+00:00 TX 01 03 00 20 00 02 C5 C1
2026-07-24T18:42:16.510971+00:00 RX 01 03 04 00 00 02 23 BA 8A
2026-07-24T18:42:16.513972+00:00 TX 01 03 01 C4 00 01 C4 0B
2026-07-24T18:42:16.519973+00:00 RX 01 03 02 00 00 B8 44
2026-07-24T18:42:16.571899+00:00 TX 01 03 00 00 00 20 44 12
2026-07-24T18:42:16.617136+00:00 RX 01 03 40 00 00 00 00 00 03 00 00 00 03 00 00 00 00 00 00 00 00 00 00 00 00 00 00 00 01 00 00 01 00 05 0A 00 00 00 00 00 00 00 00 00 00 00 00 00 00 00 00 00 00 00 00 00 00 00 00 FF FF 4D 5D FF FF 4D 5D E0 1A
2026-07-24T18:42:16.619140+00:00 TX 01 03 00 20 00 02 C5 C1
2026-07-24T18:42:16.627142+00:00 RX 01 03 04 00 00 02 24 FB 48
2026-07-24T18:42:16.629182+00:00 TX 01 03 01 C4 00 01 C4 0B
2026-07-24T18:42:16.635180+00:00 RX 01 03 02 00 00 B8 44
2026-07-24T18:42:16.686688+00:00 TX 01 03 00 00 00 20 44 12
2026-07-24T18:42:16.732199+00:00 RX 01 03 40 00 00 00 00 00 03 00 00 00 03 00 00 00 00 00 00 00 00 00 00 00 00 00 00 00 01 00 00 01 00 05 0A 00 00 00 00 00 00 00 00 00 00 00 00 00 00 00 00 00 00 00 00 00 00 00 00 FF FF 4C 1B FF FF 4C 1B E8 66
2026-07-24T18:42:16.734200+00:00 TX 01 03 00 20 00 02 C5 C1
2026-07-24T18:42:16.742198+00:00 RX 01 03 04 00 00 02 25 3A 88
2026-07-24T18:42:16.744198+00:00 TX 01 03 01 C4 00 01 C4 0B
2026-07-24T18:42:16.750200+00:00 RX 01 03 02 00 00 B8 44
2026-07-24T18:42:16.800788+00:00 TX 01 03 00 00 00 20 44 12
2026-07-24T18:42:16.845824+00:00 RX 01 03 40 00 00 00 00 00 03 00 00 00 03 00 00 00 00 00 00 00 00 00 00 00 00 00 00 00 01 00 00 01 00 05 0A 00 00 00 00 00 00 00 00 00 00 00 00 00 00 00 00 00 00 00 00 00 00 00 00 FF FF 4C 59 FF FF 4C 59 10 58
2026-07-24T18:42:16.847824+00:00 TX 01 03 00 20 00 02 C5 C1
2026-07-24T18:42:16.854831+00:00 RX 01 03 04 00 00 02 26 7A 89
2026-07-24T18:42:16.856831+00:00 TX 01 03 01 C4 00 01 C4 0B
2026-07-24T18:42:16.862833+00:00 RX 01 03 02 00 00 B8 44
2026-07-24T18:42:16.913843+00:00 TX 01 03 00 00 00 20 44 12
2026-07-24T18:42:16.958364+00:00 RX 01 03 40 00 00 00 00 00 03 00 00 00 03 00 00 00 00 00 00 00 00 00 00 00 00 00 00 00 01 00 00 01 00 05 0A 00 00 00 00 00 00 00 00 00 00 00 00 00 00 00 00 00 00 00 00 00 00 00 00 FF FF 4C 95 FF FF 4C 95 00 1D
2026-07-24T18:42:16.960364+00:00 TX 01 03 00 20 00 02 C5 C1
2026-07-24T18:42:16.968867+00:00 RX 01 03 04 00 00 02 27 BB 49
2026-07-24T18:42:16.970868+00:00 TX 01 03 01 C4 00 01 C4 0B
2026-07-24T18:42:16.976866+00:00 RX 01 03 02 00 00 B8 44
2026-07-24T18:42:17.028377+00:00 TX 01 03 00 00 00 20 44 12
2026-07-24T18:42:17.072885+00:00 RX 01 03 40 00 00 00 00 00 03 00 00 00 03 00 00 00 00 00 00 00 00 00 00 00 00 00 00 00 01 00 00 01 00 05 0A 00 00 00 00 00 00 00 00 00 00 00 00 00 00 00 00 00 00 00 00 00 00 00 00 FF FF 4D C6 FF FF 4D C6 C4 6D
2026-07-24T18:42:17.074885+00:00 TX 01 03 00 20 00 02 C5 C1
2026-07-24T18:42:17.082407+00:00 RX 01 03 04 00 00 02 28 FB 4D
2026-07-24T18:42:17.084408+00:00 TX 01 03 01 C4 00 01 C4 0B
2026-07-24T18:42:17.091409+00:00 RX 01 03 02 00 00 B8 44
2026-07-24T18:42:17.141605+00:00 TX 01 03 00 00 00 20 44 12
2026-07-24T18:42:17.186206+00:00 RX 01 03 40 00 00 00 00 00 03 00 00 00 03 00 00 00 00 00 00 00 00 00 00 00 00 00 00 00 01 00 00 01 00 05 0A 00 00 00 00 00 00 00 00 00 00 00 00 00 00 00 00 00 00 00 00 00 00 00 00 FF FF 4D AC FF FF 4D AC 5C 4B
2026-07-24T18:42:17.188206+00:00 TX 01 03 00 20 00 02 C5 C1
2026-07-24T18:42:17.196210+00:00 RX 01 03 04 00 00 02 2A 7A 8C
2026-07-24T18:42:17.198210+00:00 TX 01 03 01 C4 00 01 C4 0B
2026-07-24T18:42:17.204208+00:00 RX 01 03 02 00 00 B8 44
2026-07-24T18:42:17.254717+00:00 TX 01 03 00 00 00 20 44 12
2026-07-24T18:42:17.299727+00:00 RX 01 03 40 00 00 00 00 00 03 00 00 00 03 00 00 00 00 00 00 00 00 00 00 00 00 00 00 00 01 00 00 01 00 05 0A 00 00 00 00 00 00 00 00 00 00 00 00 00 00 00 00 00 00 00 00 00 00 00 00 FF FF 4C 4F FF FF 4C 4F D8 55
2026-07-24T18:42:17.301727+00:00 TX 01 03 00 20 00 02 C5 C1
2026-07-24T18:42:17.308729+00:00 RX 01 03 04 00 00 02 2B BB 4C
2026-07-24T18:42:17.310729+00:00 TX 01 03 01 C4 00 01 C4 0B
2026-07-24T18:42:17.317731+00:00 RX 01 03 02 00 00 B8 44
2026-07-24T18:42:17.367740+00:00 TX 01 03 00 00 00 20 44 12
2026-07-24T18:42:17.411746+00:00 RX 01 03 40 00 00 00 00 00 03 00 00 00 03 00 00 00 00 00 00 00 00 00 00 00 00 00 00 00 01 00 00 01 00 05 0A 00 00 00 00 00 00 00 00 00 00 00 00 00 00 00 00 00 00 00 00 00 00 00 00 FF FF 4D 18 FF FF 4D 18 EC 26
2026-07-24T18:42:17.413746+00:00 TX 01 03 00 20 00 02 C5 C1
2026-07-24T18:42:17.421248+00:00 RX 01 03 04 00 00 02 2C FA 8E
2026-07-24T18:42:17.423250+00:00 TX 01 03 01 C4 00 01 C4 0B
2026-07-24T18:42:17.428957+00:00 RX 01 03 02 00 00 B8 44
2026-07-24T18:42:17.479460+00:00 TX 01 03 00 00 00 20 44 12
2026-07-24T18:42:17.524013+00:00 RX 01 03 40 00 00 00 00 00 03 00 00 00 03 00 00 00 00 00 00 00 00 00 00 00 00 00 00 00 01 00 00 01 00 05 0A 00 00 00 00 00 00 00 00 00 00 00 00 00 00 00 00 00 00 00 00 00 00 00 00 FF FF 4C 26 FF FF 4C 26 44 72
2026-07-24T18:42:17.526013+00:00 TX 01 03 00 20 00 02 C5 C1
2026-07-24T18:42:17.534015+00:00 RX 01 03 04 00 00 02 2D 3B 4E
2026-07-24T18:42:17.536016+00:00 TX 01 03 01 C4 00 01 C4 0B
2026-07-24T18:42:17.542017+00:00 RX 01 03 02 00 00 B8 44
2026-07-24T18:42:17.592033+00:00 TX 01 03 00 00 00 20 44 12
2026-07-24T18:42:17.636076+00:00 RX 01 03 40 00 00 00 00 00 03 00 00 00 03 00 00 00 00 00 00 00 00 00 00 00 00 00 00 00 01 00 00 01 00 05 0A 00 00 00 00 00 00 00 00 00 00 00 00 00 00 00 00 00 00 00 00 00 00 00 00 FF FF 49 B3 FF FF 49 B3 8B 05
2026-07-24T18:42:17.638076+00:00 TX 01 03 00 20 00 02 C5 C1
2026-07-24T18:42:17.646078+00:00 RX 01 03 04 00 00 02 2E 7B 4F
2026-07-24T18:42:17.648078+00:00 TX 01 03 01 C4 00 01 C4 0B
2026-07-24T18:42:17.654076+00:00 RX 01 03 02 00 00 B8 44
2026-07-24T18:42:17.704086+00:00 TX 01 03 00 00 00 20 44 12
2026-07-24T18:42:17.749093+00:00 RX 01 03 40 00 00 00 00 00 03 00 00 00 03 00 00 00 00 00 00 00 00 00 00 00 00 00 00 00 01 00 00 01 00 05 0A 00 00 00 00 00 00 00 00 00 00 00 00 00 00 00 00 00 00 00 00 00 00 00 00 FF FF 4B 00 FF FF 4B 00 CF E8
2026-07-24T18:42:17.751094+00:00 TX 01 03 00 20 00 02 C5 C1
2026-07-24T18:42:17.759135+00:00 RX 01 03 04 00 00 02 2F BA 8F
2026-07-24T18:42:17.761136+00:00 TX 01 03 01 C4 00 01 C4 0B
2026-07-24T18:42:17.767638+00:00 RX 01 03 02 00 00 B8 44
2026-07-24T18:42:17.817676+00:00 TX 01 03 00 00 00 20 44 12
2026-07-24T18:42:17.861679+00:00 RX 01 03 40 00 00 00 00 00 03 00 00 00 03 00 00 00 00 00 00 00 00 00 00 00 00 00 00 00 01 00 00 01 00 05 0A 00 00 00 00 00 00 00 00 00 00 00 00 00 00 00 00 00 00 00 00 00 00 00 00 FF FF 4C 09 FF FF 4C 09 D0 68
2026-07-24T18:42:17.864185+00:00 TX 01 03 00 20 00 02 C5 C1
2026-07-24T18:42:17.872183+00:00 RX 01 03 04 00 00 02 30 FB 47
2026-07-24T18:42:17.874184+00:00 TX 01 03 01 C4 00 01 C4 0B
2026-07-24T18:42:17.880181+00:00 RX 01 03 02 00 00 B8 44
2026-07-24T18:42:17.930694+00:00 TX 01 03 00 00 00 20 44 12
2026-07-24T18:42:17.975202+00:00 RX 01 03 40 00 00 00 00 00 03 00 00 00 03 00 00 00 00 00 00 00 00 00 00 00 00 00 00 00 01 00 00 01 00 05 0A 00 00 00 00 00 00 00 00 00 00 00 00 00 00 00 00 00 00 00 00 00 00 00 00 FF FF 4A 73 FF FF 4A 73 8B 87
2026-07-24T18:42:17.978199+00:00 TX 01 03 00 20 00 02 C5 C1
2026-07-24T18:42:17.986201+00:00 RX 01 03 04 00 00 02 32 7A 86
2026-07-24T18:42:17.988201+00:00 TX 01 03 01 C4 00 01 C4 0B
2026-07-24T18:42:17.994714+00:00 RX 01 03 02 00 00 B8 44
2026-07-24T18:42:18.044725+00:00 TX 01 03 00 00 00 20 44 12
