2026-07-24T17:49:00.328628+00:00 TX 01 03 00 00 00 20 44 12
2026-07-24T17:49:00.373635+00:00 RX 01 03 40 00 00 00 00 00 03 00 00 00 03 00 00 00 00 00 00 00 00 00 00 00 00 00 00 00 01 00 00 01 00 05 0A 00 00 00 00 00 00 00 00 00 00 00 00 00 00 00 00 00 00 00 00 00 00 00 00 FF FF 57 34 FF FF 57 34 75 67
2026-07-24T17:49:00.375636+00:00 TX 01 03 00 20 00 02 C5 C1
2026-07-24T17:49:00.383140+00:00 RX 01 03 04 00 00 06 4B B9 A4
2026-07-24T17:49:00.385141+00:00 TX 01 03 01 C4 00 01 C4 0B
2026-07-24T17:49:00.391142+00:00 RX 01 03 02 00 00 B8 44
2026-07-24T17:49:00.441153+00:00 TX 01 03 00 00 00 20 44 12
2026-07-24T17:49:00.486660+00:00 RX 01 03 40 00 00 00 00 00 03 00 00 00 03 00 00 00 00 00 00 00 00 00 00 00 00 00 00 00 01 00 00 01 00 05 0A 00 00 00 00 00 00 00 00 00 00 00 00 00 00 00 00 00 00 00 00 00 00 00 00 FF FF 57 30 FF FF 57 30 85 64
2026-07-24T17:49:00.489659+00:00 TX 01 03 00 20 00 02 C5 C1
2026-07-24T17:49:00.497661+00:00 RX 01 03 04 00 00 06 4C F8 66
2026-07-24T17:49:00.500662+00:00 TX 01 03 01 C4 00 01 C4 0B
2026-07-24T17:49:00.507712+00:00 RX 01 03 02 00 00 B8 44
2026-07-24T17:49:00.557828+00:00 TX 01 03 00 00 00 20 44 12
2026-07-24T17:49:00.602336+00:00 RX 01 03 40 00 00 00 00 00 03 00 00 00 03 00 00 00 00 00 00 00 00 00 00 00 00 00 00 00 01 00 00 01 00 05 0A 00 00 00 00 00 00 00 00 00 00 00 00 00 00 00 00 00 00 00 00 00 00 00 00 FF FF 59 0F FF FF 59 0F D4 3F
2026-07-24T17:49:00.604336+00:00 TX 01 03 00 20 00 02 C5 C1
2026-07-24T17:49:00.612338+00:00 RX 01 03 04 00 00 06 4D 39 A6
2026-07-24T17:49:00.615336+00:00 TX 01 03 01 C4 00 01 C4 0B
2026-07-24T17:49:00.622337+00:00 RX 01 03 02 00 00 B8 44
2026-07-24T17:49:00.672399+00:00 TX 01 03 00 00 00 20 44 12
2026-07-24T17:49:00.717528+00:00 RX 01 03 40 00 00 00 00 00 03 00 00 00 03 00 00 00 00 00 00 00 00 00 00 00 00 00 00 00 01 00 00 01 00 05 0A 00 00 00 00 00 00 00 00 00 00 00 00 00 00 00 00 00 00 00 00 00 00 00 00 FF FF 58 ED FF FF 58 ED AC 21
2026-07-24T17:49:00.720030+00:00 TX 01 03 00 20 00 02 C5 C1
2026-07-24T17:49:00.728032+00:00 RX 01 03 04 00 00 06 4E 79 A7
2026-07-24T17:49:00.730034+00:00 TX 01 03 01 C4 00 01 C4 0B
2026-07-24T17:49:00.736034+00:00 RX 01 03 02 00 00 B8 44
2026-07-24T17:49:00.786857+00:00 TX 01 03 00 00 00 20 44 12
2026-07-24T17:49:00.830867+00:00 RX 01 03 40 00 00 00 00 00 03 00 00 00 03 00 00 00 00 00 00 00 00 00 00 00 00 00 00 00 01 00 00 01 00 05 0A 00 00 00 00 00 00 00 00 00 00 00 00 00 00 00 00 00 00 00 00 00 00 00 00 FF FF 59 29 FF FF 59 29 5C 22
2026-07-24T17:49:00.833869+00:00 TX 01 03 00 20 00 02 C5 C1
2026-07-24T17:49:00.841870+00:00 RX 01 03 04 00 00 06 4F B8 67
2026-07-24T17:49:00.843870+00:00 TX 01 03 01 C4 00 01 C4 0B
2026-07-24T17:49:00.850873+00:00 RX 01 03 02 00 00 B8 44
2026-07-24T17:49:00.901484+00:00 TX 01 03 00 00 00 20 44 12
2026-07-24T17:49:00.946311+00:00 RX 01 03 40 00 00 00 00 00 03 00 00 00 03 00 00 00 00 00 00 00 00 00 00 00 00 00 00 00 01 00 00 01 00 05 0A 00 00 00 00 00 00 00 00 00 00 00 00 00 00 00 00 00 00 00 00 00 00 00 00 FF FF 56 9F FF FF 56 9F 11 41
2026-07-24T17:49:00.949309+00:00 TX 01 03 00 20 00 02 C5 C1
2026-07-24T17:49:00.956125+00:00 RX 01 03 04 00 00 06 51 38 6F
2026-07-24T17:49:00.960620+00:00 TX 01 03 01 C4 00 01 C4 0B
2026-07-24T17:49:00.967618+00:00 RX 01 03 02 00 00 B8 44
2026-07-24T17:49:01.018474+00:00 TX 01 03 00 00 00 20 44 12
2026-07-24T17:49:01.063482+00:00 RX 01 03 40 00 00 00 00 00 03 00 00 00 03 00 00 00 00 00 00 00 00 00 00 00 00 00 00 00 01 00 00 01 00 05 0A 00 00 00 00 00 00 00 00 00 00 00 00 00 00 00 00 00 00 00 00 00 00 00 00 FF FF 55 99 FF FF 55 99 19 80
2026-07-24T17:49:01.065482+00:00 TX 01 03 00 20 00 02 C5 C1
2026-07-24T17:49:01.073484+00:00 RX 01 03 04 00 00 06 52 78 6E
2026-07-24T17:49:01.075485+00:00 TX 01 03 01 C4 00 01 C4 0B
2026-07-24T17:49:01.082048+00:00 RX 01 03 02 00 00 B8 44
2026-07-24T17:49:01.133444+00:00 TX 01 03 00 00 00 20 44 12
2026-07-24T17:49:01.178511+00:00 RX 01 03 40 00 00 00 00 00 03 00 00 00 03 00 00 00 00 00 00 00 00 00 00 00 00 00 00 00 01 00 00 01 00 05 0A 00 00 00 00 00 00 00 00 00 00 00 00 00 00 00 00 00 00 00 00 00 00 00 00 FF FF 55 C9 FF FF 55 C9 D9 B0
2026-07-24T17:49:01.181659+00:00 TX 01 03 00 20 00 02 C5 C1
2026-07-24T17:49:01.189709+00:00 RX 01 03 04 00 00 06 53 B9 AE
2026-07-24T17:49:01.191710+00:00 TX 01 03 01 C4 00 01 C4 0B
2026-07-24T17:49:01.198213+00:00 RX 01 03 02 00 00 B8 44
2026-07-24T17:49:01.248222+00:00 TX 01 03 00 00 00 20 44 12
2026-07-24T17:49:01.292232+00:00 RX 01 03 40 00 00 00 00 00 03 00 00 00 03 00 00 00 00 00 00 00 00 00 00 00 00 00 00 00 01 00 00 01 00 05 0A 00 00 00 00 00 00 00 00 00 00 00 00 00 00 00 00 00 00 00 00 00 00 00 00 FF FF 56 3F FF FF 56 3F 91 20
2026-07-24T17:49:01.295233+00:00 TX 01 03 00 20 00 02 C5 C1
2026-07-24T17:49:01.303234+00:00 RX 01 03 04 00 00 06 54 F8 6C
2026-07-24T17:49:01.305235+00:00 TX 01 03 01 C4 00 01 C4 0B
2026-07-24T17:49:01.312479+00:00 RX 01 03 02 00 00 B8 44
2026-07-24T17:49:01.362845+00:00 TX 01 03 00 00 00 20 44 12
2026-07-24T17:49:01.407404+00:00 RX 01 03 40 00 00 00 00 00 03 00 00 00 03 00 00 00 00 00 00 00 00 00 00 00 00 00 00 00 01 00 00 01 00 05 0A 00 00 00 00 00 00 00 00 00 00 00 00 00 00 00 00 00 00 00 00 00 00 00 00 FF FF 56 EA FF FF 56 EA 5D 6D
2026-07-24T17:49:01.409404+00:00 TX 01 03 00 20 00 02 C5 C1
2026-07-24T17:49:01.417406+00:00 RX 01 03 04 00 00 06 55 39 AC
2026-07-24T17:49:01.419407+00:00 TX 01 03 01 C4 00 01 C4 0B
2026-07-24T17:49:01.425408+00:00 RX 01 03 02 00 00 B8 44
2026-07-24T17:49:01.476143+00:00 TX 01 03 00 00 00 20 44 12
2026-07-24T17:49:01.520952+00:00 RX 01 03 40 00 00 00 00 00 03 00 00 00 03 00 00 00 00 00 00 00 00 00 00 00 00 00 00 00 01 00 00 01 00 05 0A 00 00 00 00 00 00 00 00 00 00 00 00 00 00 00 00 00 00 00 00 00 00 00 00 FF FF 59 00 FF FF 59 00 C0 3A
2026-07-24T17:49:01.523505+00:00 TX 01 03 00 20 00 02 C5 C1
2026-07-24T17:49:01.532504+00:00 RX 01 03 04 00 00 06 56 79 AD
2026-07-24T17:49:01.534504+00:00 TX 01 03 01 C4 00 01 C4 0B
2026-07-24T17:49:01.541071+00:00 RX 01 03 02 00 00 B8 44
2026-07-24T17:49:01.591808+00:00 TX 01 03 00 00 00 20 44 12
2026-07-24T17:49:01.636640+00:00 RX 01 03 40 00 00 00 00 00 03 00 00 00 03 00 00 00 00 00 00 00 00 00 00 00 00 00 00 00 01 00 00 01 00 05 0A 00 00 00 00 00 00 00 00 00 00 00 00 00 00 00 00 00 00 00 00 00 00 00 00 FF FF 5A BD FF FF 5A BD 6C 93
2026-07-24T17:49:01.639156+00:00 TX 01 03 00 20 00 02 C5 C1
2026-07-24T17:49:01.646929+00:00 RX 01 03 04 00 00 06 58 F8 69
2026-07-24T17:49:01.649929+00:00 TX 01 03 01 C4 00 01 C4 0B
2026-07-24T17:49:01.655931+00:00 RX 01 03 02 00 00 B8 44
2026-07-24T17:49:01.706142+00:00 TX 01 03 00 00 00 20 44 12
2026-07-24T17:49:01.751242+00:00 RX 01 03 40 00 00 00 00 00 03 00 00 00 03 00 00 00 00 00 00 00 00 00 00 00 00 00 00 00 01 00 00 01 00 05 0A 00 00 00 00 00 00 00 00 00 00 00 00 00 00 00 00 00 00 00 00 00 00 00 00 FF FF 57 A6 FF FF 57 A6 4D 17
2026-07-24T17:49:01.753275+00:00 TX 01 03 00 20 00 02 C5 C1
2026-07-24T17:49:01.761274+00:00 RX 01 03 04 00 00 06 59 39 A9
2026-07-24T17:49:01.763275+00:00 TX 01 03 01 C4 00 01 C4 0B
2026-07-24T17:49:01.770274+00:00 RX 01 03 02 00 00 B8 44
2026-07-24T17:49:01.820353+00:00 TX 01 03 00 00 00 20 44 12
2026-07-24T17:49:01.865360+00:00 RX 01 03 40 00 00 00 00 00 03 00 00 00 03 00 00 00 00 00 00 00 00 00 00 00 00 00 00 00 01 00 00 01 00 05 0A 00 00 00 00 00 00 00 00 00 00 00 00 00 00 00 00 00 00 00 00 00 00 00 00 FF FF 57 25 FF FF 57 25 49 68
2026-07-24T17:49:01.868361+00:00 TX 01 03 00 20 00 02 C5 C1
2026-07-24T17:49:01.876363+00:00 RX 01 03 04 00 00 06 5A 79 A8
2026-07-24T17:49:01.878363+00:00 TX 01 03 01 C4 00 01 C4 0B
2026-07-24T17:49:01.884866+00:00 RX 01 03 02 00 00 B8 44
2026-07-24T17:49:01.935375+00:00 TX 01 03 00 00 00 20 44 12
2026-07-24T17:49:01.980391+00:00 RX 01 03 40 00 00 00 00 00 03 00 00 00 03 00 00 00 00 00 00 00 00 00 00 00 00 00 00 00 01 00 00 01 00 05 0A 00 00 00 00 00 00 00 00 00 00 00 00 00 00 00 00 00 00 00 00 00 00 00 00 FF FF 54 66 FF FF 54 66 4D 95
2026-07-24T17:49:01.983892+00:00 TX 01 03 00 20 00 02 C5 C1
2026-07-24T17:49:01.991894+00:00 RX 01 03 04 00 00 06 5B B8 68
2026-07-24T17:49:01.993895+00:00 TX 01 03 01 C4 00 01 C4 0B
2026-07-24T17:49:01.999896+00:00 RX 01 03 02 00 00 B8 44
2026-07-24T17:49:02.051701+00:00 TX 01 03 00 00 00 20 44 12
2026-07-24T17:49:02.095765+00:00 RX 01 03 40 00 00 00 00 00 03 00 00 00 03 00 00 00 00 00 00 00 00 00 00 00 00 00 00 00 01 00 00 01 00 05 0A 00 00 00 00 00 00 00 00 00 00 00 00 00 00 00 00 00 00 00 00 00 00 00 00 FF FF 54 0E FF FF 54 0E 2D B2
2026-07-24T17:49:02.097766+00:00 TX 01 03 00 20 00 02 C5 C1
2026-07-24T17:49:02.104768+00:00 RX 01 03 04 00 00 06 5C F9 AA
2026-07-24T17:49:02.108766+00:00 TX 01 03 01 C4 00 01 C4 0B
2026-07-24T17:49:02.114767+00:00 RX 01 03 02 00 00 B8 44
2026-07-24T17:49:02.166571+00:00 TX 01 03 00 00 00 20 44 12
2026-07-24T17:49:02.211090+00:00 RX 01 03 40 00 00 00 00 00 03 00 00 00 03 00 00 00 00 00 00 00 00 00 00 00 00 00 00 00 01 00 00 01 00 05 0A 00 00 00 00 00 00 00 00 00 00 00 00 00 00 00 00 00 00 00 00 00 00 00 00 FF FF 54 69 FF FF 54 69 59 90
2026-07-24T17:49:02.213091+00:00 TX 01 03 00 20 00 02 C5 C1
2026-07-24T17:49:02.221092+00:00 RX 01 03 04 00 00 06 5D 38 6A
2026-07-24T17:49:02.223092+00:00 TX 01 03 01 C4 00 01 C4 0B
2026-07-24T17:49:02.229094+00:00 RX 01 03 02 00 00 B8 44
2026-07-24T17:49:02.281272+00:00 TX 01 03 00 00 00 20 44 12
2026-07-24T17:49:02.325778+00:00 RX 01 03 40 00 00 00 00 00 03 00 00 00 03 00 00 00 00 00 00 00 00 00 00 00 00 00 00 00 01 00 00 01 00 05 0A 00 00 00 00 00 00 00 00 00 00 00 00 00 00 00 00 00 00 00 00 00 00 00 00 FF FF 52 9B FF FF 52 9B E2 06
2026-07-24T17:49:02.328779+00:00 TX 01 03 00 20 00 02 C5 C1
2026-07-24T17:49:02.335780+00:00 RX 01 03 04 00 00 06 5F B9 AB
2026-07-24T17:49:02.338781+00:00 TX 01 03 01 C4 00 01 C4 0B
2026-07-24T17:49:02.344782+00:00 RX 01 03 02 00 00 B8 44
2026-07-24T17:49:02.395797+00:00 TX 01 03 00 00 00 20 44 12
2026-07-24T17:49:02.440807+00:00 RX 01 03 40 00 00 00 00 00 03 00 00 00 03 00 00 00 00 00 00 00 00 00 00 00 00 00 00 00 01 00 00 01 00 05 0A 00 00 00 00 00 00 00 00 00 00 00 00 00 00 00 00 00 00 00 00 00 00 00 00 FF FF 53 B5 FF FF 53 B5 8A 5D
2026-07-24T17:49:02.442808+00:00 TX 01 03 00 20 00 02 C5 C1
2026-07-24T17:49:02.450810+00:00 RX 01 03 04 00 00 06 60 F9 BB
2026-07-24T17:49:02.453811+00:00 TX 01 03 01 C4 00 01 C4 0B
2026-07-24T17:49:02.459812+00:00 RX 01 03 02 00 00 B8 44
2026-07-24T17:49:02.511349+00:00 TX 01 03 00 00 00 20 44 12
2026-07-24T17:49:02.555903+00:00 RX 01 03 40 00 00 00 00 00 03 00 00 00 03 00 00 00 00 00 00 00 00 00 00 00 00 00 00 00 01 00 00 01 00 05 0A 00 00 00 00 00 00 00 00 00 00 00 00 00 00 00 00 00 00 00 00 00 00 00 00 FF FF 54 7A FF FF 54 7A 9D 9E
2026-07-24T17:49:02.559902+00:00 TX 01 03 00 20 00 02 C5 C1
2026-07-24T17:49:02.566904+00:00 RX 01 03 04 00 00 06 61 38 7B
2026-07-24T17:49:02.568904+00:00 TX 01 03 01 C4 00 01 C4 0B
2026-07-24T17:49:02.575476+00:00 RX 01 03 02 00 00 B8 44
2026-07-24T17:49:02.625506+00:00 TX 01 03 00 00 00 20 44 12
2026-07-24T17:49:02.670014+00:00 RX 01 03 40 00 00 00 00 00 03 00 00 00 03 00 00 00 00 00 00 00 00 00 00 00 00 00 00 00 01 00 00 01 00 05 0A 00 00 00 00 00 00 00 00 00 00 00 00 00 00 00 00 00 00 00 00 00 00 00 00 FF FF 53 1F FF FF 53 1F 12 3A
2026-07-24T17:49:02.672015+00:00 TX 01 03 00 20 00 02 C5 C1
2026-07-24T17:49:02.680017+00:00 RX 01 03 04 00 00 06 62 78 7A
2026-07-24T17:49:02.682018+00:00 TX 01 03 01 C4 00 01 C4 0B
2026-07-24T17:49:02.688520+00:00 RX 01 03 02 00 00 B8 44
2026-07-24T17:49:02.738547+00:00 TX 01 03 00 00 00 20 44 12
2026-07-24T17:49:02.783062+00:00 RX 01 03 40 00 00 00 00 00 03 00 00 00 03 00 00 00 00 00 00 00 00 00 00 00 00 00 00 00 01 00 00 01 00 05 0A 00 00 00 00 00 00 00 00 00 00 00 00 00 00 00 00 00 00 00 00 00 00 00 00 FF FF 53 68 FF FF 53 68 A6 17
2026-07-24T17:49:02.786060+00:00 TX 01 03 00 20 00 02 C5 C1
2026-07-24T17:49:02.794061+00:00 RX 01 03 04 00 00 06 63 B9 BA
2026-07-24T17:49:02.796062+00:00 TX 01 03 01 C4 00 01 C4 0B
2026-07-24T17:49:02.803064+00:00 RX 01 03 02 00 00 B8 44
2026-07-24T17:49:02.853075+00:00 TX 01 03 00 00 00 20 44 12
2026-07-24T17:49:02.898584+00:00 RX 01 03 40 00 00 00 00 00 03 00 00 00 03 00 00 00 00 00 00 00 00 00 00 00 00 00 00 00 01 00 00 01 00 05 0A 00 00 00 00 00 00 00 00 00 00 00 00 00 00 00 00 00 00 00 00 00 00 00 00 FF FF 53 E4 FF FF 53 E4 B6 6D
2026-07-24T17:49:02.900584+00:00 TX 01 03 00 20 00 02 C5 C1
2026-07-24T17:49:02.908583+00:00 RX 01 03 04 00 00 06 64 F8 78
2026-07-24T17:49:02.910584+00:00 TX 01 03 01 C4 00 01 C4 0B
2026-07-24T17:49:02.917585+00:00 RX 01 03 02 00 00 B8 44
2026-07-24T17:49:02.968094+00:00 TX 01 03 00 00 00 20 44 12
2026-07-24T17:49:03.013107+00:00 RX 01 03 40 00 00 00 00 00 03 00 00 00 03 00 00 00 00 00 00 00 00 00 00 00 00 00 00 00 01 00 00 01 00 05 0A 00 00 00 00 00 00 00 00 00 00 00 00 00 00 00 00 00 00 00 00 00 00 00 00 FF FF 53 49 FF FF 53 49 DA 08
2026-07-24T17:49:03.015108+00:00 TX 01 03 00 20 00 02 C5 C1
2026-07-24T17:49:03.023110+00:00 RX 01 03 04 00 00 06 66 79 B9
2026-07-24T17:49:03.025110+00:00 TX 01 03 01 C4 00 01 C4 0B
2026-07-24T17:49:03.032112+00:00 RX 01 03 02 00 00 B8 44
2026-07-24T17:49:03.082211+00:00 TX 01 03 00 00 00 20 44 12
2026-07-24T17:49:03.127222+00:00 RX 01 03 40 00 00 00 00 00 03 00 00 00 03 00 00 00 00 00 00 00 00 00 00 00 00 00 00 00 01 00 00 01 00 05 0A 00 00 00 00 00 00 00 00 00 00 00 00 00 00 00 00 00 00 00 00 00 00 00 00 FF FF 54 F3 FF FF 54 F3 81 E7
2026-07-24T17:49:03.129222+00:00 TX 01 03 00 20 00 02 C5 C1
2026-07-24T17:49:03.137224+00:00 RX 01 03 04 00 00 06 67 B8 79
2026-07-24T17:49:03.139224+00:00 TX 01 03 01 C4 00 01 C4 0B
2026-07-24T17:49:03.145746+00:00 RX 01 03 02 00 00 B8 44
2026-07-24T17:49:03.196271+00:00 TX 01 03 00 00 00 20 44 12
2026-07-24T17:49:03.241282+00:00 RX 01 03 40 00 00 00 00 00 03 00 00 00 03 00 00 00 00 00 00 00 00 00 00 00 00 00 00 00 01 00 00 01 00 05 0A 00 00 00 00 00 00 00 00 00 00 00 00 00 00 00 00 00 00 00 00 00 00 00 00 FF FF 54 C0 FF FF 54 C0 C5 F6
2026-07-24T17:49:03.243283+00:00 TX 01 03 00 20 00 02 C5 C1
2026-07-24T17:49:03.251285+00:00 RX 01 03 04 00 00 06 68 F8 7D
2026-07-24T17:49:03.253285+00:00 TX 01 03 01 C4 00 01 C4 0B
2026-07-24T17:49:03.260286+00:00 RX 01 03 02 00 00 B8 44
2026-07-24T17:49:03.310794+00:00 TX 01 03 00 00 00 20 44 12
2026-07-24T17:49:03.355305+00:00 RX 01 03 40 00 00 00 00 00 03 00 00 00 03 00 00 00 00 00 00 00 00 00 00 00 00 00 00 00 01 00 00 01 00 05 0A 00 00 00 00 00 00 00 00 00 00 00 00 00 00 00 00 00 00 00 00 00 00 00 00 FF FF 54 78 FF FF 54 78 65 9F
2026-07-24T17:49:03.358306+00:00 TX 01 03 00 20 00 02 C5 C1
2026-07-24T17:49:03.366305+00:00 RX 01 03 04 00 00 06 69 39 BD
2026-07-24T17:49:03.368305+00:00 TX 01 03 01 C4 00 01 C4 0B
2026-07-24T17:49:03.374307+00:00 RX 01 03 02 00 00 B8 44
2026-07-24T17:49:03.425320+00:00 TX 01 03 00 00 00 20 44 12
2026-07-24T17:49:03.470331+00:00 RX 01 03 40 00 00 00 00 00 03 00 00 00 03 00 00 00 00 00 00 00 00 00 00 00 00 00 00 00 01 00 00 01 00 05 0A 00 00 00 00 00 00 00 00 00 00 00 00 00 00 00 00 00 00 00 00 00 00 00 00 FF FF 54 B8 FF FF 54 B8 65 DE
2026-07-24T17:49:03.472853+00:00 TX 01 03 00 20 00 02 C5 C1
2026-07-24T17:49:03.480367+00:00 RX 01 03 04 00 00 06 6A 79 BC
2026-07-24T17:49:03.482367+00:00 TX 01 03 01 C4 00 01 C4 0B
2026-07-24T17:49:03.488867+00:00 RX 01 03 02 00 00 B8 44
2026-07-24T17:49:03.538967+00:00 TX 01 03 00 00 00 20 44 12
2026-07-24T17:49:03.583136+00:00 RX 01 03 40 00 00 00 00 00 03 00 00 00 03 00 00 00 00 00 00 00 00 00 00 00 00 00 00 00 01 00 00 01 00 05 0A 00 00 00 00 00 00 00 00 00 00 00 00 00 00 00 00 00 00 00 00 00 00 00 00 FF FF 56 46 FF FF 56 46 CD 08
2026-07-24T17:49:03.585140+00:00 TX 01 03 00 20 00 02 C5 C1
2026-07-24T17:49:03.592642+00:00 RX 01 03 04 00 00 06 6B B8 7C
2026-07-24T17:49:03.595643+00:00 TX 01 03 01 C4 00 01 C4 0B
2026-07-24T17:49:03.601644+00:00 RX 01 03 02 00 00 B8 44
2026-07-24T17:49:03.653226+00:00 TX 01 03 00 00 00 20 44 12
2026-07-24T17:49:03.698444+00:00 RX 01 03 40 00 00 00 00 00 03 00 00 00 03 00 00 00 00 00 00 00 00 00 00 00 00 00 00 00 01 00 00 01 00 05 0A 00 00 00 00 00 00 00 00 00 00 00 00 00 00 00 00 00 00 00 00 00 00 00 00 FF FF 57 4B FF FF 57 4B 21 4D
2026-07-24T17:49:03.700445+00:00 TX 01 03 00 20 00 02 C5 C1
2026-07-24T17:49:03.707966+00:00 RX 01 03 04 00 00 06 6D 38 7E
2026-07-24T17:49:03.710963+00:00 TX 01 03 01 C4 00 01 C4 0B
2026-07-24T17:49:03.716964+00:00 RX 01 03 02 00 00 B8 44
2026-07-24T17:49:03.766972+00:00 TX 01 03 00 00 00 20 44 12
2026-07-24T17:49:03.812432+00:00 RX 01 03 40 00 00 00 00 00 03 00 00 00 03 00 00 00 00 00 00 00 00 00 00 00 00 00 00 00 01 00 00 01 00 05 0A 00 00 00 00 00 00 00 00 00 00 00 00 00 00 00 00 00 00 00 00 00 00 00 00 FF FF 56 7F FF FF 56 7F 91 1F
2026-07-24T17:49:03.814433+00:00 TX 01 03 00 20 00 02 C5 C1
2026-07-24T17:49:03.822435+00:00 RX 01 03 04 00 00 06 6E 78 7F
2026-07-24T17:49:03.824436+00:00 TX 01 03 01 C4 00 01 C4 0B
2026-07-24T17:49:03.831437+00:00 RX 01 03 02 00 00 B8 44
2026-07-24T17:49:03.881465+00:00 TX 01 03 00 00 00 20 44 12
2026-07-24T17:49:03.926116+00:00 RX 01 03 40 00 00 00 00 00 03 00 00 00 03 00 00 00 00 00 00 00 00 00 00 00 00 00 00 00 01 00 00 01 00 05 0A 00 00 00 00 00 00 00 00 00 00 00 00 00 00 00 00 00 00 00 00 00 00 00 00 FF FF 55 A8 FF FF 55 A8 A5 90
2026-07-24T17:49:03.928117+00:00 TX 01 03 00 20 00 02 C5 C1
2026-07-24T17:49:03.936119+00:00 RX 01 03 04 00 00 06 6F B9 BF
2026-07-24T17:49:03.938120+00:00 TX 01 03 01 C4 00 01 C4 0B
2026-07-24T17:49:03.944452+00:00 RX 01 03 02 00 00 B8 44
2026-07-24T17:49:03.994465+00:00 TX 01 03 00 00 00 20 44 12
2026-07-24T17:49:04.039244+00:00 RX 01 03 40 00 00 00 00 00 03 00 00 00 03 00 00 00 00 00 00 00 00 00 00 00 00 00 00 00 01 00 00 01 00 05 0A 00 00 00 00 00 00 00 00 00 00 00 00 00 00 00 00 00 00 00 00 00 00 00 00 FF FF 57 1A FF FF 57 1A 1D 7D
2026-07-24T17:49:04.041244+00:00 TX 01 03 00 20 00 02 C5 C1
2026-07-24T17:49:04.049246+00:00 RX 01 03 04 00 00 06 70 F8 77
2026-07-24T17:49:04.051247+00:00 TX 01 03 01 C4 00 01 C4 0B
2026-07-24T17:49:04.057248+00:00 RX 01 03 02 00 00 B8 44
2026-07-24T17:49:04.107279+00:00 TX 01 03 00 00 00 20 44 12
2026-07-24T17:49:04.151918+00:00 RX 01 03 40 00 00 00 00 00 03 00 00 00 03 00 00 00 00 00 00 00 00 00 00 00 00 00 00 00 01 00 00 01 00 05 0A 00 00 00 00 00 00 00 00 00 00 00 00 00 00 00 00 00 00 00 00 00 00 00 00 FF FF 58 C7 FF FF 58 C7 34 38
2026-07-24T17:49:04.153919+00:00 TX 01 03 00 20 00 02 C5 C1
2026-07-24T17:49:04.161920+00:00 RX 01 03 04 00 00 06 71 39 B7
2026-07-24T17:49:04.164440+00:00 TX 01 03 01 C4 00 01 C4 0B
2026-07-24T17:49:04.171438+00:00 RX 01 03 02 00 00 B8 44
2026-07-24T17:49:04.221965+00:00 TX 01 03 00 00 00 20 44 12
2026-07-24T17:49:04.267004+00:00 RX 01 03 40 00 00 00 00 00 03 00 00 00 03 00 00 00 00 00 00 00 00 00 00 00 00 00 00 00 01 00 00 01 00 05 0A 00 00 00 00 00 00 00 00 00 00 00 00 00 00 00 00 00 00 00 00 00 00 00 00 FF FF 5A 33 FF FF 5A 33 84 E8
2026-07-24T17:49:04.269005+00:00 TX 01 03 00 20 00 02 C5 C1
2026-07-24T17:49:04.277004+00:00 RX 01 03 04 00 00 06 72 79 B6
2026-07-24T17:49:04.279004+00:00 TX 01 03 01 C4 00 01 C4 0B
2026-07-24T17:49:04.285006+00:00 RX 01 03 02 00 00 B8 44
2026-07-24T17:49:04.335673+00:00 TX 01 03 00 00 00 20 44 12
2026-07-24T17:49:04.379680+00:00 RX 01 03 40 00 00 00 00 00 03 00 00 00 03 00 00 00 00 00 00 00 00 00 00 00 00 00 00 00 01 00 00 01 00 05 0A 00 00 00 00 00 00 00 00 00 00 00 00 00 00 00 00 00 00 00 00 00 00 00 00 FF FF 5B 85 FF FF 5B 85 CC C5
2026-07-24T17:49:04.383228+00:00 TX 01 03 00 20 00 02 C5 C1
2026-07-24T17:49:04.391732+00:00 RX 01 03 04 00 00 06 74 F9 B4
2026-07-24T17:49:04.393732+00:00 TX 01 03 01 C4 00 01 C4 0B
2026-07-24T17:49:04.400734+00:00 RX 01 03 02 00 00 B8 44
2026-07-24T17:49:04.450746+00:00 TX 01 03 00 00 00 20 44 12
2026-07-24T17:49:04.494764+00:00 RX 01 03 40 00 00 00 00 00 03 00 00 00 03 00 00 00 00 00 00 00 00 00 00 00 00 00 00 00 01 00 00 01 00 05 0A 00 00 00 00 00 00 00 00 00 00 00 00 00 00 00 00 00 00 00 00 00 00 00 00 FF FF 5B 0B FF FF 5B 0B 24 BE
2026-07-24T17:49:04.497765+00:00 TX 01 03 00 20 00 02 C5 C1
2026-07-24T17:49:04.504836+00:00 RX 01 03 04 00 00 06 75 38 74
2026-07-24T17:49:04.507837+00:00 TX 01 03 01 C4 00 01 C4 0B
2026-07-24T17:49:04.513835+00:00 RX 01 03 02 00 00 B8 44
2026-07-24T17:49:04.564392+00:00 TX 01 03 00 00 00 20 44 12
2026-07-24T17:49:04.609404+00:00 RX 01 03 40 00 00 00 00 00 03 00 00 00 03 00 00 00 00 00 00 00 00 00 00 00 00 00 00 00 01 00 00 01 00 05 0A 00 00 00 00 00 00 00 00 00 00 00 00 00 00 00 00 00 00 00 00 00 00 00 00 FF FF 5B 62 FF FF 5B 62 B8 99
2026-07-24T17:49:04.610405+00:00 TX 01 03 00 20 00 02 C5 C1
2026-07-24T17:49:04.618404+00:00 RX 01 03 04 00 00 06 76 78 75
2026-07-24T17:49:04.620404+00:00 TX 01 03 01 C4 00 01 C4 0B
2026-07-24T17:49:04.627007+00:00 RX 01 03 02 00 00 B8 44
2026-07-24T17:49:04.677750+00:00 TX 01 03 00 00 00 20 44 12
2026-07-24T17:49:04.722780+00:00 RX 01 03 40 00 00 00 00 00 03 00 00 00 03 00 00 00 00 00 00 00 00 00 00 00 00 00 00 00 01 00 00 01 00 05 0A 00 00 00 00 00 00 00 00 00 00 00 00 00 00 00 00 00 00 00 00 00 00 00 00 FF FF 5B AC FF FF 5B AC 50 DD
2026-07-24T17:49:04.724780+00:00 TX 01 03 00 20 00 02 C5 C1
2026-07-24T17:49:04.731922+00:00 RX 01 03 04 00 00 06 77 B9 B5
2026-07-24T17:49:04.734923+00:00 TX 01 03 01 C4 00 01 C4 0B
2026-07-24T17:49:04.741921+00:00 RX 01 03 02 00 00 B8 44
2026-07-24T17:49:04.791991+00:00 TX 01 03 00 00 00 20 44 12
2026-07-24T17:49:04.836798+00:00 RX 01 03 40 00 00 00 00 00 03 00 00 00 03 00 00 00 00 00 00 00 00 00 00 00 00 00 00 00 01 00 00 01 00 05 0A 00 00 00 00 00 00 00 00 00 00 00 00 00 00 00 00 00 00 00 00 00 00 00 00 FF FF 5B 95 FF FF 5B 95 0C CA
2026-07-24T17:49:04.838798+00:00 TX 01 03 00 20 00 02 C5 C1
2026-07-24T17:49:04.845800+00:00 RX 01 03 04 00 00 06 78 F9 B1
2026-07-24T17:49:04.848801+00:00 TX 01 03 01 C4 00 01 C4 0B
2026-07-24T17:49:04.854802+00:00 RX 01 03 02 00 00 B8 44
2026-07-24T17:49:04.906200+00:00 TX 01 03 00 00 00 20 44 12
2026-07-24T17:49:04.950930+00:00 RX 01 03 40 00 00 00 00 00 03 00 00 00 03 00 00 00 00 00 00 00 00 00 00 00 00 00 00 00 01 00 00 01 00 05 0A 00 00 00 00 00 00 00 00 00 00 00 00 00 00 00 00 00 00 00 00 00 00 00 00 FF FF 5B 0C FF FF 5B 0C D0 BC
2026-07-24T17:49:04.952930+00:00 TX 01 03 00 20 00 02 C5 C1
2026-07-24T17:49:04.960932+00:00 RX 01 03 04 00 00 06 79 38 71
2026-07-24T17:49:04.962933+00:00 TX 01 03 01 C4 00 01 C4 0B
2026-07-24T17:49:04.969931+00:00 RX 01 03 02 00 00 B8 44
2026-07-24T17:49:05.019964+00:00 TX 01 03 00 00 00 20 44 12
2026-07-24T17:49:05.064975+00:00 RX 01 03 40 00 00 00 00 00 03 00 00 00 03 00 00 00 00 00 00 00 00 00 00 00 00 00 00 00 01 00 00 01 00 05 0A 00 00 00 00 00 00 00 00 00 00 00 00 00 00 00 00 00 00 00 00 00 00 00 00 FF FF 59 19 FF FF 59 19 1C 32
2026-07-24T17:49:05.066976+00:00 TX 01 03 00 20 00 02 C5 C1
2026-07-24T17:49:05.074977+00:00 RX 01 03 04 00 00 06 7B B9 B0
2026-07-24T17:49:05.077518+00:00 TX 01 03 01 C4 00 01 C4 0B
2026-07-24T17:49:05.084525+00:00 RX 01 03 02 00 00 B8 44
2026-07-24T17:49:05.134536+00:00 TX 01 03 00 00 00 20 44 12
2026-07-24T17:49:05.179113+00:00 RX 01 03 40 00 00 00 00 00 03 00 00 00 03 00 00 00 00 00 00 00 00 00 00 00 00 00 00 00 01 00 00 01 00 05 0A 00 00 00 00 00 00 00 00 00 00 00 00 00 00 00 00 00 00 00 00 00 00 00 00 FF FF 5A 7A FF FF 5A 7A 98 D0
2026-07-24T17:49:05.182113+00:00 TX 01 03 00 20 00 02 C5 C1
2026-07-24T17:49:05.191139+00:00 RX 01 03 04 00 00 06 7C F8 72
2026-07-24T17:49:05.194138+00:00 TX 01 03 01 C4 00 01 C4 0B
2026-07-24T17:49:05.200139+00:00 RX 01 03 02 00 00 B8 44
2026-07-24T17:49:05.251151+00:00 TX 01 03 00 00 00 20 44 12
2026-07-24T17:49:05.295685+00:00 RX 01 03 40 00 00 00 00 00 03 00 00 00 03 00 00 00 00 00 00 00 00 00 00 00 00 00 00 00 01 00 00 01 00 05 0A 00 00 00 00 00 00 00 00 00 00 00 00 00 00 00 00 00 00 00 00 00 00 00 00 FF FF 5D C6 FF FF 5D C6 CB 3D
2026-07-24T17:49:05.298686+00:00 TX 01 03 00 20 00 02 C5 C1
2026-07-24T17:49:05.306688+00:00 RX 01 03 04 00 00 06 7D 39 B2
2026-07-24T17:49:05.308688+00:00 TX 01 03 01 C4 00 01 C4 0B
2026-07-24T17:49:05.314686+00:00 RX 01 03 02 00 00 B8 44
2026-07-24T17:49:05.365859+00:00 TX 01 03 00 00 00 20 44 12
2026-07-24T17:49:05.410868+00:00 RX 01 03 40 00 00 00 00 00 03 00 00 00 03 00 00 00 00 00 00 00 00 00 00 00 00 00 00 00 01 00 00 01 00 05 0A 00 00 00 00 00 00 00 00 00 00 00 00 00 00 00 00 00 00 00 00 00 00 00 00 FF FF 5A 25 FF FF 5A 25 4C E5
2026-07-24T17:49:05.412869+00:00 TX 01 03 00 20 00 02 C5 C1
2026-07-24T17:49:05.420870+00:00 RX 01 03 04 00 00 06 7E 79 B3
2026-07-24T17:49:05.422871+00:00 TX 01 03 01 C4 00 01 C4 0B
2026-07-24T17:49:05.429872+00:00 RX 01 03 02 00 00 B8 44
2026-07-24T17:49:05.479880+00:00 TX 01 03 00 00 00 20 44 12
2026-07-24T17:49:05.524891+00:00 RX 01 03 40 00 00 00 00 00 03 00 00 00 03 00 00 00 00 00 00 00 00 00 00 00 00 00 00 00 01 00 00 01 00 05 0A 00 00 00 00 00 00 00 00 00 00 00 00 00 00 00 00 00 00 00 00 00 00 00 00 FF FF 5B 73 FF FF 5B 73 84 96
2026-07-24T17:49:05.528394+00:00 TX 01 03 00 20 00 02 C5 C1
2026-07-24T17:49:05.536395+00:00 RX 01 03 04 00 00 06 7F B8 73
2026-07-24T17:49:05.538396+00:00 TX 01 03 01 C4 00 01 C4 0B
2026-07-24T17:49:05.545398+00:00 RX 01 03 02 00 00 B8 44
2026-07-24T17:49:05.595910+00:00 TX 01 03 00 00 00 20 44 12
2026-07-24T17:49:05.640955+00:00 RX 01 03 40 00 00 00 00 00 03 00 00 00 03 00 00 00 00 00 00 00 00 00 00 00 00 00 00 00 01 00 00 01 00 05 0A 00 00 00 00 00 00 00 00 00 00 00 00 00 00 00 00 00 00 00 00 00 00 00 00 FF FF 58 86 FF FF 58 86 C8 07
2026-07-24T17:49:05.643955+00:00 TX 01 03 00 20 00 02 C5 C1
2026-07-24T17:49:05.651956+00:00 RX 01 03 04 00 00 06 80 F8 33
2026-07-24T17:49:05.653957+00:00 TX 01 03 01 C4 00 01 C4 0B
2026-07-24T17:49:05.660959+00:00 RX 01 03 02 00 00 B8 44
2026-07-24T17:49:05.711670+00:00 TX 01 03 00 00 00 20 44 12
2026-07-24T17:49:05.756207+00:00 RX 01 03 40 00 00 00 00 00 03 00 00 00 03 00 00 00 00 00 00 00 00 00 00 00 00 00 00 00 01 00 00 01 00 05 0A 00 00 00 00 00 00 00 00 00 00 00 00 00 00 00 00 00 00 00 00 00 00 00 00 FF FF 58 07 FF FF 58 07 34 79
2026-07-24T17:49:05.758208+00:00 TX 01 03 00 20 00 02 C5 C1
2026-07-24T17:49:05.766210+00:00 RX 01 03 04 00 00 06 82 79 F2
2026-07-24T17:49:05.768210+00:00 TX 01 03 01 C4 00 01 C4 0B
2026-07-24T17:49:05.774209+00:00 RX 01 03 02 00 00 B8 44
2026-07-24T17:49:05.825931+00:00 TX 01 03 00 00 00 20 44 12
2026-07-24T17:49:05.870942+00:00 RX 01 03 40 00 00 00 00 00 03 00 00 00 03 00 00 00 00 00 00 00 00 00 00 00 00 00 00 00 01 00 00 01 00 05 0A 00 00 00 00 00 00 00 00 00 00 00 00 00 00 00 00 00 00 00 00 00 00 00 00 FF FF 56 2D FF FF 56 2D A9 2E
2026-07-24T17:49:05.872942+00:00 TX 01 03 00 20 00 02 C5 C1
2026-07-24T17:49:05.880940+00:00 RX 01 03 04 00 00 06 83 B8 32
2026-07-24T17:49:05.882941+00:00 TX 01 03 01 C4 00 01 C4 0B
2026-07-24T17:49:05.889942+00:00 RX 01 03 02 00 00 B8 44
2026-07-24T17:49:05.939986+00:00 TX 01 03 00 00 00 20 44 12
2026-07-24T17:49:05.985512+00:00 RX 01 03 40 00 00 00 00 00 03 00 00 00 03 00 00 00 00 00 00 00 00 00 00 00 00 00 00 00 01 00 00 01 00 05 0A 00 00 00 00 00 00 00 00 00 00 00 00 00 00 00 00 00 00 00 00 00 00 00 00 FF FF 54 4A FF FF 54 4A DD 8E
2026-07-24T17:49:05.987512+00:00 TX 01 03 00 20 00 02 C5 C1
2026-07-24T17:49:05.995016+00:00 RX 01 03 04 00 00 06 84 F9 F0
2026-07-24T17:49:05.997016+00:00 TX 01 03 01 C4 00 01 C4 0B
2026-07-24T17:49:06.003017+00:00 RX 01 03 02 00 00 B8 44
2026-07-24T17:49:06.054529+00:00 TX 01 03 00 00 00 20 44 12
2026-07-24T17:49:06.098997+00:00 RX 01 03 40 00 00 00 00 00 03 00 00 00 03 00 00 00 00 00 00 00 00 00 00 00 00 00 00 00 01 00 00 01 00 05 0A 00 00 00 00 00 00 00 00 00 00 00 00 00 00 00 00 00 00 00 00 00 00 00 00 FF FF 56 43 FF FF 56 43 C1 0B
2026-07-24T17:49:06.100997+00:00 TX 01 03 00 20 00 02 C5 C1
2026-07-24T17:49:06.107999+00:00 RX 01 03 04 00 00 06 85 38 30
2026-07-24T17:49:06.110999+00:00 TX 01 03 01 C4 00 01 C4 0B
2026-07-24T17:49:06.116999+00:00 RX 01 03 02 00 00 B8 44
2026-07-24T17:49:06.167066+00:00 TX 01 03 00 00 00 20 44 12
2026-07-24T17:49:06.211077+00:00 RX 01 03 40 00 00 00 00 00 03 00 00 00 03 00 00 00 00 00 00 00 00 00 00 00 00 00 00 00 01 00 00 01 00 05 0A 00 00 00 00 00 00 00 00 00 00 00 00 00 00 00 00 00 00 00 00 00 00 00 00 FF FF 54 C3 FF FF 54 C3 C1 F7
2026-07-24T17:49:06.214077+00:00 TX 01 03 00 20 00 02 C5 C1
2026-07-24T17:49:06.222079+00:00 RX 01 03 04 00 00 06 86 78 31
2026-07-24T17:49:06.224080+00:00 TX 01 03 01 C4 00 01 C4 0B
2026-07-24T17:49:06.231081+00:00 RX 01 03 02 00 00 B8 44
2026-07-24T17:49:06.281090+00:00 TX 01 03 00 00 00 20 44 12
2026-07-24T17:49:06.325625+00:00 RX 01 03 40 00 00 00 00 00 03 00 00 00 03 00 00 00 00 00 00 00 00 00 00 00 00 00 00 00 01 00 00 01 00 05 0A 00 00 00 00 00 00 00 00 00 00 00 00 00 00 00 00 00 00 00 00 00 00 00 00 FF FF 53 B0 FF FF 53 B0 86 5E
2026-07-24T17:49:06.329131+00:00 TX 01 03 00 20 00 02 C5 C1
2026-07-24T17:49:06.337130+00:00 RX 01 03 04 00 00 06 87 B9 F1
2026-07-24T17:49:06.339131+00:00 TX 01 03 01 C4 00 01 C4 0B
2026-07-24T17:49:06.345132+00:00 RX 01 03 02 00 00 B8 44
2026-07-24T17:49:06.395724+00:00 TX 01 03 00 00 00 20 44 12
2026-07-24T17:49:06.440767+00:00 RX 01 03 40 00 00 00 00 00 03 00 00 00 03 00 00 00 00 00 00 00 00 00 00 00 00 00 00 00 01 00 00 01 00 05 0A 00 00 00 00 00 00 00 00 00 00 00 00 00 00 00 00 00 00 00 00 00 00 00 00 FF FF 52 E8 FF FF 52 E8 A6 28
2026-07-24T17:49:06.442767+00:00 TX 01 03 00 20 00 02 C5 C1
2026-07-24T17:49:06.450769+00:00 RX 01 03 04 00 00 06 89 38 35
2026-07-24T17:49:06.453770+00:00 TX 01 03 01 C4 00 01 C4 0B
2026-07-24T17:49:06.459771+00:00 RX 01 03 02 00 00 B8 44
2026-07-24T17:49:06.509783+00:00 TX 01 03 00 00 00 20 44 12
2026-07-24T17:49:06.555829+00:00 RX 01 03 40 00 00 00 00 00 03 00 00 00 03 00 00 00 00 00 00 00 00 00 00 00 00 00 00 00 01 00 00 01 00 05 0A 00 00 00 00 00 00 00 00 00 00 00 00 00 00 00 00 00 00 00 00 00 00 00 00 FF FF 50 C9 FF FF 50 C9 DA B5
2026-07-24T17:49:06.557830+00:00 TX 01 03 00 20 00 02 C5 C1
2026-07-24T17:49:06.564832+00:00 RX 01 03 04 00 00 06 8A 78 34
2026-07-24T17:49:06.566832+00:00 TX 01 03 01 C4 00 01 C4 0B
2026-07-24T17:49:06.572831+00:00 RX 01 03 02 00 00 B8 44
2026-07-24T17:49:06.622860+00:00 TX 01 03 00 00 00 20 44 12
2026-07-24T17:49:06.668056+00:00 RX 01 03 40 00 00 00 00 00 03 00 00 00 03 00 00 00 00 00 00 00 00 00 00 00 00 00 00 00 01 00 00 01 00 05 0A 00 00 00 00 00 00 00 00 00 00 00 00 00 00 00 00 00 00 00 00 00 00 00 00 FF FF 4F B8 FF FF 4F B8 6C C5
2026-07-24T17:49:06.670056+00:00 TX 01 03 00 20 00 02 C5 C1
2026-07-24T17:49:06.678058+00:00 RX 01 03 04 00 00 06 8B B9 F4
2026-07-24T17:49:06.680058+00:00 TX 01 03 01 C4 00 01 C4 0B
2026-07-24T17:49:06.686056+00:00 RX 01 03 02 00 00 B8 44
2026-07-24T17:49:06.737674+00:00 TX 01 03 00 00 00 20 44 12
2026-07-24T17:49:06.782178+00:00 RX 01 03 40 00 00 00 00 00 03 00 00 00 03 00 00 00 00 00 00 00 00 00 00 00 00 00 00 00 01 00 00 01 00 05 0A 00 00 00 00 00 00 00 00 00 00 00 00 00 00 00 00 00 00 00 00 00 00 00 00 FF FF 52 B2 FF FF 52 B2 7E 1E
2026-07-24T17:49:06.785683+00:00 TX 01 03 00 20 00 02 C5 C1
2026-07-24T17:49:06.794784+00:00 RX 01 03 04 00 00 06 8C F8 36
2026-07-24T17:49:06.796824+00:00 TX 01 03 01 C4 00 01 C4 0B
2026-07-24T17:49:06.802825+00:00 RX 01 03 02 00 00 B8 44
2026-07-24T17:49:06.854342+00:00 TX 01 03 00 00 00 20 44 12
2026-07-24T17:49:06.898984+00:00 RX 01 03 40 00 00 00 00 00 03 00 00 00 03 00 00 00 00 00 00 00 00 00 00 00 00 00 00 00 01 00 00 01 00 05 0A 00 00 00 00 00 00 00 00 00 00 00 00 00 00 00 00 00 00 00 00 00 00 00 00 FF FF 53 75 FF FF 53 75 8A 1C
2026-07-24T17:49:06.900984+00:00 TX 01 03 00 20 00 02 C5 C1
2026-07-24T17:49:06.907985+00:00 RX 01 03 04 00 00 06 8D 39 F6
2026-07-24T17:49:06.909986+00:00 TX 01 03 01 C4 00 01 C4 0B
2026-07-24T17:49:06.916985+00:00 RX 01 03 02 00 00 B8 44
2026-07-24T17:49:06.967525+00:00 TX 01 03 00 00 00 20 44 12
2026-07-24T17:49:07.012548+00:00 RX 01 03 40 00 00 00 00 00 03 00 00 00 03 00 00 00 00 00 00 00 00 00 00 00 00 00 00 00 01 00 00 01 00 05 0A 00 00 00 00 00 00 00 00 00 00 00 00 00 00 00 00 00 00 00 00 00 00 00 00 FF FF 55 3C FF FF 55 3C 95 E2
2026-07-24T17:49:07.014549+00:00 TX 01 03 00 20 00 02 C5 C1
2026-07-24T17:49:07.022550+00:00 RX 01 03 04 00 00 06 8E 79 F7
2026-07-24T17:49:07.025548+00:00 TX 01 03 01 C4 00 01 C4 0B
2026-07-24T17:49:07.031550+00:00 RX 01 03 02 00 00 B8 44
2026-07-24T17:49:07.081586+00:00 TX 01 03 00 00 00 20 44 12
2026-07-24T17:49:07.126178+00:00 RX 01 03 40 00 00 00 00 00 03 00 00 00 03 00 00 00 00 00 00 00 00 00 00 00 00 00 00 00 01 00 00 01 00 05 0A 00 00 00 00 00 00 00 00 00 00 00 00 00 00 00 00 00 00 00 00 00 00 00 00 FF FF 55 05 FF FF 55 05 C9 F5
2026-07-24T17:49:07.128702+00:00 TX 01 03 00 20 00 02 C5 C1
2026-07-24T17:49:07.136204+00:00 RX 01 03 04 00 00 06 90 F9 FF
2026-07-24T17:49:07.138205+00:00 TX 01 03 01 C4 00 01 C4 0B
2026-07-24T17:49:07.144762+00:00 RX 01 03 02 00 00 B8 44
2026-07-24T17:49:07.195451+00:00 TX 01 03 00 00 00 20 44 12
2026-07-24T17:49:07.240965+00:00 RX 01 03 40 00 00 00 00 00 03 00 00 00 03 00 00 00 00 00 00 00 00 00 00 00 00 00 00 00 01 00 00 01 00 05 0A 00 00 00 00 00 00 00 00 00 00 00 00 00 00 00 00 00 00 00 00 00 00 00 00 FF FF 53 D2 FF FF 53 D2 FE 7F
2026-07-24T17:49:07.242965+00:00 TX 01 03 00 20 00 02 C5 C1
2026-07-24T17:49:07.250846+00:00 RX 01 03 04 00 00 06 91 38 3F
2026-07-24T17:49:07.252847+00:00 TX 01 03 01 C4 00 01 C4 0B
2026-07-24T17:49:07.259848+00:00 RX 01 03 02 00 00 B8 44
2026-07-24T17:49:07.310359+00:00 TX 01 03 00 00 00 20 44 12
2026-07-24T17:49:07.354868+00:00 RX 01 03 40 00 00 00 00 00 03 00 00 00 03 00 00 00 00 00 00 00 00 00 00 00 00 00 00 00 01 00 00 01 00 05 0A 00 00 00 00 00 00 00 00 00 00 00 00 00 00 00 00 00 00 00 00 00 00 00 00 FF FF 55 E0 FF FF 55 E0 45 A8
2026-07-24T17:49:07.356868+00:00 TX 01 03 00 20 00 02 C5 C1
2026-07-24T17:49:07.363869+00:00 RX 01 03 04 00 00 06 92 78 3E
2026-07-24T17:49:07.365870+00:00 TX 01 03 01 C4 00 01 C4 0B
2026-07-24T17:49:07.372868+00:00 RX 01 03 02 00 00 B8 44
2026-07-24T17:49:07.423443+00:00 TX 01 03 00 00 00 20 44 12
2026-07-24T17:49:07.467769+00:00 RX 01 03 40 00 00 00 00 00 03 00 00 00 03 00 00 00 00 00 00 00 00 00 00 00 00 00 00 00 01 00 00 01 00 05 0A 00 00 00 00 00 00 00 00 00 00 00 00 00 00 00 00 00 00 00 00 00 00 00 00 FF FF 53 25 FF FF 53 25 4A 2C
2026-07-24T17:49:07.471770+00:00 TX 01 03 00 20 00 02 C5 C1
2026-07-24T17:49:07.479099+00:00 RX 01 03 04 00 00 06 93 B9 FE
2026-07-24T17:49:07.482099+00:00 TX 01 03 01 C4 00 01 C4 0B
2026-07-24T17:49:07.488099+00:00 RX 01 03 02 00 00 B8 44
2026-07-24T17:49:07.540084+00:00 TX 01 03 00 00 00 20 44 12
2026-07-24T17:49:07.585526+00:00 RX 01 03 40 00 00 00 00 00 03 00 00 00 03 00 00 00 00 00 00 00 00 00 00 00 00 00 00 00 01 00 00 01 00 05 0A 00 00 00 00 00 00 00 00 00 00 00 00 00 00 00 00 00 00 00 00 00 00 00 00 FF FF 53 F4 FF FF 53 F4 76 62
2026-07-24T17:49:07.587829+00:00 TX 01 03 00 20 00 02 C5 C1
2026-07-24T17:49:07.595827+00:00 RX 01 03 04 00 00 06 94 F8 3C
2026-07-24T17:49:07.597828+00:00 TX 01 03 01 C4 00 01 C4 0B
2026-07-24T17:49:07.604331+00:00 RX 01 03 02 00 00 B8 44
2026-07-24T17:49:07.654346+00:00 TX 01 03 00 00 00 20 44 12
2026-07-24T17:49:07.699854+00:00 RX 01 03 40 00 00 00 00 00 03 00 00 00 03 00 00 00 00 00 00 00 00 00 00 00 00 00 00 00 01 00 00 01 00 05 0A 00 00 00 00 00 00 00 00 00 00 00 00 00 00 00 00 00 00 00 00 00 00 00 00 FF FF 53 73 FF FF 53 73 82 1E
2026-07-24T17:49:07.701854+00:00 TX 01 03 00 20 00 02 C5 C1
2026-07-24T17:49:07.710381+00:00 RX 01 03 04 00 00 06 95 39 FC
2026-07-24T17:49:07.712381+00:00 TX 01 03 01 C4 00 01 C4 0B
2026-07-24T17:49:07.719380+00:00 RX 01 03 02 00 00 B8 44
2026-07-24T17:49:07.769892+00:00 TX 01 03 00 00 00 20 44 12
2026-07-24T17:49:07.814701+00:00 RX 01 03 40 00 00 00 00 00 03 00 00 00 03 00 00 00 00 00 00 00 00 00 00 00 00 00 00 00 01 00 00 01 00 05 0A 00 00 00 00 00 00 00 00 00 00 00 00 00 00 00 00 00 00 00 00 00 00 00 00 FF FF 53 52 FF FF 53 52 FE 01
2026-07-24T17:49:07.818702+00:00 TX 01 03 00 20 00 02 C5 C1
2026-07-24T17:49:07.826704+00:00 RX 01 03 04 00 00 06 97 B8 3D
2026-07-24T17:49:07.828705+00:00 TX 01 03 01 C4 00 01 C4 0B
2026-07-24T17:49:07.834707+00:00 RX 01 03 02 00 00 B8 44
2026-07-24T17:49:07.885715+00:00 TX 01 03 00 00 00 20 44 12
2026-07-24T17:49:07.931223+00:00 RX 01 03 40 00 00 00 00 00 03 00 00 00 03 00 00 00 00 00 00 00 00 00 00 00 00 00 00 00 01 00 00 01 00 05 0A 00 00 00 00 00 00 00 00 00 00 00 00 00 00 00 00 00 00 00 00 00 00 00 00 FF FF 52 E2 FF FF 52 E2 BE 2E
2026-07-24T17:49:07.934726+00:00 TX 01 03 00 20 00 02 C5 C1
2026-07-24T17:49:07.941728+00:00 RX 01 03 04 00 00 06 98 F8 39
2026-07-24T17:49:07.944729+00:00 TX 01 03 01 C4 00 01 C4 0B
2026-07-24T17:49:07.950730+00:00 RX 01 03 02 00 00 B8 44
2026-07-24T17:49:08.000751+00:00 TX 01 03 00 00 00 20 44 12
2026-07-24T17:49:08.044761+00:00 RX 01 03 40 00 00 00 00 00 03 00 00 00 03 00 00 00 00 00 00 00 00 00 00 00 00 00 00 00 01 00 00 01 00 05 0A 00 00 00 00 00 00 00 00 00 00 00 00 00 00 00 00 00 00 00 00 00 00 00 00 FF FF 54 57 FF FF 54 57 F1 85
2026-07-24T17:49:08.047762+00:00 TX 01 03 00 20 00 02 C5 C1
2026-07-24T17:49:08.054763+00:00 RX 01 03 04 00 00 06 99 39 F9
2026-07-24T17:49:08.057764+00:00 TX 01 03 01 C4 00 01 C4 0B
2026-07-24T17:49:08.063765+00:00 RX 01 03 02 00 00 B8 44
2026-07-24T17:49:08.113823+00:00 TX 01 03 00 00 00 20 44 12
2026-07-24T17:49:08.158389+00:00 RX 01 03 40 00 00 00 00 00 03 00 00 00 03 00 00 00 00 00 00 00 00 00 00 00 00 00 00 00 01 00 00 01 00 05 0A 00 00 00 00 00 00 00 00 00 00 00 00 00 00 00 00 00 00 00 00 00 00 00 00 FF FF 53 52 FF FF 53 52 FE 01
2026-07-24T17:49:08.160390+00:00 TX 01 03 00 20 00 02 C5 C1
2026-07-24T17:49:08.168391+00:00 RX 01 03 04 00 00 06 9A 79 F8
2026-07-24T17:49:08.170392+00:00 TX 01 03 01 C4 00 01 C4 0B
2026-07-24T17:49:08.176390+00:00 RX 01 03 02 00 00 B8 44
2026-07-24T17:49:08.226404+00:00 TX 01 03 00 00 00 20 44 12
2026-07-24T17:49:08.270921+00:00 RX 01 03 40 00 00 00 00 00 03 00 00 00 03 00 00 00 00 00 00 00 00 00 00 00 00 00 00 00 01 00 00 01 00 05 0A 00 00 00 00 00 00 00 00 00 00 00 00 00 00 00 00 00 00 00 00 00 00 00 00 FF FF 55 0A FF FF 55 0A DD F0
2026-07-24T17:49:08.272921+00:00 TX 01 03 00 20 00 02 C5 C1
2026-07-24T17:49:08.280923+00:00 RX 01 03 04 00 00 06 9B B8 38
2026-07-24T17:49:08.282923+00:00 TX 01 03 01 C4 00 01 C4 0B
2026-07-24T17:49:08.288921+00:00 RX 01 03 02 00 00 B8 44
2026-07-24T17:49:08.339933+00:00 TX 01 03 00 00 00 20 44 12
2026-07-24T17:49:08.384618+00:00 RX 01 03 40 00 00 00 00 00 03 00 00 00 03 00 00 00 00 00 00 00 00 00 00 00 00 00 00 00 01 00 00 01 00 05 0A 00 00 00 00 00 00 00 00 00 00 00 00 00 00 00 00 00 00 00 00 00 00 00 00 FF FF 55 8E FF FF 55 8E 2D 8D
2026-07-24T17:49:08.387619+00:00 TX 01 03 00 20 00 02 C5 C1
2026-07-24T17:49:08.395121+00:00 RX 01 03 04 00 00 06 9C F9 FA
2026-07-24T17:49:08.397122+00:00 TX 01 03 01 C4 00 01 C4 0B
2026-07-24T17:49:08.403625+00:00 RX 01 03 02 00 00 B8 44
2026-07-24T17:49:08.453637+00:00 TX 01 03 00 00 00 20 44 12
2026-07-24T17:49:08.497644+00:00 RX 01 03 40 00 00 00 00 00 03 00 00 00 03 00 00 00 00 00 00 00 00 00 00 00 00 00 00 00 01 00 00 01 00 05 0A 00 00 00 00 00 00 00 00 00 00 00 00 00 00 00 00 00 00 00 00 00 00 00 00 FF FF 54 84 FF FF 54 84 35 CA
2026-07-24T17:49:08.501150+00:00 TX 01 03 00 20 00 02 C5 C1
2026-07-24T17:49:08.509684+00:00 RX 01 03 04 00 00 06 9E 78 3B
2026-07-24T17:49:08.512685+00:00 TX 01 03 01 C4 00 01 C4 0B
2026-07-24T17:49:08.519683+00:00 RX 01 03 02 00 00 B8 44
2026-07-24T17:49:08.569846+00:00 TX 01 03 00 00 00 20 44 12
2026-07-24T17:49:08.615853+00:00 RX 01 03 40 00 00 00 00 00 03 00 00 00 03 00 00 00 00 00 00 00 00 00 00 00 00 00 00 00 01 00 00 01 00 05 0A 00 00 00 00 00 00 00 00 00 00 00 00 00 00 00 00 00 00 00 00 00 00 00 00 FF FF 53 83 FF FF 53 83 C2 4F
2026-07-24T17:49:08.618853+00:00 TX 01 03 00 20 00 02 C5 C1
2026-07-24T17:49:08.626855+00:00 RX 01 03 04 00 00 06 9F B9 FB
2026-07-24T17:49:08.628855+00:00 TX 01 03 01 C4 00 01 C4 0B
2026-07-24T17:49:08.635358+00:00 RX 01 03 02 00 00 B8 44
2026-07-24T17:49:08.685370+00:00 TX 01 03 00 00 00 20 44 12
2026-07-24T17:49:08.731433+00:00 RX 01 03 40 00 00 00 00 00 03 00 00 00 03 00 00 00 00 00 00 00 00 00 00 00 00 00 00 00 01 00 00 01 00 05 0A 00 00 00 00 00 00 00 00 00 00 00 00 00 00 00 00 00 00 00 00 00 00 00 00 FF FF 54 2F FF FF 54 2F 51 AD
2026-07-24T17:49:08.733934+00:00 TX 01 03 00 20 00 02 C5 C1
2026-07-24T17:49:08.741933+00:00 RX 01 03 04 00 00 06 A0 F9 EB
2026-07-24T17:49:08.743934+00:00 TX 01 03 01 C4 00 01 C4 0B
2026-07-24T17:49:08.750935+00:00 RX 01 03 02 00 00 B8 44
2026-07-24T17:49:08.801981+00:00 TX 01 03 00 00 00 20 44 12
2026-07-24T17:49:08.846988+00:00 RX 01 03 40 00 00 00 00 00 03 00 00 00 03 00 00 00 00 00 00 00 00 00 00 00 00 00 00 00 01 00 00 01 00 05 0A 00 00 00 00 00 00 00 00 00 00 00 00 00 00 00 00 00 00 00 00 00 00 00 00 FF FF 54 BD FF FF 54 BD 69 DD
2026-07-24T17:49:08.849989+00:00 TX 01 03 00 20 00 02 C5 C1
2026-07-24T17:49:08.857990+00:00 RX 01 03 04 00 00 06 A1 38 2B
2026-07-24T17:49:08.859991+00:00 TX 01 03 01 C4 00 01 C4 0B
2026-07-24T17:49:08.865992+00:00 RX 01 03 02 00 00 B8 44
2026-07-24T17:49:08.917502+00:00 TX 01 03 00 00 00 20 44 12
2026-07-24T17:49:08.962013+00:00 RX 01 03 40 00 00 00 00 00 03 00 00 00 03 00 00 00 00 00 00 00 00 00 00 00 00 00 00 00 01 00 00 01 00 05 0A 00 00 00 00 00 00 00 00 00 00 00 00 00 00 00 00 00 00 00 00 00 00 00 00 FF FF 54 85 FF FF 54 85 C9 CA
2026-07-24T17:49:08.964013+00:00 TX 01 03 00 20 00 02 C5 C1
2026-07-24T17:49:08.972340+00:00 RX 01 03 04 00 00 06 A2 78 2A
2026-07-24T17:49:08.974409+00:00 TX 01 03 01 C4 00 01 C4 0B
2026-07-24T17:49:08.981683+00:00 RX 01 03 02 00 00 B8 44
2026-07-24T17:49:09.031740+00:00 TX 01 03 00 00 00 20 44 12
2026-07-24T17:49:09.076630+00:00 RX 01 03 40 00 00 00 00 00 03 00 00 00 03 00 00 00 00 00 00 00 00 00 00 00 00 00 00 00 01 00 00 01 00 05 0A 00 00 00 00 00 00 00 00 00 00 00 00 00 00 00 00 00 00 00 00 00 00 00 00 FF FF 52 81 FF FF 52 81 3A 0F
2026-07-24T17:49:09.079230+00:00 TX 01 03 00 20 00 02 C5 C1
2026-07-24T17:49:09.086748+00:00 RX 01 03 04 00 00 06 A3 B9 EA
2026-07-24T17:49:09.090746+00:00 TX 01 03 01 C4 00 01 C4 0B
2026-07-24T17:49:09.096747+00:00 RX 01 03 02 00 00 B8 44
2026-07-24T17:49:09.148009+00:00 TX 01 03 00 00 00 20 44 12
2026-07-24T17:49:09.192552+00:00 RX 01 03 40 00 00 00 00 00 03 00 00 00 03 00 00 00 00 00 00 00 00 00 00 00 00 00 00 00 01 00 00 01 00 05 0A 00 00 00 00 00 00 00 00 00 00 00 00 00 00 00 00 00 00 00 00 00 00 00 00 FF FF 50 EB FF FF 50 EB A2 AB
2026-07-24T17:49:09.195552+00:00 TX 01 03 00 20 00 02 C5 C1
2026-07-24T17:49:09.203555+00:00 RX 01 03 04 00 00 06 A5 39 E8
2026-07-24T17:49:09.207058+00:00 TX 01 03 01 C4 00 01 C4 0B
2026-07-24T17:49:09.213059+00:00 RX 01 03 02 00 00 B8 44
2026-07-24T17:49:09.263071+00:00 TX 01 03 00 00 00 20 44 12
2026-07-24T17:49:09.307579+00:00 RX 01 03 40 00 00 00 00 00 03 00 00 00 03 00 00 00 00 00 00 00 00 00 00 00 00 00 00 00 01 00 00 01 00 05 0A 00 00 00 00 00 00 00 00 00 00 00 00 00 00 00 00 00 00 00 00 00 00 00 00 FF FF 50 33 FF FF 50 33 82 E2
2026-07-24T17:49:09.310580+00:00 TX 01 03 00 20 00 02 C5 C1
2026-07-24T17:49:09.317581+00:00 RX 01 03 04 00 00 06 A6 79 E9
2026-07-24T17:49:09.321579+00:00 TX 01 03 01 C4 00 01 C4 0B
2026-07-24T17:49:09.327580+00:00 RX 01 03 02 00 00 B8 44
2026-07-24T17:49:09.377593+00:00 TX 01 03 00 00 00 20 44 12
2026-07-24T17:49:09.422608+00:00 RX 01 03 40 00 00 00 00 00 03 00 00 00 03 00 00 00 00 00 00 00 00 00 00 00 00 00 00 00 01 00 00 01 00 05 0A 00 00 00 00 00 00 00 00 00 00 00 00 00 00 00 00 00 00 00 00 00 00 00 00 FF FF 50 E9 FF FF 50 E9 5A AA
2026-07-24T17:49:09.424608+00:00 TX 01 03 00 20 00 02 C5 C1
2026-07-24T17:49:09.431610+00:00 RX 01 03 04 00 00 06 A7 B8 29
2026-07-24T17:49:09.433610+00:00 TX 01 03 01 C4 00 01 C4 0B
2026-07-24T17:49:09.440612+00:00 RX 01 03 02 00 00 B8 44
2026-07-24T17:49:09.490621+00:00 TX 01 03 00 00 00 20 44 12
2026-07-24T17:49:09.535132+00:00 RX 01 03 40 00 00 00 00 00 03 00 00 00 03 00 00 00 00 00 00 00 00 00 00 00 00 00 00 00 01 00 00 01 00 05 0A 00 00 00 00 00 00 00 00 00 00 00 00 00 00 00 00 00 00 00 00 00 00 00 00 FF FF 54 00 FF FF 54 00 C5 B7
2026-07-24T17:49:09.537133+00:00 TX 01 03 00 20 00 02 C5 C1
2026-07-24T17:49:09.545134+00:00 RX 01 03 04 00 00 06 A8 F8 2D
2026-07-24T17:49:09.548636+00:00 TX 01 03 01 C4 00 01 C4 0B
2026-07-24T17:49:09.554638+00:00 RX 01 03 02 00 00 B8 44
2026-07-24T17:49:09.605651+00:00 TX 01 03 00 00 00 20 44 12
2026-07-24T17:49:09.650209+00:00 RX 01 03 40 00 00 00 00 00 03 00 00 00 03 00 00 00 00 00 00 00 00 00 00 00 00 00 00 00 01 00 00 01 00 05 0A 00 00 00 00 00 00 00 00 00 00 00 00 00 00 00 00 00 00 00 00 00 00 00 00 FF FF 52 F1 FF FF 52 F1 7A 20
2026-07-24T17:49:09.653210+00:00 TX 01 03 00 20 00 02 C5 C1
2026-07-24T17:49:09.661211+00:00 RX 01 03 04 00 00 06 A9 39 ED
2026-07-24T17:49:09.663212+00:00 TX 01 03 01 C4 00 01 C4 0B
2026-07-24T17:49:09.670213+00:00 RX 01 03 02 00 00 B8 44
2026-07-24T17:49:09.720965+00:00 TX 01 03 00 00 00 20 44 12
2026-07-24T17:49:09.765976+00:00 RX 01 03 40 00 00 00 00 00 03 00 00 00 03 00 00 00 00 00 00 00 00 00 00 00 00 00 00 00 01 00 00 01 00 05 0A 00 00 00 00 00 00 00 00 00 00 00 00 00 00 00 00 00 00 00 00 00 00 00 00 FF FF 52 35 FF FF 52 35 8A 62
2026-07-24T17:49:09.767976+00:00 TX 01 03 00 20 00 02 C5 C1
2026-07-24T17:49:09.775976+00:00 RX 01 03 04 00 00 06 AA 79 EC
2026-07-24T17:49:09.778976+00:00 TX 01 03 01 C4 00 01 C4 0B
2026-07-24T17:49:09.784978+00:00 RX 01 03 02 00 00 B8 44
2026-07-24T17:49:09.835992+00:00 TX 01 03 00 00 00 20 44 12
2026-07-24T17:49:09.880003+00:00 RX 01 03 40 00 00 00 00 00 03 00 00 00 03 00 00 00 00 00 00 00 00 00 00 00 00 00 00 00 01 00 00 01 00 05 0A 00 00 00 00 00 00 00 00 00 00 00 00 00 00 00 00 00 00 00 00 00 00 00 00 FF FF 53 37 FF FF 53 37 72 22
2026-07-24T17:49:09.883003+00:00 TX 01 03 00 20 00 02 C5 C1
2026-07-24T17:49:09.891005+00:00 RX 01 03 04 00 00 06 AC F9 EE
2026-07-24T17:49:09.898234+00:00 TX 01 03 01 C4 00 01 C4 0B
2026-07-24T17:49:09.905235+00:00 RX 01 03 02 00 00 B8 44
2026-07-24T17:49:09.955247+00:00 TX 01 03 00 00 00 20 44 12
2026-07-24T17:49:10.000754+00:00 RX 01 03 40 00 00 00 00 00 03 00 00 00 03 00 00 00 00 00 00 00 00 00 00 00 00 00 00 00 01 00 00 01 00 05 0A 00 00 00 00 00 00 00 00 00 00 00 00 00 00 00 00 00 00 00 00 00 00 00 00 FF FF 52 93 FF FF 52 93 02 01
2026-07-24T17:49:10.002755+00:00 TX 01 03 00 20 00 02 C5 C1
2026-07-24T17:49:10.011258+00:00 RX 01 03 04 00 00 06 AD 38 2E
2026-07-24T17:49:10.013258+00:00 TX 01 03 01 C4 00 01 C4 0B
2026-07-24T17:49:10.020260+00:00 RX 01 03 02 00 00 B8 44
2026-07-24T17:49:10.070271+00:00 TX 01 03 00 00 00 20 44 12
2026-07-24T17:49:10.114976+00:00 RX 01 03 40 00 00 00 00 00 03 00 00 00 03 00 00 00 00 00 00 00 00 00 00 00 00 00 00 00 01 00 00 01 00 05 0A 00 00 00 00 00 00 00 00 00 00 00 00 00 00 00 00 00 00 00 00 00 00 00 00 FF FF 52 7F FF FF 52 7F 92 5B
2026-07-24T17:49:10.117974+00:00 TX 01 03 00 20 00 02 C5 C1
2026-07-24T17:49:10.125974+00:00 RX 01 03 04 00 00 06 AE 78 2F
2026-07-24T17:49:10.127974+00:00 TX 01 03 01 C4 00 01 C4 0B
2026-07-24T17:49:10.133975+00:00 RX 01 03 02 00 00 B8 44
2026-07-24T17:49:10.185573+00:00 TX 01 03 00 00 00 20 44 12
2026-07-24T17:49:10.230585+00:00 RX 01 03 40 00 00 00 00 00 03 00 00 00 03 00 00 00 00 00 00 00 00 00 00 00 00 00 00 00 01 00 00 01 00 05 0A 00 00 00 00 00 00 00 00 00 00 00 00 00 00 00 00 00 00 00 00 00 00 00 00 FF FF 52 54 FF FF 52 54 F6 42
2026-07-24T17:49:10.232586+00:00 TX 01 03 00 20 00 02 C5 C1
2026-07-24T17:49:10.240588+00:00 RX 01 03 04 00 00 06 AF B9 EF
2026-07-24T17:49:10.243588+00:00 TX 01 03 01 C4 00 01 C4 0B
2026-07-24T17:49:10.250590+00:00 RX 01 03 02 00 00 B8 44
2026-07-24T17:49:10.300598+00:00 TX 01 03 00 00 00 20 44 12
2026-07-24T17:49:10.344608+00:00 RX 01 03 40 00 00 00 00 00 03 00 00 00 03 00 00 00 00 00 00 00 00 00 00 00 00 00 00 00 01 00 00 01 00 05 0A 00 00 00 00 00 00 00 00 00 00 00 00 00 00 00 00 00 00 00 00 00 00 00 00 FF FF 54 04 FF FF 54 04 35 B4
2026-07-24T17:49:10.347609+00:00 TX 01 03 00 20 00 02 C5 C1
2026-07-24T17:49:10.354610+00:00 RX 01 03 04 00 00 06 B0 F8 27
2026-07-24T17:49:10.356611+00:00 TX 01 03 01 C4 00 01 C4 0B
2026-07-24T17:49:10.362612+00:00 RX 01 03 02 00 00 B8 44
2026-07-24T17:49:10.412620+00:00 TX 01 03 00 00 00 20 44 12
2026-07-24T17:49:10.456630+00:00 RX 01 03 40 00 00 00 00 00 03 00 00 00 03 00 00 00 00 00 00 00 00 00 00 00 00 00 00 00 01 00 00 01 00 05 0A 00 00 00 00 00 00 00 00 00 00 00 00 00 00 00 00 00 00 00 00 00 00 00 00 FF FF 53 E4 FF FF 53 E4 B6 6D
2026-07-24T17:49:10.459631+00:00 TX 01 03 00 20 00 02 C5 C1
2026-07-24T17:49:10.466632+00:00 RX 01 03 04 00 00 06 B1 39 E7
2026-07-24T17:49:10.468633+00:00 TX 01 03 01 C4 00 01 C4 0B
2026-07-24T17:49:10.474634+00:00 RX 01 03 02 00 00 B8 44
2026-07-24T17:49:10.524856+00:00 TX 01 03 00 00 00 20 44 12
2026-07-24T17:49:10.569878+00:00 RX 01 03 40 00 00 00 00 00 03 00 00 00 03 00 00 00 00 00 00 00 00 00 00 00 00 00 00 00 01 00 00 01 00 05 0A 00 00 00 00 00 00 00 00 00 00 00 00 00 00 00 00 00 00 00 00 00 00 00 00 FF FF 53 58 FF FF 53 58 E6 07
2026-07-24T17:49:10.571879+00:00 TX 01 03 00 20 00 02 C5 C1
2026-07-24T17:49:10.579877+00:00 RX 01 03 04 00 00 06 B3 B8 26
2026-07-24T17:49:10.581878+00:00 TX 01 03 01 C4 00 01 C4 0B
2026-07-24T17:49:10.587879+00:00 RX 01 03 02 00 00 B8 44
2026-07-24T17:49:10.638932+00:00 TX 01 03 00 00 00 20 44 12
2026-07-24T17:49:10.684445+00:00 RX 01 03 40 00 00 00 00 00 03 00 00 00 03 00 00 00 00 00 00 00 00 00 00 00 00 00 00 00 01 00 00 01 00 05 0A 00 00 00 00 00 00 00 00 00 00 00 00 00 00 00 00 00 00 00 00 00 00 00 00 FF FF 55 E1 FF FF 55 E1 B9 A8
2026-07-24T17:49:10.687445+00:00 TX 01 03 00 20 00 02 C5 C1
2026-07-24T17:49:10.695443+00:00 RX 01 03 04 00 00 06 B4 F9 E4
2026-07-24T17:49:10.697444+00:00 TX 01 03 01 C4 00 01 C4 0B
2026-07-24T17:49:10.703977+00:00 RX 01 03 02 00 00 B8 44
2026-07-24T17:49:10.754046+00:00 TX 01 03 00 00 00 20 44 12
2026-07-24T17:49:10.799307+00:00 RX 01 03 40 00 00 00 00 00 03 00 00 00 03 00 00 00 00 00 00 00 00 00 00 00 00 00 00 00 01 00 00 01 00 05 0A 00 00 00 00 00 00 00 00 00 00 00 00 00 00 00 00 00 00 00 00 00 00 00 00 FF FF 58 8F FF FF 58 8F D4 00
2026-07-24T17:49:10.801307+00:00 TX 01 03 00 20 00 02 C5 C1
2026-07-24T17:49:10.810024+00:00 RX 01 03 04 00 00 06 B5 38 24
2026-07-24T17:49:10.813526+00:00 TX 01 03 01 C4 00 01 C4 0B
2026-07-24T17:49:10.820528+00:00 RX 01 03 02 00 00 B8 44
2026-07-24T17:49:10.870571+00:00 TX 01 03 00 00 00 20 44 12
2026-07-24T17:49:10.915080+00:00 RX 01 03 40 00 00 00 00 00 03 00 00 00 03 00 00 00 00 00 00 00 00 00 00 00 00 00 00 00 01 00 00 01 00 05 0A 00 00 00 00 00 00 00 00 00 00 00 00 00 00 00 00 00 00 00 00 00 00 00 00 FF FF 54 E4 FF FF 54 E4 B5 EA
2026-07-24T17:49:10.917081+00:00 TX 01 03 00 20 00 02 C5 C1
2026-07-24T17:49:10.925080+00:00 RX 01 03 04 00 00 06 B6 78 25
2026-07-24T17:49:10.928080+00:00 TX 01 03 01 C4 00 01 C4 0B
2026-07-24T17:49:10.935082+00:00 RX 01 03 02 00 00 B8 44
2026-07-24T17:49:10.985592+00:00 TX 01 03 00 00 00 20 44 12
2026-07-24T17:49:11.030603+00:00 RX 01 03 40 00 00 00 00 00 03 00 00 00 03 00 00 00 00 00 00 00 00 00 00 00 00 00 00 00 01 00 00 01 00 05 0A 00 00 00 00 00 00 00 00 00 00 00 00 00 00 00 00 00 00 00 00 00 00 00 00 FF FF 55 8A FF FF 55 8A DD 8E
2026-07-24T17:49:11.032604+00:00 TX 01 03 00 20 00 02 C5 C1
2026-07-24T17:49:11.040606+00:00 RX 01 03 04 00 00 06 B7 B9 E5
2026-07-24T17:49:11.043607+00:00 TX 01 03 01 C4 00 01 C4 0B
2026-07-24T17:49:11.050608+00:00 RX 01 03 02 00 00 B8 44
2026-07-24T17:49:11.101135+00:00 TX 01 03 00 00 00 20 44 12
2026-07-24T17:49:11.146182+00:00 RX 01 03 40 00 00 00 00 00 03 00 00 00 03 00 00 00 00 00 00 00 00 00 00 00 00 00 00 00 01 00 00 01 00 05 0A 00 00 00 00 00 00 00 00 00 00 00 00 00 00 00 00 00 00 00 00 00 00 00 00 FF FF 55 B7 FF FF 55 B7 71 9A
2026-07-24T17:49:11.149179+00:00 TX 01 03 00 20 00 02 C5 C1
2026-07-24T17:49:11.157181+00:00 RX 01 03 04 00 00 06 B8 F9 E1
2026-07-24T17:49:11.159181+00:00 TX 01 03 01 C4 00 01 C4 0B
2026-07-24T17:49:11.166183+00:00 RX 01 03 02 00 00 B8 44
2026-07-24T17:49:11.216191+00:00 TX 01 03 00 00 00 20 44 12
2026-07-24T17:49:11.261201+00:00 RX 01 03 40 00 00 00 00 00 03 00 00 00 03 00 00 00 00 00 00 00 00 00 00 00 00 00 00 00 01 00 00 01 00 05 0A 00 00 00 00 00 00 00 00 00 00 00 00 00 00 00 00 00 00 00 00 00 00 00 00 FF FF 58 63 FF FF 58 63 44 5A
2026-07-24T17:49:11.263202+00:00 TX 01 03 00 20 00 02 C5 C1
2026-07-24T17:49:11.272204+00:00 RX 01 03 04 00 00 06 BA 78 20
2026-07-24T17:49:11.274204+00:00 TX 01 03 01 C4 00 01 C4 0B
2026-07-24T17:49:11.280205+00:00 RX 01 03 02 00 00 B8 44
2026-07-24T17:49:11.330714+00:00 TX 01 03 00 00 00 20 44 12
2026-07-24T17:49:11.376226+00:00 RX 01 03 40 00 00 00 00 00 03 00 00 00 03 00 00 00 00 00 00 00 00 00 00 00 00 00 00 00 01 00 00 01 00 05 0A 00 00 00 00 00 00 00 00 00 00 00 00 00 00 00 00 00 00 00 00 00 00 00 00 FF FF 58 11 FF FF 58 11 FC 74
2026-07-24T17:49:11.379225+00:00 TX 01 03 00 20 00 02 C5 C1
2026-07-24T17:49:11.387227+00:00 RX 01 03 04 00 00 06 BB B9 E0
2026-07-24T17:49:11.390227+00:00 TX 01 03 01 C4 00 01 C4 0B
2026-07-24T17:49:11.396731+00:00 RX 01 03 02 00 00 B8 44
2026-07-24T17:49:11.447243+00:00 TX 01 03 00 00 00 20 44 12
2026-07-24T17:49:11.492250+00:00 RX 01 03 40 00 00 00 00 00 03 00 00 00 03 00 00 00 00 00 00 00 00 00 00 00 00 00 00 00 01 00 00 01 00 05 0A 00 00 00 00 00 00 00 00 00 00 00 00 00 00 00 00 00 00 00 00 00 00 00 00 FF FF 56 F2 FF FF 56 F2 7D 65
2026-07-24T17:49:11.494251+00:00 TX 01 03 00 20 00 02 C5 C1
2026-07-24T17:49:11.502253+00:00 RX 01 03 04 00 00 06 BC F8 22
2026-07-24T17:49:11.504777+00:00 TX 01 03 01 C4 00 01 C4 0B
2026-07-24T17:49:11.510778+00:00 RX 01 03 02 00 00 B8 44
2026-07-24T17:49:11.561473+00:00 TX 01 03 00 00 00 20 44 12
2026-07-24T17:49:11.605978+00:00 RX 01 03 40 00 00 00 00 00 03 00 00 00 03 00 00 00 00 00 00 00 00 00 00 00 00 00 00 00 01 00 00 01 00 05 0A 00 00 00 00 00 00 00 00 00 00 00 00 00 00 00 00 00 00 00 00 00 00 00 00 FF FF 56 0A FF FF 56 0A DD 33
2026-07-24T17:49:11.607979+00:00 TX 01 03 00 20 00 02 C5 C1
2026-07-24T17:49:11.615520+00:00 RX 01 03 04 00 00 06 BD 39 E2
2026-07-24T17:49:11.617520+00:00 TX 01 03 01 C4 00 01 C4 0B
2026-07-24T17:49:11.623521+00:00 RX 01 03 02 00 00 B8 44
2026-07-24T17:49:11.674273+00:00 TX 01 03 00 00 00 20 44 12
2026-07-24T17:49:11.719306+00:00 RX 01 03 40 00 00 00 00 00 03 00 00 00 03 00 00 00 00 00 00 00 00 00 00 00 00 00 00 00 01 00 00 01 00 05 0A 00 00 00 00 00 00 00 00 00 00 00 00 00 00 00 00 00 00 00 00 00 00 00 00 FF FF 53 6F FF FF 53 6F 52 15
2026-07-24T17:49:11.721306+00:00 TX 01 03 00 20 00 02 C5 C1
2026-07-24T17:49:11.730305+00:00 RX 01 03 04 00 00 06 BE 79 E3
2026-07-24T17:49:11.732306+00:00 TX 01 03 01 C4 00 01 C4 0B
2026-07-24T17:49:11.738813+00:00 RX 01 03 02 00 00 B8 44
2026-07-24T17:49:11.789585+00:00 TX 01 03 00 00 00 20 44 12
2026-07-24T17:49:11.834589+00:00 RX 01 03 40 00 00 00 00 00 03 00 00 00 03 00 00 00 00 00 00 00 00 00 00 00 00 00 00 00 01 00 00 01 00 05 0A 00 00 00 00 00 00 00 00 00 00 00 00 00 00 00 00 00 00 00 00 00 00 00 00 FF FF 54 68 FF FF 54 68 A5 90
2026-07-24T17:49:11.837591+00:00 TX 01 03 00 20 00 02 C5 C1
2026-07-24T17:49:11.844643+00:00 RX 01 03 04 00 00 06 BF B8 23
2026-07-24T17:49:11.846643+00:00 TX 01 03 01 C4 00 01 C4 0B
2026-07-24T17:49:11.852644+00:00 RX 01 03 02 00 00 B8 44
2026-07-24T17:49:11.902652+00:00 TX 01 03 00 00 00 20 44 12
2026-07-24T17:49:11.947661+00:00 RX 01 03 40 00 00 00 00 00 03 00 00 00 03 00 00 00 00 00 00 00 00 00 00 00 00 00 00 00 01 00 00 01 00 05 0A 00 00 00 00 00 00 00 00 00 00 00 00 00 00 00 00 00 00 00 00 00 00 00 00 FF FF 57 31 FF FF 57 31 79 64
2026-07-24T17:49:11.949662+00:00 TX 01 03 00 20 00 02 C5 C1
2026-07-24T17:49:11.957678+00:00 RX 01 03 04 00 00 06 C1 38 03
2026-07-24T17:49:11.959679+00:00 TX 01 03 01 C4 00 01 C4 0B
2026-07-24T17:49:11.966517+00:00 RX 01 03 02 00 00 B8 44
2026-07-24T17:49:12.017053+00:00 TX 01 03 00 00 00 20 44 12
2026-07-24T17:49:12.061783+00:00 RX 01 03 40 00 00 00 00 00 03 00 00 00 03 00 00 00 00 00 00 00 00 00 00 00 00 00 00 00 01 00 00 01 00 05 0A 00 00 00 00 00 00 00 00 00 00 00 00 00 00 00 00 00 00 00 00 00 00 00 00 FF FF 58 46 FF FF 58 46 C8 46
2026-07-24T17:49:12.064870+00:00 TX 01 03 00 20 00 02 C5 C1
2026-07-24T17:49:12.073470+00:00 RX 01 03 04 00 00 06 C2 78 02
2026-07-24T17:49:12.075471+00:00 TX 01 03 01 C4 00 01 C4 0B
2026-07-24T17:49:12.082105+00:00 RX 01 03 02 00 00 B8 44
2026-07-24T17:49:12.133458+00:00 TX 01 03 00 00 00 20 44 12
2026-07-24T17:49:12.178467+00:00 RX 01 03 40 00 00 00 00 00 03 00 00 00 03 00 00 00 00 00 00 00 00 00 00 00 00 00 00 00 01 00 00 01 00 05 0A 00 00 00 00 00 00 00 00 00 00 00 00 00 00 00 00 00 00 00 00 00 00 00 00 FF FF 55 79 FF FF 55 79 99 DE
2026-07-24T17:49:12.181468+00:00 TX 01 03 00 20 00 02 C5 C1
2026-07-24T17:49:12.190470+00:00 RX 01 03 04 00 00 06 C3 B9 C2
2026-07-24T17:49:12.192470+00:00 TX 01 03 01 C4 00 01 C4 0B
2026-07-24T17:49:12.198973+00:00 RX 01 03 02 00 00 B8 44
2026-07-24T17:49:12.249336+00:00 TX 01 03 00 00 00 20 44 12
2026-07-24T17:49:12.295377+00:00 RX 01 03 40 00 00 00 00 00 03 00 00 00 03 00 00 00 00 00 00 00 00 00 00 00 00 00 00 00 01 00 00 01 00 05 0A 00 00 00 00 00 00 00 00 00 00 00 00 00 00 00 00 00 00 00 00 00 00 00 00 FF FF 54 8A FF FF 54 8A DD CF
2026-07-24T17:49:12.297378+00:00 TX 01 03 00 20 00 02 C5 C1
2026-07-24T17:49:12.305377+00:00 RX 01 03 04 00 00 06 C4 F8 00
2026-07-24T17:49:12.307377+00:00 TX 01 03 01 C4 00 01 C4 0B
2026-07-24T17:49:12.314379+00:00 RX 01 03 02 00 00 B8 44
2026-07-24T17:49:12.364960+00:00 TX 01 03 00 00 00 20 44 12
2026-07-24T17:49:12.410939+00:00 RX 01 03 40 00 00 00 00 00 03 00 00 00 03 00 00 00 00 00 00 00 00 00 00 00 00 00 00 00 01 00 00 01 00 05 0A 00 00 00 00 00 00 00 00 00 00 00 00 00 00 00 00 00 00 00 00 00 00 00 00 FF FF 55 87 FF FF 55 87 31 8A
2026-07-24T17:49:12.412939+00:00 TX 01 03 00 20 00 02 C5 C1
2026-07-24T17:49:12.420442+00:00 RX 01 03 04 00 00 06 C5 39 C0
2026-07-24T17:49:12.423442+00:00 TX 01 03 01 C4 00 01 C4 0B
2026-07-24T17:49:12.430444+00:00 RX 01 03 02 00 00 B8 44
2026-07-24T17:49:12.480731+00:00 TX 01 03 00 00 00 20 44 12
2026-07-24T17:49:12.525406+00:00 RX 01 03 40 00 00 00 00 00 03 00 00 00 03 00 00 00 00 00 00 00 00 00 00 00 00 00 00 00 01 00 00 01 00 05 0A 00 00 00 00 00 00 00 00 00 00 00 00 00 00 00 00 00 00 00 00 00 00 00 00 FF FF 56 CE FF FF 56 CE 2D 71
2026-07-24T17:49:12.527406+00:00 TX 01 03 00 20 00 02 C5 C1
2026-07-24T17:49:12.535436+00:00 RX 01 03 04 00 00 06 C6 79 C1
2026-07-24T17:49:12.537437+00:00 TX 01 03 01 C4 00 01 C4 0B
2026-07-24T17:49:12.543940+00:00 RX 01 03 02 00 00 B8 44
2026-07-24T17:49:12.594401+00:00 TX 01 03 00 00 00 20 44 12
2026-07-24T17:49:12.638946+00:00 RX 01 03 40 00 00 00 00 00 03 00 00 00 03 00 00 00 00 00 00 00 00 00 00 00 00 00 00 00 01 00 00 01 00 05 0A 00 00 00 00 00 00 00 00 00 00 00 00 00 00 00 00 00 00 00 00 00 00 00 00 FF FF 58 C4 FF FF 58 C4 30 39
2026-07-24T17:49:12.640946+00:00 TX 01 03 00 20 00 02 C5 C1
2026-07-24T17:49:12.648948+00:00 RX 01 03 04 00 00 06 C8 F8 05
2026-07-24T17:49:12.650949+00:00 TX 01 03 01 C4 00 01 C4 0B
2026-07-24T17:49:12.657669+00:00 RX 01 03 02 00 00 B8 44
2026-07-24T17:49:12.708204+00:00 TX 01 03 00 00 00 20 44 12
2026-07-24T17:49:12.753247+00:00 RX 01 03 40 00 00 00 00 00 03 00 00 00 03 00 00 00 00 00 00 00 00 00 00 00 00 00 00 00 01 00 00 01 00 05 0A 00 00 00 00 00 00 00 00 00 00 00 00 00 00 00 00 00 00 00 00 00 00 00 00 FF FF 57 94 FF FF 57 94 F5 06
2026-07-24T17:49:12.756847+00:00 TX 01 03 00 20 00 02 C5 C1
2026-07-24T17:49:12.764849+00:00 RX 01 03 04 00 00 06 C9 39 C5
2026-07-24T17:49:12.766850+00:00 TX 01 03 01 C4 00 01 C4 0B
2026-07-24T17:49:12.772851+00:00 RX 01 03 02 00 00 B8 44
2026-07-24T17:49:12.823373+00:00 TX 01 03 00 00 00 20 44 12
2026-07-24T17:49:12.869384+00:00 RX 01 03 40 00 00 00 00 00 03 00 00 00 03 00 00 00 00 00 00 00 00 00 00 00 00 00 00 00 01 00 00 01 00 05 0A 00 00 00 00 00 00 00 00 00 00 00 00 00 00 00 00 00 00 00 00 00 00 00 00 FF FF 58 24 FF FF 58 24 B0 67
2026-07-24T17:49:12.871384+00:00 TX 01 03 00 20 00 02 C5 C1
2026-07-24T17:49:12.879386+00:00 RX 01 03 04 00 00 06 CA 79 C4
2026-07-24T17:49:12.881387+00:00 TX 01 03 01 C4 00 01 C4 0B
2026-07-24T17:49:12.887389+00:00 RX 01 03 02 00 00 B8 44
2026-07-24T17:49:12.938432+00:00 TX 01 03 00 00 00 20 44 12
2026-07-24T17:49:12.982457+00:00 RX 01 03 40 00 00 00 00 00 03 00 00 00 03 00 00 00 00 00 00 00 00 00 00 00 00 00 00 00 01 00 00 01 00 05 0A 00 00 00 00 00 00 00 00 00 00 00 00 00 00 00 00 00 00 00 00 00 00 00 00 FF FF 57 9C FF FF 57 9C 15 01
2026-07-24T17:49:12.985458+00:00 TX 01 03 00 20 00 02 C5 C1
2026-07-24T17:49:12.993461+00:00 RX 01 03 04 00 00 06 CB B8 04
2026-07-24T17:49:12.995964+00:00 TX 01 03 01 C4 00 01 C4 0B
2026-07-24T17:49:13.002962+00:00 RX 01 03 02 00 00 B8 44
2026-07-24T17:49:13.053475+00:00 TX 01 03 00 00 00 20 44 12
2026-07-24T17:49:13.098002+00:00 RX 01 03 40 00 00 00 00 00 03 00 00 00 03 00 00 00 00 00 00 00 00 00 00 00 00 00 00 00 01 00 00 01 00 05 0A 00 00 00 00 00 00 00 00 00 00 00 00 00 00 00 00 00 00 00 00 00 00 00 00 FF FF 59 52 FF FF 59 52 F8 0B
2026-07-24T17:49:13.101003+00:00 TX 01 03 00 20 00 02 C5 C1
2026-07-24T17:49:13.108714+00:00 RX 01 03 04 00 00 06 CC F9 C6
2026-07-24T17:49:13.112254+00:00 TX 01 03 01 C4 00 01 C4 0B
2026-07-24T17:49:13.119757+00:00 RX 01 03 02 00 00 B8 44
2026-07-24T17:49:13.169857+00:00 TX 01 03 00 00 00 20 44 12
2026-07-24T17:49:13.215363+00:00 RX 01 03 40 00 00 00 00 00 03 00 00 00 03 00 00 00 00 00 00 00 00 00 00 00 00 00 00 00 01 00 00 01 00 05 0A 00 00 00 00 00 00 00 00 00 00 00 00 00 00 00 00 00 00 00 00 00 00 00 00 FF FF 5A 77 FF FF 5A 77 74 D4
2026-07-24T17:49:13.217868+00:00 TX 01 03 00 20 00 02 C5 C1
2026-07-24T17:49:13.225867+00:00 RX 01 03 04 00 00 06 CE 78 07
2026-07-24T17:49:13.227867+00:00 TX 01 03 01 C4 00 01 C4 0B
2026-07-24T17:49:13.234869+00:00 RX 01 03 02 00 00 B8 44
2026-07-24T17:49:13.284880+00:00 TX 01 03 00 00 00 20 44 12
2026-07-24T17:49:13.330386+00:00 RX 01 03 40 00 00 00 00 00 03 00 00 00 03 00 00 00 00 00 00 00 00 00 00 00 00 00 00 00 01 00 00 01 00 05 0A 00 00 00 00 00 00 00 00 00 00 00 00 00 00 00 00 00 00 00 00 00 00 00 00 FF FF 5B 21 FF FF 5B 21 BC A7
2026-07-24T17:49:13.332387+00:00 TX 01 03 00 20 00 02 C5 C1
2026-07-24T17:49:13.340389+00:00 RX 01 03 04 00 00 06 CF B9 C7
2026-07-24T17:49:13.342890+00:00 TX 01 03 01 C4 00 01 C4 0B
2026-07-24T17:49:13.349892+00:00 RX 01 03 02 00 00 B8 44
2026-07-24T17:49:13.400401+00:00 TX 01 03 00 00 00 20 44 12
2026-07-24T17:49:13.444917+00:00 RX 01 03 40 00 00 00 00 00 03 00 00 00 03 00 00 00 00 00 00 00 00 00 00 00 00 00 00 00 01 00 00 01 00 05 0A 00 00 00 00 00 00 00 00 00 00 00 00 00 00 00 00 00 00 00 00 00 00 00 00 FF FF 59 CD FF FF 59 CD 2C 7F
2026-07-24T17:49:13.447917+00:00 TX 01 03 00 20 00 02 C5 C1
2026-07-24T17:49:13.455919+00:00 RX 01 03 04 00 00 06 D0 F8 0F
2026-07-24T17:49:13.457920+00:00 TX 01 03 01 C4 00 01 C4 0B
2026-07-24T17:49:13.463921+00:00 RX 01 03 02 00 00 B8 44
2026-07-24T17:49:13.515013+00:00 TX 01 03 00 00 00 20 44 12
2026-07-24T17:49:13.559803+00:00 RX 01 03 40 00 00 00 00 00 03 00 00 00 03 00 00 00 00 00 00 00 00 00 00 00 00 00 00 00 01 00 00 01 00 05 0A 00 00 00 00 00 00 00 00 00 00 00 00 00 00 00 00 00 00 00 00 00 00 00 00 FF FF 59 B8 FF FF 59 B8 60 53
2026-07-24T17:49:13.561804+00:00 TX 01 03 00 20 00 02 C5 C1
2026-07-24T17:49:13.569806+00:00 RX 01 03 04 00 00 06 D1 39 CF
2026-07-24T17:49:13.571807+00:00 TX 01 03 01 C4 00 01 C4 0B
2026-07-24T17:49:13.577808+00:00 RX 01 03 02 00 00 B8 44
2026-07-24T17:49:13.627816+00:00 TX 01 03 00 00 00 20 44 12
2026-07-24T17:49:13.672825+00:00 RX 01 03 40 00 00 00 00 00 03 00 00 00 03 00 00 00 00 00 00 00 00 00 00 00 00 00 00 00 01 00 00 01 00 05 0A 00 00 00 00 00 00 00 00 00 00 00 00 00 00 00 00 00 00 00 00 00 00 00 00 FF FF 59 B7 FF FF 59 B7 74 56
2026-07-24T17:49:13.674827+00:00 TX 01 03 00 20 00 02 C5 C1
2026-07-24T17:49:13.682827+00:00 RX 01 03 04 00 00 06 D2 79 CE
2026-07-24T17:49:13.684828+00:00 TX 01 03 01 C4 00 01 C4 0B
2026-07-24T17:49:13.691830+00:00 RX 01 03 02 00 00 B8 44
2026-07-24T17:49:13.742367+00:00 TX 01 03 00 00 00 20 44 12
2026-07-24T17:49:13.786592+00:00 RX 01 03 40 00 00 00 00 00 03 00 00 00 03 00 00 00 00 00 00 00 00 00 00 00 00 00 00 00 01 00 00 01 00 05 0A 00 00 00 00 00 00 00 00 00 00 00 00 00 00 00 00 00 00 00 00 00 00 00 00 FF FF 59 C2 FF FF 59 C2 38 7A
2026-07-24T17:49:13.789592+00:00 TX 01 03 00 20 00 02 C5 C1
2026-07-24T17:49:13.797095+00:00 RX 01 03 04 00 00 06 D3 B8 0E
2026-07-24T17:49:13.799096+00:00 TX 01 03 01 C4 00 01 C4 0B
2026-07-24T17:49:13.805094+00:00 RX 01 03 02 00 00 B8 44
2026-07-24T17:49:13.855607+00:00 TX 01 03 00 00 00 20 44 12
2026-07-24T17:49:13.900618+00:00 RX 01 03 40 00 00 00 00 00 03 00 00 00 03 00 00 00 00 00 00 00 00 00 00 00 00 00 00 00 01 00 00 01 00 05 0A 00 00 00 00 00 00 00 00 00 00 00 00 00 00 00 00 00 00 00 00 00 00 00 00 FF FF 5B 18 FF FF 5B 18 E0 B0
2026-07-24T17:49:13.902618+00:00 TX 01 03 00 20 00 02 C5 C1
2026-07-24T17:49:13.910617+00:00 RX 01 03 04 00 00 06 D4 F9 CC
2026-07-24T17:49:13.912617+00:00 TX 01 03 01 C4 00 01 C4 0B
2026-07-24T17:49:13.918619+00:00 RX 01 03 02 00 00 B8 44
2026-07-24T17:49:13.968631+00:00 TX 01 03 00 00 00 20 44 12
2026-07-24T17:49:14.013399+00:00 RX 01 03 40 00 00 00 00 00 03 00 00 00 03 00 00 00 00 00 00 00 00 00 00 00 00 00 00 00 01 00 00 01 00 05 0A 00 00 00 00 00 00 00 00 00 00 00 00 00 00 00 00 00 00 00 00 00 00 00 00 FF FF 5D 13 FF FF 5D 13 07 70
2026-07-24T17:49:14.016400+00:00 TX 01 03 00 20 00 02 C5 C1
2026-07-24T17:49:14.023902+00:00 RX 01 03 04 00 00 06 D6 78 0D
2026-07-24T17:49:14.025903+00:00 TX 01 03 01 C4 00 01 C4 0B
2026-07-24T17:49:14.031905+00:00 RX 01 03 02 00 00 B8 44
2026-07-24T17:49:14.081916+00:00 TX 01 03 00 00 00 20 44 12
2026-07-24T17:49:14.127461+00:00 RX 01 03 40 00 00 00 00 00 03 00 00 00 03 00 00 00 00 00 00 00 00 00 00 00 00 00 00 00 01 00 00 01 00 05 0A 00 00 00 00 00 00 00 00 00 00 00 00 00 00 00 00 00 00 00 00 00 00 00 00 FF FF 59 F8 FF FF 59 F8 60 6C
2026-07-24T17:49:14.130458+00:00 TX 01 03 00 20 00 02 C5 C1
2026-07-24T17:49:14.137461+00:00 RX 01 03 04 00 00 06 D7 B9 CD
2026-07-24T17:49:14.140461+00:00 TX 01 03 01 C4 00 01 C4 0B
2026-07-24T17:49:14.147016+00:00 RX 01 03 02 00 00 B8 44
2026-07-24T17:49:14.197074+00:00 TX 01 03 00 00 00 20 44 12
2026-07-24T17:49:14.241921+00:00 RX 01 03 40 00 00 00 00 00 03 00 00 00 03 00 00 00 00 00 00 00 00 00 00 00 00 00 00 00 01 00 00 01 00 05 0A 00 00 00 00 00 00 00 00 00 00 00 00 00 00 00 00 00 00 00 00 00 00 00 00 FF FF 5A 36 FF FF 5A 36 88 EB
2026-07-24T17:49:14.243922+00:00 TX 01 03 00 20 00 02 C5 C1
2026-07-24T17:49:14.251924+00:00 RX 01 03 04 00 00 06 D8 F9 C9
2026-07-24T17:49:14.254924+00:00 TX 01 03 01 C4 00 01 C4 0B
2026-07-24T17:49:14.260925+00:00 RX 01 03 02 00 00 B8 44
2026-07-24T17:49:14.311935+00:00 TX 01 03 00 00 00 20 44 12
2026-07-24T17:49:14.356946+00:00 RX 01 03 40 00 00 00 00 00 03 00 00 00 03 00 00 00 00 00 00 00 00 00 00 00 00 00 00 00 01 00 00 01 00 05 0A 00 00 00 00 00 00 00 00 00 00 00 00 00 00 00 00 00 00 00 00 00 00 00 00 FF FF 59 2E FF FF 59 2E A8 20
2026-07-24T17:49:14.358946+00:00 TX 01 03 00 20 00 02 C5 C1
2026-07-24T17:49:14.366948+00:00 RX 01 03 04 00 00 06 D9 38 09
2026-07-24T17:49:14.368949+00:00 TX 01 03 01 C4 00 01 C4 0B
2026-07-24T17:49:14.374950+00:00 RX 01 03 02 00 00 B8 44
2026-07-24T17:49:14.425957+00:00 TX 01 03 00 00 00 20 44 12
2026-07-24T17:49:14.469968+00:00 RX 01 03 40 00 00 00 00 00 03 00 00 00 03 00 00 00 00 00 00 00 00 00 00 00 00 00 00 00 01 00 00 01 00 05 0A 00 00 00 00 00 00 00 00 00 00 00 00 00 00 00 00 00 00 00 00 00 00 00 00 FF FF 5B 4F FF FF 5B 4F D4 82
2026-07-24T17:49:14.472968+00:00 TX 01 03 00 20 00 02 C5 C1
2026-07-24T17:49:14.480970+00:00 RX 01 03 04 00 00 06 DA 78 08
2026-07-24T17:49:14.482970+00:00 TX 01 03 01 C4 00 01 C4 0B
2026-07-24T17:49:14.489969+00:00 RX 01 03 02 00 00 B8 44
2026-07-24T17:49:14.540573+00:00 TX 01 03 00 00 00 20 44 12
2026-07-24T17:49:14.585081+00:00 RX 01 03 40 00 00 00 00 00 03 00 00 00 03 00 00 00 00 00 00 00 00 00 00 00 00 00 00 00 01 00 00 01 00 05 0A 00 00 00 00 00 00 00 00 00 00 00 00 00 00 00 00 00 00 00 00 00 00 00 00 FF FF 5C AC FF FF 5C AC 53 5A
2026-07-24T17:49:14.587082+00:00 TX 01 03 00 20 00 02 C5 C1
2026-07-24T17:49:14.595083+00:00 RX 01 03 04 00 00 06 DB B9 C8
2026-07-24T17:49:14.597588+00:00 TX 01 03 01 C4 00 01 C4 0B
2026-07-24T17:49:14.603586+00:00 RX 01 03 02 00 00 B8 44
2026-07-24T17:49:14.654207+00:00 TX 01 03 00 00 00 20 44 12
2026-07-24T17:49:14.699218+00:00 RX 01 03 40 00 00 00 00 00 03 00 00 00 03 00 00 00 00 00 00 00 00 00 00 00 00 00 00 00 01 00 00 01 00 05 0A 00 00 00 00 00 00 00 00 00 00 00 00 00 00 00 00 00 00 00 00 00 00 00 00 FF FF 5D 68 FF FF 5D 68 A3 59
2026-07-24T17:49:14.702218+00:00 TX 01 03 00 20 00 02 C5 C1
2026-07-24T17:49:14.710743+00:00 RX 01 03 04 00 00 06 DD 39 CA
2026-07-24T17:49:14.712743+00:00 TX 01 03 01 C4 00 01 C4 0B
2026-07-24T17:49:14.719745+00:00 RX 01 03 02 00 00 B8 44
2026-07-24T17:49:14.769789+00:00 TX 01 03 00 00 00 20 44 12
2026-07-24T17:49:14.815295+00:00 RX 01 03 40 00 00 00 00 00 03 00 00 00 03 00 00 00 00 00 00 00 00 00 00 00 00 00 00 00 01 00 00 01 00 05 0A 00 00 00 00 00 00 00 00 00 00 00 00 00 00 00 00 00 00 00 00 00 00 00 00 FF FF 5E 87 FF FF 5E 87 37 C1
2026-07-24T17:49:14.817296+00:00 TX 01 03 00 20 00 02 C5 C1
2026-07-24T17:49:14.824799+00:00 RX 01 03 04 00 00 06 DE 79 CB
2026-07-24T17:49:14.826799+00:00 TX 01 03 01 C4 00 01 C4 0B
2026-07-24T17:49:14.832800+00:00 RX 01 03 02 00 00 B8 44
2026-07-24T17:49:14.882812+00:00 TX 01 03 00 00 00 20 44 12
2026-07-24T17:49:14.927321+00:00 RX 01 03 40 00 00 00 00 00 03 00 00 00 03 00 00 00 00 00 00 00 00 00 00 00 00 00 00 00 01 00 00 01 00 05 0A 00 00 00 00 00 00 00 00 00 00 00 00 00 00 00 00 00 00 00 00 00 00 00 00 FF FF 5E C1 FF FF 5E C1 3F FC
2026-07-24T17:49:14.931319+00:00 TX 01 03 00 20 00 02 C5 C1
2026-07-24T17:49:14.939321+00:00 RX 01 03 04 00 00 06 DF B8 0B
2026-07-24T17:49:14.941321+00:00 TX 01 03 01 C4 00 01 C4 0B
2026-07-24T17:49:14.947825+00:00 RX 01 03 02 00 00 B8 44
2026-07-24T17:49:14.998339+00:00 TX 01 03 00 00 00 20 44 12
2026-07-24T17:49:15.042844+00:00 RX 01 03 40 00 00 00 00 00 03 00 00 00 03 00 00 00 00 00 00 00 00 00 00 00 00 00 00 00 01 00 00 01 00 05 0A 00 00 00 00 00 00 00 00 00 00 00 00 00 00 00 00 00 00 00 00 00 00 00 00 FF FF 61 18 FF FF 61 18 F7 4A
2026-07-24T17:49:15.044845+00:00 TX 01 03 00 20 00 02 C5 C1
2026-07-24T17:49:15.052847+00:00 RX 01 03 04 00 00 06 E0 F8 1B
2026-07-24T17:49:15.055847+00:00 TX 01 03 01 C4 00 01 C4 0B
2026-07-24T17:49:15.061848+00:00 RX 01 03 02 00 00 B8 44
2026-07-24T17:49:15.113822+00:00 TX 01 03 00 00 00 20 44 12
2026-07-24T17:49:15.157923+00:00 RX 01 03 40 00 00 00 00 00 03 00 00 00 03 00 00 00 00 00 00 00 00 00 00 00 00 00 00 00 01 00 00 01 00 05 0A 00 00 00 00 00 00 00 00 00 00 00 00 00 00 00 00 00 00 00 00 00 00 00 00 FF FF 5E EB FF FF 5E EB A7 E5
2026-07-24T17:49:15.160924+00:00 TX 01 03 00 20 00 02 C5 C1
2026-07-24T17:49:15.168926+00:00 RX 01 03 04 00 00 06 E1 39 DB
2026-07-24T17:49:15.170926+00:00 TX 01 03 01 C4 00 01 C4 0B
2026-07-24T17:49:15.176927+00:00 RX 01 03 02 00 00 B8 44
2026-07-24T17:49:15.227936+00:00 TX 01 03 00 00 00 20 44 12
2026-07-24T17:49:15.271946+00:00 RX 01 03 40 00 00 00 00 00 03 00 00 00 03 00 00 00 00 00 00 00 00 00 00 00 00 00 00 00 01 00 00 01 00 05 0A 00 00 00 00 00 00 00 00 00 00 00 00 00 00 00 00 00 00 00 00 00 00 00 00 FF FF 5E A4 FF FF 5E A4 B3 DF
2026-07-24T17:49:15.274947+00:00 TX 01 03 00 20 00 02 C5 C1
2026-07-24T17:49:15.282948+00:00 RX 01 03 04 00 00 06 E2 79 DA
2026-07-24T17:49:15.284949+00:00 TX 01 03 01 C4 00 01 C4 0B
2026-07-24T17:49:15.290950+00:00 RX 01 03 02 00 00 B8 44
2026-07-24T17:49:15.342458+00:00 TX 01 03 00 00 00 20 44 12
2026-07-24T17:49:15.388350+00:00 RX 01 03 40 00 00 00 00 00 03 00 00 00 03 00 00 00 00 00 00 00 00 00 00 00 00 00 00 00 01 00 00 01 00 05 0A 00 00 00 00 00 00 00 00 00 00 00 00 00 00 00 00 00 00 00 00 00 00 00 00 FF FF 5E 00 FF FF 5E 00 C3 BD
2026-07-24T17:49:15.390351+00:00 TX 01 03 00 20 00 02 C5 C1
2026-07-24T17:49:15.397352+00:00 RX 01 03 04 00 00 06 E4 F9 D8
2026-07-24T17:49:15.399855+00:00 TX 01 03 01 C4 00 01 C4 0B
2026-07-24T17:49:15.405856+00:00 RX 01 03 02 00 00 B8 44
2026-07-24T17:49:15.457365+00:00 TX 01 03 00 00 00 20 44 12
2026-07-24T17:49:15.502372+00:00 RX 01 03 40 00 00 00 00 00 03 00 00 00 03 00 00 00 00 00 00 00 00 00 00 00 00 00 00 00 01 00 00 01 00 05 0A 00 00 00 00 00 00 00 00 00 00 00 00 00 00 00 00 00 00 00 00 00 00 00 00 FF FF 5C AF FF FF 5C AF 57 5B
2026-07-24T17:49:15.504874+00:00 TX 01 03 00 20 00 02 C5 C1
2026-07-24T17:49:15.512874+00:00 RX 01 03 04 00 00 06 E5 38 18
2026-07-24T17:49:15.514875+00:00 TX 01 03 01 C4 00 01 C4 0B
2026-07-24T17:49:15.521876+00:00 RX 01 03 02 00 00 B8 44
2026-07-24T17:49:15.571884+00:00 TX 01 03 00 00 00 20 44 12
2026-07-24T17:49:15.616427+00:00 RX 01 03 40 00 00 00 00 00 03 00 00 00 03 00 00 00 00 00 00 00 00 00 00 00 00 00 00 00 01 00 00 01 00 05 0A 00 00 00 00 00 00 00 00 00 00 00 00 00 00 00 00 00 00 00 00 00 00 00 00 FF FF 5C 1D FF FF 5C 1D EF 34
2026-07-24T17:49:15.619428+00:00 TX 01 03 00 20 00 02 C5 C1
2026-07-24T17:49:15.626975+00:00 RX 01 03 04 00 00 06 E6 78 19
2026-07-24T17:49:15.629015+00:00 TX 01 03 01 C4 00 01 C4 0B
2026-07-24T17:49:15.635013+00:00 RX 01 03 02 00 00 B8 44
2026-07-24T17:49:15.686025+00:00 TX 01 03 00 00 00 20 44 12
2026-07-24T17:49:15.731079+00:00 RX 01 03 40 00 00 00 00 00 03 00 00 00 03 00 00 00 00 00 00 00 00 00 00 00 00 00 00 00 01 00 00 01 00 05 0A 00 00 00 00 00 00 00 00 00 00 00 00 00 00 00 00 00 00 00 00 00 00 00 00 FF FF 59 D8 FF FF 59 D8 E0 73
2026-07-24T17:49:15.734077+00:00 TX 01 03 00 20 00 02 C5 C1
2026-07-24T17:49:15.742078+00:00 RX 01 03 04 00 00 06 E7 B9 D9
2026-07-24T17:49:15.744079+00:00 TX 01 03 01 C4 00 01 C4 0B
2026-07-24T17:49:15.750583+00:00 RX 01 03 02 00 00 B8 44
2026-07-24T17:49:15.801132+00:00 TX 01 03 00 00 00 20 44 12
2026-07-24T17:49:15.845640+00:00 RX 01 03 40 00 00 00 00 00 03 00 00 00 03 00 00 00 00 00 00 00 00 00 00 00 00 00 00 00 01 00 00 01 00 05 0A 00 00 00 00 00 00 00 00 00 00 00 00 00 00 00 00 00 00 00 00 00 00 00 00 FF FF 5B 4E FF FF 5B 4E 28 82
2026-07-24T17:49:15.849641+00:00 TX 01 03 00 20 00 02 C5 C1
2026-07-24T17:49:15.857643+00:00 RX 01 03 04 00 00 06 E8 F9 DD
2026-07-24T17:49:15.859643+00:00 TX 01 03 01 C4 00 01 C4 0B
2026-07-24T17:49:15.865645+00:00 RX 01 03 02 00 00 B8 44
2026-07-24T17:49:15.916554+00:00 TX 01 03 00 00 00 20 44 12
2026-07-24T17:49:15.961260+00:00 RX 01 03 40 00 00 00 00 00 03 00 00 00 03 00 00 00 00 00 00 00 00 00 00 00 00 00 00 00 01 00 00 01 00 05 0A 00 00 00 00 00 00 00 00 00 00 00 00 00 00 00 00 00 00 00 00 00 00 00 00 FF FF 5C 85 FF FF 5C 85 CF 42
2026-07-24T17:49:15.963261+00:00 TX 01 03 00 20 00 02 C5 C1
2026-07-24T17:49:15.971263+00:00 RX 01 03 04 00 00 06 E9 38 1D
2026-07-24T17:49:15.973263+00:00 TX 01 03 01 C4 00 01 C4 0B
2026-07-24T17:49:15.980265+00:00 RX 01 03 02 00 00 B8 44
2026-07-24T17:49:16.030272+00:00 TX 01 03 00 00 00 20 44 12
2026-07-24T17:49:16.075283+00:00 RX 01 03 40 00 00 00 00 00 03 00 00 00 03 00 00 00 00 00 00 00 00 00 00 00 00 00 00 00 01 00 00 01 00 05 0A 00 00 00 00 00 00 00 00 00 00 00 00 00 00 00 00 00 00 00 00 00 00 00 00 FF FF 5B 70 FF FF 5B 70 80 97
2026-07-24T17:49:16.077283+00:00 TX 01 03 00 20 00 02 C5 C1
2026-07-24T17:49:16.084806+00:00 RX 01 03 04 00 00 06 EB B9 DC
2026-07-24T17:49:16.086806+00:00 TX 01 03 01 C4 00 01 C4 0B
2026-07-24T17:49:16.092807+00:00 RX 01 03 02 00 00 B8 44
2026-07-24T17:49:16.144341+00:00 TX 01 03 00 00 00 20 44 12
2026-07-24T17:49:16.188921+00:00 RX 01 03 40 00 00 00 00 00 03 00 00 00 03 00 00 00 00 00 00 00 00 00 00 00 00 00 00 00 01 00 00 01 00 05 0A 00 00 00 00 00 00 00 00 00 00 00 00 00 00 00 00 00 00 00 00 00 00 00 00 FF FF 5A CA FF FF 5A CA D8 BE
2026-07-24T17:49:16.191922+00:00 TX 01 03 00 20 00 02 C5 C1
2026-07-24T17:49:16.199428+00:00 RX 01 03 04 00 00 06 EC F8 1E
2026-07-24T17:49:16.202425+00:00 TX 01 03 01 C4 00 01 C4 0B
2026-07-24T17:49:16.209427+00:00 RX 01 03 02 00 00 B8 44
2026-07-24T17:49:16.260040+00:00 TX 01 03 00 00 00 20 44 12
2026-07-24T17:49:16.305050+00:00 RX 01 03 40 00 00 00 00 00 03 00 00 00 03 00 00 00 00 00 00 00 00 00 00 00 00 00 00 00 01 00 00 01 00 05 0A 00 00 00 00 00 00 00 00 00 00 00 00 00 00 00 00 00 00 00 00 00 00 00 00 FF FF 59 81 FF FF 59 81 3C 44
2026-07-24T17:49:16.309052+00:00 TX 01 03 00 20 00 02 C5 C1
2026-07-24T17:49:16.317051+00:00 RX 01 03 04 00 00 06 ED 39 DE
2026-07-24T17:49:16.319051+00:00 TX 01 03 01 C4 00 01 C4 0B
2026-07-24T17:49:16.325053+00:00 RX 01 03 02 00 00 B8 44
2026-07-24T17:49:16.375064+00:00 TX 01 03 00 00 00 20 44 12
2026-07-24T17:49:16.419570+00:00 RX 01 03 40 00 00 00 00 00 03 00 00 00 03 00 00 00 00 00 00 00 00 00 00 00 00 00 00 00 01 00 00 01 00 05 0A 00 00 00 00 00 00 00 00 00 00 00 00 00 00 00 00 00 00 00 00 00 00 00 00 FF FF 59 FB FF FF 59 FB 64 6D
2026-07-24T17:49:16.421571+00:00 TX 01 03 00 20 00 02 C5 C1
2026-07-24T17:49:16.430073+00:00 RX 01 03 04 00 00 06 EE 79 DF
2026-07-24T17:49:16.432074+00:00 TX 01 03 01 C4 00 01 C4 0B
2026-07-24T17:49:16.439075+00:00 RX 01 03 02 00 00 B8 44
2026-07-24T17:49:16.489084+00:00 TX 01 03 00 00 00 20 44 12
2026-07-24T17:49:16.534862+00:00 RX 01 03 40 00 00 00 00 00 03 00 00 00 03 00 00 00 00 00 00 00 00 00 00 00 00 00 00 00 01 00 00 01 00 05 0A 00 00 00 00 00 00 00 00 00 00 00 00 00 00 00 00 00 00 00 00 00 00 00 00 FF FF 5A 4D FF FF 5A 4D 2C C2
2026-07-24T17:49:16.536862+00:00 TX 01 03 00 20 00 02 C5 C1
2026-07-24T17:49:16.544864+00:00 RX 01 03 04 00 00 06 EF B8 1F
2026-07-24T17:49:16.546865+00:00 TX 01 03 01 C4 00 01 C4 0B
2026-07-24T17:49:16.553368+00:00 RX 01 03 02 00 00 B8 44
2026-07-24T17:49:16.603877+00:00 TX 01 03 00 00 00 20 44 12
2026-07-24T17:49:16.648213+00:00 RX 01 03 40 00 00 00 00 00 03 00 00 00 03 00 00 00 00 00 00 00 00 00 00 00 00 00 00 00 01 00 00 01 00 05 0A 00 00 00 00 00 00 00 00 00 00 00 00 00 00 00 00 00 00 00 00 00 00 00 00 FF FF 59 48 FF FF 59 48 20 02
2026-07-24T17:49:16.650213+00:00 TX 01 03 00 20 00 02 C5 C1
2026-07-24T17:49:16.658215+00:00 RX 01 03 04 00 00 06 F0 F9 D7
2026-07-24T17:49:16.660216+00:00 TX 01 03 01 C4 00 01 C4 0B
2026-07-24T17:49:16.667217+00:00 RX 01 03 02 00 00 B8 44
2026-07-24T17:49:16.717771+00:00 TX 01 03 00 00 00 20 44 12
2026-07-24T17:49:16.761826+00:00 RX 01 03 40 00 00 00 00 00 03 00 00 00 03 00 00 00 00 00 00 00 00 00 00 00 00 00 00 00 01 00 00 01 00 05 0A 00 00 00 00 00 00 00 00 00 00 00 00 00 00 00 00 00 00 00 00 00 00 00 00 FF FF 57 D9 FF FF 57 D9 19 3D
2026-07-24T17:49:16.764827+00:00 TX 01 03 00 20 00 02 C5 C1
2026-07-24T17:49:16.772829+00:00 RX 01 03 04 00 00 06 F2 78 16
2026-07-24T17:49:16.774830+00:00 TX 01 03 01 C4 00 01 C4 0B
2026-07-24T17:49:16.780831+00:00 RX 01 03 02 00 00 B8 44
2026-07-24T17:49:16.831839+00:00 TX 01 03 00 00 00 20 44 12
2026-07-24T17:49:16.876849+00:00 RX 01 03 40 00 00 00 00 00 03 00 00 00 03 00 00 00 00 00 00 00 00 00 00 00 00 00 00 00 01 00 00 01 00 05 0A 00 00 00 00 00 00 00 00 00 00 00 00 00 00 00 00 00 00 00 00 00 00 00 00 FF FF 59 5B FF FF 59 5B E4 0C
2026-07-24T17:49:16.878850+00:00 TX 01 03 00 20 00 02 C5 C1
2026-07-24T17:49:16.886851+00:00 RX 01 03 04 00 00 06 F3 B9 D6
2026-07-24T17:49:16.888852+00:00 TX 01 03 01 C4 00 01 C4 0B
2026-07-24T17:49:16.894853+00:00 RX 01 03 02 00 00 B8 44
2026-07-24T17:49:16.944869+00:00 TX 01 03 00 00 00 20 44 12
2026-07-24T17:49:16.990378+00:00 RX 01 03 40 00 00 00 00 00 03 00 00 00 03 00 00 00 00 00 00 00 00 00 00 00 00 00 00 00 01 00 00 01 00 05 0A 00 00 00 00 00 00 00 00 00 00 00 00 00 00 00 00 00 00 00 00 00 00 00 00 FF FF 5A 81 FF FF 5A 81 3C 87
2026-07-24T17:49:16.992378+00:00 TX 01 03 00 20 00 02 C5 C1
2026-07-24T17:49:17.000380+00:00 RX 01 03 04 00 00 06 F4 F8 14
2026-07-24T17:49:17.002882+00:00 TX 01 03 01 C4 00 01 C4 0B
2026-07-24T17:49:17.009883+00:00 RX 01 03 02 00 00 B8 44
2026-07-24T17:49:17.059890+00:00 TX 01 03 00 00 00 20 44 12
2026-07-24T17:49:17.104432+00:00 RX 01 03 40 00 00 00 00 00 03 00 00 00 03 00 00 00 00 00 00 00 00 00 00 00 00 00 00 00 01 00 00 01 00 05 0A 00 00 00 00 00 00 00 00 00 00 00 00 00 00 00 00 00 00 00 00 00 00 00 00 FF FF 56 A6 FF FF 56 A6 4D 56
2026-07-24T17:49:17.107432+00:00 TX 01 03 00 20 00 02 C5 C1
2026-07-24T17:49:17.115431+00:00 RX 01 03 04 00 00 06 F5 39 D4
2026-07-24T17:49:17.117431+00:00 TX 01 03 01 C4 00 01 C4 0B
2026-07-24T17:49:17.123973+00:00 RX 01 03 02 00 00 B8 44
2026-07-24T17:49:17.174232+00:00 TX 01 03 00 00 00 20 44 12
2026-07-24T17:49:17.218737+00:00 RX 01 03 40 00 00 00 00 00 03 00 00 00 03 00 00 00 00 00 00 00 00 00 00 00 00 00 00 00 01 00 00 01 00 05 0A 00 00 00 00 00 00 00 00 00 00 00 00 00 00 00 00 00 00 00 00 00 00 00 00 FF FF 55 A3 FF FF 55 A3 41 96
2026-07-24T17:49:17.220737+00:00 TX 01 03 00 20 00 02 C5 C1
2026-07-24T17:49:17.228739+00:00 RX 01 03 04 00 00 06 F6 79 D5
2026-07-24T17:49:17.231241+00:00 TX 01 03 01 C4 00 01 C4 0B
2026-07-24T17:49:17.237242+00:00 RX 01 03 02 00 00 B8 44
2026-07-24T17:49:17.287924+00:00 TX 01 03 00 00 00 20 44 12
2026-07-24T17:49:17.332433+00:00 RX 01 03 40 00 00 00 00 00 03 00 00 00 03 00 00 00 00 00 00 00 00 00 00 00 00 00 00 00 01 00 00 01 00 05 0A 00 00 00 00 00 00 00 00 00 00 00 00 00 00 00 00 00 00 00 00 00 00 00 00 FF FF 57 F4 FF FF 57 F4 75 26
2026-07-24T17:49:17.336431+00:00 TX 01 03 00 20 00 02 C5 C1
2026-07-24T17:49:17.343433+00:00 RX 01 03 04 00 00 06 F7 B8 15
2026-07-24T17:49:17.346434+00:00 TX 01 03 01 C4 00 01 C4 0B
2026-07-24T17:49:17.352937+00:00 RX 01 03 02 00 00 B8 44
2026-07-24T17:49:17.403445+00:00 TX 01 03 00 00 00 20 44 12
2026-07-24T17:49:17.447955+00:00 RX 01 03 40 00 00 00 00 00 03 00 00 00 03 00 00 00 00 00 00 00 00 00 00 00 00 00 00 00 01 00 00 01 00 05 0A 00 00 00 00 00 00 00 00 00 00 00 00 00 00 00 00 00 00 00 00 00 00 00 00 FF FF 59 13 FF FF 59 13 04 34
2026-07-24T17:49:17.449956+00:00 TX 01 03 00 20 00 02 C5 C1
2026-07-24T17:49:17.457957+00:00 RX 01 03 04 00 00 06 F9 39 D1
2026-07-24T17:49:17.459958+00:00 TX 01 03 01 C4 00 01 C4 0B
2026-07-24T17:49:17.465959+00:00 RX 01 03 02 00 00 B8 44
2026-07-24T17:49:17.516006+00:00 TX 01 03 00 00 00 20 44 12
2026-07-24T17:49:17.561018+00:00 RX 01 03 40 00 00 00 00 00 03 00 00 00 03 00 00 00 00 00 00 00 00 00 00 00 00 00 00 00 01 00 00 01 00 05 0A 00 00 00 00 00 00 00 00 00 00 00 00 00 00 00 00 00 00 00 00 00 00 00 00 FF FF 59 21 FF FF 59 21 BC 25
2026-07-24T17:49:17.563021+00:00 TX 01 03 00 20 00 02 C5 C1
2026-07-24T17:49:17.571022+00:00 RX 01 03 04 00 00 06 FA 79 D0
2026-07-24T17:49:17.573023+00:00 TX 01 03 01 C4 00 01 C4 0B
2026-07-24T17:49:17.579527+00:00 RX 01 03 02 00 00 B8 44
2026-07-24T17:49:17.630073+00:00 TX 01 03 00 00 00 20 44 12
2026-07-24T17:49:17.675586+00:00 RX 01 03 40 00 00 00 00 00 03 00 00 00 03 00 00 00 00 00 00 00 00 00 00 00 00 00 00 00 01 00 00 01 00 05 0A 00 00 00 00 00 00 00 00 00 00 00 00 00 00 00 00 00 00 00 00 00 00 00 00 FF FF 57 45 FF FF 57 45 C9 48
2026-07-24T17:49:17.677587+00:00 TX 01 03 00 20 00 02 C5 C1
2026-07-24T17:49:17.685588+00:00 RX 01 03 04 00 00 06 FB B8 10
2026-07-24T17:49:17.687589+00:00 TX 01 03 01 C4 00 01 C4 0B
2026-07-24T17:49:17.693590+00:00 RX 01 03 02 00 00 B8 44
2026-07-24T17:49:17.743641+00:00 TX 01 03 00 00 00 20 44 12
2026-07-24T17:49:17.788182+00:00 RX 01 03 40 00 00 00 00 00 03 00 00 00 03 00 00 00 00 00 00 00 00 00 00 00 00 00 00 00 01 00 00 01 00 05 0A 00 00 00 00 00 00 00 00 00 00 00 00 00 00 00 00 00 00 00 00 00 00 00 00 FF FF 57 C4 FF FF 57 C4 35 36
2026-07-24T17:49:17.790183+00:00 TX 01 03 00 20 00 02 C5 C1
2026-07-24T17:49:17.798184+00:00 RX 01 03 04 00 00 06 FC F9 D2
2026-07-24T17:49:17.800185+00:00 TX 01 03 01 C4 00 01 C4 0B
2026-07-24T17:49:17.806687+00:00 RX 01 03 02 00 00 B8 44
2026-07-24T17:49:17.857197+00:00 TX 01 03 00 00 00 20 44 12
2026-07-24T17:49:17.901890+00:00 RX 01 03 40 00 00 00 00 00 03 00 00 00 03 00 00 00 00 00 00 00 00 00 00 00 00 00 00 00 01 00 00 01 00 05 0A 00 00 00 00 00 00 00 00 00 00 00 00 00 00 00 00 00 00 00 00 00 00 00 00 FF FF 57 26 FF FF 57 26 4D 69
2026-07-24T17:49:17.903891+00:00 TX 01 03 00 20 00 02 C5 C1
2026-07-24T17:49:17.911893+00:00 RX 01 03 04 00 00 06 FD 38 12
2026-07-24T17:49:17.914893+00:00 TX 01 03 01 C4 00 01 C4 0B
2026-07-24T17:49:17.920891+00:00 RX 01 03 02 00 00 B8 44
2026-07-24T17:49:17.970904+00:00 TX 01 03 00 00 00 20 44 12
2026-07-24T17:49:18.015412+00:00 RX 01 03 40 00 00 00 00 00 03 00 00 00 03 00 00 00 00 00 00 00 00 00 00 00 00 00 00 00 01 00 00 01 00 05 0A 00 00 00 00 00 00 00 00 00 00 00 00 00 00 00 00 00 00 00 00 00 00 00 00 FF FF 58 4B FF FF 58 4B 24 42
2026-07-24T17:49:18.017412+00:00 TX 01 03 00 20 00 02 C5 C1
2026-07-24T17:49:18.024410+00:00 RX 01 03 04 00 00 06 FE 78 13
2026-07-24T17:49:18.026411+00:00 TX 01 03 01 C4 00 01 C4 0B
2026-07-24T17:49:18.032917+00:00 RX 01 03 02 00 00 B8 44
2026-07-24T17:49:18.083152+00:00 TX 01 03 00 00 00 20 44 12
2026-07-24T17:49:18.128152+00:00 RX 01 03 40 00 00 00 00 00 03 00 00 00 03 00 00 00 00 00 00 00 00 00 00 00 00 00 00 00 01 00 00 01 00 05 0A 00 00 00 00 00 00 00 00 00 00 00 00 00 00 00 00 00 00 00 00 00 00 00 00 FF FF 5A 4E FF FF 5A 4E 28 C3
2026-07-24T17:49:18.130152+00:00 TX 01 03 00 20 00 02 C5 C1
2026-07-24T17:49:18.137652+00:00 RX 01 03 04 00 00 07 00 F8 03
2026-07-24T17:49:18.139652+00:00 TX 01 03 01 C4 00 01 C4 0B
2026-07-24T17:49:18.145283+00:00 RX 01 03 02 00 00 B8 44
2026-07-24T17:49:18.196797+00:00 TX 01 03 00 00 00 20 44 12
2026-07-24T17:49:18.241808+00:00 RX 01 03 40 00 00 00 00 00 03 00 00 00 03 00 00 00 00 00 00 00 00 00 00 00 00 00 00 00 01 00 00 01 00 05 0A 00 00 00 00 00 00 00 00 00 00 00 00 00 00 00 00 00 00 00 00 00 00 00 00 FF FF 59 73 FF FF 59 73 84 14
2026-07-24T17:49:18.243808+00:00 TX 01 03 00 20 00 02 C5 C1
2026-07-24T17:49:18.251810+00:00 RX 01 03 04 00 00 07 01 39 C3
2026-07-24T17:49:18.253810+00:00 TX 01 03 01 C4 00 01 C4 0B
2026-07-24T17:49:18.259812+00:00 RX 01 03 02 00 00 B8 44
2026-07-24T17:49:18.310331+00:00 TX 01 03 00 00 00 20 44 12
2026-07-24T17:49:18.354338+00:00 RX 01 03 40 00 00 00 00 00 03 00 00 00 03 00 00 00 00 00 00 00 00 00 00 00 00 00 00 00 01 00 00 01 00 05 0A 00 00 00 00 00 00 00 00 00 00 00 00 00 00 00 00 00 00 00 00 00 00 00 00 FF FF 59 97 FF FF 59 97 F4 49
2026-07-24T17:49:18.357339+00:00 TX 01 03 00 20 00 02 C5 C1
2026-07-24T17:49:18.364340+00:00 RX 01 03 04 00 00 07 02 79 C2
2026-07-24T17:49:18.367341+00:00 TX 01 03 01 C4 00 01 C4 0B
2026-07-24T17:49:18.373342+00:00 RX 01 03 02 00 00 B8 44
2026-07-24T17:49:18.424849+00:00 TX 01 03 00 00 00 20 44 12
2026-07-24T17:49:18.469360+00:00 RX 01 03 40 00 00 00 00 00 03 00 00 00 03 00 00 00 00 00 00 00 00 00 00 00 00 00 00 00 01 00 00 01 00 05 0A 00 00 00 00 00 00 00 00 00 00 00 00 00 00 00 00 00 00 00 00 00 00 00 00 FF FF 5A FF FF FF 5A FF 94 AD
2026-07-24T17:49:18.471361+00:00 TX 01 03 00 20 00 02 C5 C1
2026-07-24T17:49:18.479362+00:00 RX 01 03 04 00 00 07 03 B8 02
2026-07-24T17:49:18.481363+00:00 TX 01 03 01 C4 00 01 C4 0B
2026-07-24T17:49:18.487364+00:00 RX 01 03 02 00 00 B8 44
2026-07-24T17:49:18.537898+00:00 TX 01 03 00 00 00 20 44 12
2026-07-24T17:49:18.583102+00:00 RX 01 03 40 00 00 00 00 00 03 00 00 00 03 00 00 00 00 00 00 00 00 00 00 00 00 00 00 00 01 00 00 01 00 05 0A 00 00 00 00 00 00 00 00 00 00 00 00 00 00 00 00 00 00 00 00 00 00 00 00 FF FF 5A D3 FF FF 5A D3 04 B6
2026-07-24T17:49:18.585102+00:00 TX 01 03 00 20 00 02 C5 C1
2026-07-24T17:49:18.593102+00:00 RX 01 03 04 00 00 07 04 F9 C0
2026-07-24T17:49:18.596102+00:00 TX 01 03 01 C4 00 01 C4 0B
2026-07-24T17:49:18.602608+00:00 RX 01 03 02 00 00 B8 44
2026-07-24T17:49:18.652629+00:00 TX 01 03 00 00 00 20 44 12
2026-07-24T17:49:18.697639+00:00 RX 01 03 40 00 00 00 00 00 03 00 00 00 03 00 00 00 00 00 00 00 00 00 00 00 00 00 00 00 01 00 00 01 00 05 0A 00 00 00 00 00 00 00 00 00 00 00 00 00 00 00 00 00 00 00 00 00 00 00 00 FF FF 5B 29 FF FF 5B 29 5C A0
2026-07-24T17:49:18.699640+00:00 TX 01 03 00 20 00 02 C5 C1
2026-07-24T17:49:18.707164+00:00 RX 01 03 04 00 00 07 05 38 00
2026-07-24T17:49:18.709168+00:00 TX 01 03 01 C4 00 01 C4 0B
2026-07-24T17:49:18.716169+00:00 RX 01 03 02 00 00 B8 44
2026-07-24T17:49:18.766304+00:00 TX 01 03 00 00 00 20 44 12
2026-07-24T17:49:18.810814+00:00 RX 01 03 40 00 00 00 00 00 03 00 00 00 03 00 00 00 00 00 00 00 00 00 00 00 00 00 00 00 01 00 00 01 00 05 0A 00 00 00 00 00 00 00 00 00 00 00 00 00 00 00 00 00 00 00 00 00 00 00 00 FF FF 59 B6 FF FF 59 B6 88 56
2026-07-24T17:49:18.812814+00:00 TX 01 03 00 20 00 02 C5 C1
2026-07-24T17:49:18.820812+00:00 RX 01 03 04 00 00 07 06 78 01
2026-07-24T17:49:18.822813+00:00 TX 01 03 01 C4 00 01 C4 0B
2026-07-24T17:49:18.829814+00:00 RX 01 03 02 00 00 B8 44
2026-07-24T17:49:18.880328+00:00 TX 01 03 00 00 00 20 44 12
2026-07-24T17:49:18.925346+00:00 RX 01 03 40 00 00 00 00 00 03 00 00 00 03 00 00 00 00 00 00 00 00 00 00 00 00 00 00 00 01 00 00 01 00 05 0A 00 00 00 00 00 00 00 00 00 00 00 00 00 00 00 00 00 00 00 00 00 00 00 00 FF FF 58 9C FF FF 58 9C 10 0E
2026-07-24T17:49:18.927346+00:00 TX 01 03 00 20 00 02 C5 C1
2026-07-24T17:49:18.934348+00:00 RX 01 03 04 00 00 07 08 F9 C5
2026-07-24T17:49:18.936850+00:00 TX 01 03 01 C4 00 01 C4 0B
2026-07-24T17:49:18.942848+00:00 RX 01 03 02 00 00 B8 44
2026-07-24T17:49:18.994358+00:00 TX 01 03 00 00 00 20 44 12
2026-07-24T17:49:19.039370+00:00 RX 01 03 40 00 00 00 00 00 03 00 00 00 03 00 00 00 00 00 00 00 00 00 00 00 00 00 00 00 01 00 00 01 00 05 0A 00 00 00 00 00 00 00 00 00 00 00 00 00 00 00 00 00 00 00 00 00 00 00 00 FF FF 5A 6E FF FF 5A 6E A8 DC
2026-07-24T17:49:19.041371+00:00 TX 01 03 00 20 00 02 C5 C1
2026-07-24T17:49:19.049373+00:00 RX 01 03 04 00 00 07 09 38 05
2026-07-24T17:49:19.052373+00:00 TX 01 03 01 C4 00 01 C4 0B
2026-07-24T17:49:19.059374+00:00 RX 01 03 02 00 00 B8 44
2026-07-24T17:49:19.109917+00:00 TX 01 03 00 00 00 20 44 12
2026-07-24T17:49:19.153988+00:00 RX 01 03 40 00 00 00 00 00 03 00 00 00 03 00 00 00 00 00 00 00 00 00 00 00 00 00 00 00 01 00 00 01 00 05 0A 00 00 00 00 00 00 00 00 00 00 00 00 00 00 00 00 00 00 00 00 00 00 00 00 FF FF 5E 3A FF FF 5E 3A 9B AB
2026-07-24T17:49:19.155989+00:00 TX 01 03 00 20 00 02 C5 C1
2026-07-24T17:49:19.163991+00:00 RX 01 03 04 00 00 07 0A 78 04
2026-07-24T17:49:19.166528+00:00 TX 01 03 01 C4 00 01 C4 0B
2026-07-24T17:49:19.172529+00:00 RX 01 03 02 00 00 B8 44
2026-07-24T17:49:19.223037+00:00 TX 01 03 00 00 00 20 44 12
2026-07-24T17:49:19.268244+00:00 RX 01 03 40 00 00 00 00 00 03 00 00 00 03 00 00 00 00 00 00 00 00 00 00 00 00 00 00 00 01 00 00 01 00 05 0A 00 00 00 00 00 00 00 00 00 00 00 00 00 00 00 00 00 00 00 00 00 00 00 00 FF FF 5E 64 FF FF 5E 64 B3 9E
2026-07-24T17:49:19.271245+00:00 TX 01 03 00 20 00 02 C5 C1
2026-07-24T17:49:19.279246+00:00 RX 01 03 04 00 00 07 0B B9 C4
2026-07-24T17:49:19.281246+00:00 TX 01 03 01 C4 00 01 C4 0B
2026-07-24T17:49:19.287248+00:00 RX 01 03 02 00 00 B8 44
2026-07-24T17:49:19.337761+00:00 TX 01 03 00 00 00 20 44 12
2026-07-24T17:49:19.382306+00:00 RX 01 03 40 00 00 00 00 00 03 00 00 00 03 00 00 00 00 00 00 00 00 00 00 00 00 00 00 00 01 00 00 01 00 05 0A 00 00 00 00 00 00 00 00 00 00 00 00 00 00 00 00 00 00 00 00 00 00 00 00 FF FF 5F 54 FF FF 5F 54 F3 CF
2026-07-24T17:49:19.384306+00:00 TX 01 03 00 20 00 02 C5 C1
2026-07-24T17:49:19.393306+00:00 RX 01 03 04 00 00 07 0C F8 06
2026-07-24T17:49:19.395306+00:00 TX 01 03 01 C4 00 01 C4 0B
2026-07-24T17:49:19.401307+00:00 RX 01 03 02 00 00 B8 44
2026-07-24T17:49:19.451343+00:00 TX 01 03 00 00 00 20 44 12
2026-07-24T17:49:19.495351+00:00 RX 01 03 40 00 00 00 00 00 03 00 00 00 03 00 00 00 00 00 00 00 00 00 00 00 00 00 00 00 01 00 00 01 00 05 0A 00 00 00 00 00 00 00 00 00 00 00 00 00 00 00 00 00 00 00 00 00 00 00 00 FF FF 5E 9E FF FF 5E 9E EB C9
2026-07-24T17:49:19.499352+00:00 TX 01 03 00 20 00 02 C5 C1
2026-07-24T17:49:19.506855+00:00 RX 01 03 04 00 00 07 0D 39 C6
2026-07-24T17:49:19.508856+00:00 TX 01 03 01 C4 00 01 C4 0B
2026-07-24T17:49:19.514856+00:00 RX 01 03 02 00 00 B8 44
2026-07-24T17:49:19.564907+00:00 TX 01 03 00 00 00 20 44 12
2026-07-24T17:49:19.610415+00:00 RX 01 03 40 00 00 00 00 00 03 00 00 00 03 00 00 00 00 00 00 00 00 00 00 00 00 00 00 00 01 00 00 01 00 05 0A 00 00 00 00 00 00 00 00 00 00 00 00 00 00 00 00 00 00 00 00 00 00 00 00 FF FF 5E 3A FF FF 5E 3A 9B AB
2026-07-24T17:49:19.612416+00:00 TX 01 03 00 20 00 02 C5 C1
2026-07-24T17:49:19.620414+00:00 RX 01 03 04 00 00 07 0F B8 07
2026-07-24T17:49:19.622415+00:00 TX 01 03 01 C4 00 01 C4 0B
2026-07-24T17:49:19.628980+00:00 RX 01 03 02 00 00 B8 44
2026-07-24T17:49:19.679543+00:00 TX 01 03 00 00 00 20 44 12
2026-07-24T17:49:19.725066+00:00 RX 01 03 40 00 00 00 00 00 03 00 00 00 03 00 00 00 00 00 00 00 00 00 00 00 00 00 00 00 01 00 00 01 00 05 0A 00 00 00 00 00 00 00 00 00 00 00 00 00 00 00 00 00 00 00 00 00 00 00 00 FF FF 5D 8C FF FF 5D 8C D3 04
2026-07-24T17:49:19.727066+00:00 TX 01 03 00 20 00 02 C5 C1
2026-07-24T17:49:19.735068+00:00 RX 01 03 04 00 00 07 10 F9 CF
2026-07-24T17:49:19.737069+00:00 TX 01 03 01 C4 00 01 C4 0B
2026-07-24T17:49:19.743598+00:00 RX 01 03 02 00 00 B8 44
2026-07-24T17:49:19.793609+00:00 TX 01 03 00 00 00 20 44 12
2026-07-24T17:49:19.838623+00:00 RX 01 03 40 00 00 00 00 00 03 00 00 00 03 00 00 00 00 00 00 00 00 00 00 00 00 00 00 00 01 00 00 01 00 05 0A 00 00 00 00 00 00 00 00 00 00 00 00 00 00 00 00 00 00 00 00 00 00 00 00 FF FF 5E 33 FF FF 5E 33 87 AC
2026-07-24T17:49:19.841620+00:00 TX 01 03 00 20 00 02 C5 C1
2026-07-24T17:49:19.849621+00:00 RX 01 03 04 00 00 07 11 38 0F
2026-07-24T17:49:19.851622+00:00 TX 01 03 01 C4 00 01 C4 0B
2026-07-24T17:49:19.857623+00:00 RX 01 03 02 00 00 B8 44
2026-07-24T17:49:19.907635+00:00 TX 01 03 00 00 00 20 44 12
2026-07-24T17:49:19.952173+00:00 RX 01 03 40 00 00 00 00 00 03 00 00 00 03 00 00 00 00 00 00 00 00 00 00 00 00 00 00 00 01 00 00 01 00 05 0A 00 00 00 00 00 00 00 00 00 00 00 00 00 00 00 00 00 00 00 00 00 00 00 00 FF FF 5F 4B FF FF 5F 4B 27 C5
2026-07-24T17:49:19.954678+00:00 TX 01 03 00 20 00 02 C5 C1
2026-07-24T17:49:19.962677+00:00 RX 01 03 04 00 00 07 12 78 0E
2026-07-24T17:49:19.964677+00:00 TX 01 03 01 C4 00 01 C4 0B
2026-07-24T17:49:19.971679+00:00 RX 01 03 02 00 00 B8 44
2026-07-24T17:49:20.022191+00:00 TX 01 03 00 00 00 20 44 12
2026-07-24T17:49:20.066699+00:00 RX 01 03 40 00 00 00 00 00 03 00 00 00 03 00 00 00 00 00 00 00 00 00 00 00 00 00 00 00 01 00 00 01 00 05 0A 00 00 00 00 00 00 00 00 00 00 00 00 00 00 00 00 00 00 00 00 00 00 00 00 FF FF 60 0F FF FF 60 0F C3 06
2026-07-24T17:49:20.068699+00:00 TX 01 03 00 20 00 02 C5 C1
2026-07-24T17:49:20.076701+00:00 RX 01 03 04 00 00 07 13 B9 CE
2026-07-24T17:49:20.078701+00:00 TX 01 03 01 C4 00 01 C4 0B
2026-07-24T17:49:20.084703+00:00 RX 01 03 02 00 00 B8 44
2026-07-24T17:49:20.135232+00:00 TX 01 03 00 00 00 20 44 12
2026-07-24T17:49:20.179840+00:00 RX 01 03 40 00 00 00 00 00 03 00 00 00 03 00 00 00 00 00 00 00 00 00 00 00 00 00 00 00 01 00 00 01 00 05 0A 00 00 00 00 00 00 00 00 00 00 00 00 00 00 00 00 00 00 00 00 00 00 00 00 FF FF 60 57 FF FF 60 57 E3 31
2026-07-24T17:49:20.182841+00:00 TX 01 03 00 20 00 02 C5 C1
2026-07-24T17:49:20.190840+00:00 RX 01 03 04 00 00 07 14 F8 0C
2026-07-24T17:49:20.192840+00:00 TX 01 03 01 C4 00 01 C4 0B
2026-07-24T17:49:20.199842+00:00 RX 01 03 02 00 00 B8 44
2026-07-24T17:49:20.249854+00:00 TX 01 03 00 00 00 20 44 12
2026-07-24T17:49:20.293864+00:00 RX 01 03 40 00 00 00 00 00 03 00 00 00 03 00 00 00 00 00 00 00 00 00 00 00 00 00 00 00 01 00 00 01 00 05 0A 00 00 00 00 00 00 00 00 00 00 00 00 00 00 00 00 00 00 00 00 00 00 00 00 FF FF 5F 91 FF FF 5F 91 FF 8D
2026-07-24T17:49:20.296865+00:00 TX 01 03 00 20 00 02 C5 C1
2026-07-24T17:49:20.303866+00:00 RX 01 03 04 00 00 07 16 79 CD
2026-07-24T17:49:20.305866+00:00 TX 01 03 01 C4 00 01 C4 0B
2026-07-24T17:49:20.311868+00:00 RX 01 03 02 00 00 B8 44
2026-07-24T17:49:20.361923+00:00 TX 01 03 00 00 00 20 44 12
2026-07-24T17:49:20.406430+00:00 RX 01 03 40 00 00 00 00 00 03 00 00 00 03 00 00 00 00 00 00 00 00 00 00 00 00 00 00 00 01 00 00 01 00 05 0A 00 00 00 00 00 00 00 00 00 00 00 00 00 00 00 00 00 00 00 00 00 00 00 00 FF FF 5D C1 FF FF 5D C1 3F 3F
2026-07-24T17:49:20.408431+00:00 TX 01 03 00 20 00 02 C5 C1
2026-07-24T17:49:20.415432+00:00 RX 01 03 04 00 00 07 17 B8 0D
2026-07-24T17:49:20.417433+00:00 TX 01 03 01 C4 00 01 C4 0B
2026-07-24T17:49:20.423434+00:00 RX 01 03 02 00 00 B8 44
2026-07-24T17:49:20.473944+00:00 TX 01 03 00 00 00 20 44 12
2026-07-24T17:49:20.518990+00:00 RX 01 03 40 00 00 00 00 00 03 00 00 00 03 00 00 00 00 00 00 00 00 00 00 00 00 00 00 00 01 00 00 01 00 05 0A 00 00 00 00 00 00 00 00 00 00 00 00 00 00 00 00 00 00 00 00 00 00 00 00 FF FF 5D B7 FF FF 5D B7 77 12
2026-07-24T17:49:20.520990+00:00 TX 01 03 00 20 00 02 C5 C1
2026-07-24T17:49:20.529992+00:00 RX 01 03 04 00 00 07 18 F8 09
2026-07-24T17:49:20.532501+00:00 TX 01 03 01 C4 00 01 C4 0B
2026-07-24T17:49:20.538503+00:00 RX 01 03 02 00 00 B8 44
2026-07-24T17:49:20.588551+00:00 TX 01 03 00 00 00 20 44 12
2026-07-24T17:49:20.633110+00:00 RX 01 03 40 00 00 00 00 00 03 00 00 00 03 00 00 00 00 00 00 00 00 00 00 00 00 00 00 00 01 00 00 01 00 05 0A 00 00 00 00 00 00 00 00 00 00 00 00 00 00 00 00 00 00 00 00 00 00 00 00 FF FF 5B 9A FF FF 5B 9A 18 CF
2026-07-24T17:49:20.635111+00:00 TX 01 03 00 20 00 02 C5 C1
2026-07-24T17:49:20.642614+00:00 RX 01 03 04 00 00 07 19 39 C9
2026-07-24T17:49:20.645615+00:00 TX 01 03 01 C4 00 01 C4 0B
2026-07-24T17:49:20.651616+00:00 RX 01 03 02 00 00 B8 44
2026-07-24T17:49:20.701628+00:00 TX 01 03 00 00 00 20 44 12
2026-07-24T17:49:20.746663+00:00 RX 01 03 40 00 00 00 00 00 03 00 00 00 03 00 00 00 00 00 00 00 00 00 00 00 00 00 00 00 01 00 00 01 00 05 0A 00 00 00 00 00 00 00 00 00 00 00 00 00 00 00 00 00 00 00 00 00 00 00 00 FF FF 5E 38 FF FF 5E 38 63 AA
2026-07-24T17:49:20.748663+00:00 TX 01 03 00 20 00 02 C5 C1
2026-07-24T17:49:20.756175+00:00 RX 01 03 04 00 00 07 1A 79 C8
2026-07-24T17:49:20.759677+00:00 TX 01 03 01 C4 00 01 C4 0B
2026-07-24T17:49:20.765678+00:00 RX 01 03 02 00 00 B8 44
2026-07-24T17:49:20.816918+00:00 TX 01 03 00 00 00 20 44 12
2026-07-24T17:49:20.861428+00:00 RX 01 03 40 00 00 00 00 00 03 00 00 00 03 00 00 00 00 00 00 00 00 00 00 00 00 00 00 00 01 00 00 01 00 05 0A 00 00 00 00 00 00 00 00 00 00 00 00 00 00 00 00 00 00 00 00 00 00 00 00 FF FF 5E 27 FF FF 5E 27 B7 A0
2026-07-24T17:49:20.864429+00:00 TX 01 03 00 20 00 02 C5 C1
2026-07-24T17:49:20.872430+00:00 RX 01 03 04 00 00 07 1B B8 08
2026-07-24T17:49:20.874432+00:00 TX 01 03 01 C4 00 01 C4 0B
2026-07-24T17:49:20.880433+00:00 RX 01 03 02 00 00 B8 44
2026-07-24T17:49:20.930441+00:00 TX 01 03 00 00 00 20 44 12
2026-07-24T17:49:20.975484+00:00 RX 01 03 40 00 00 00 00 00 03 00 00 00 03 00 00 00 00 00 00 00 00 00 00 00 00 00 00 00 01 00 00 01 00 05 0A 00 00 00 00 00 00 00 00 00 00 00 00 00 00 00 00 00 00 00 00 00 00 00 00 FF FF 5E C1 FF FF 5E C1 3F FC
2026-07-24T17:49:20.977485+00:00 TX 01 03 00 20 00 02 C5 C1
2026-07-24T17:49:20.984486+00:00 RX 01 03 04 00 00 07 1D 38 0A
2026-07-24T17:49:20.986486+00:00 TX 01 03 01 C4 00 01 C4 0B
2026-07-24T17:49:20.992484+00:00 RX 01 03 02 00 00 B8 44
2026-07-24T17:49:21.042594+00:00 TX 01 03 00 00 00 20 44 12
2026-07-24T17:49:21.087149+00:00 RX 01 03 40 00 00 00 00 00 03 00 00 00 03 00 00 00 00 00 00 00 00 00 00 00 00 00 00 00 01 00 00 01 00 05 0A 00 00 00 00 00 00 00 00 00 00 00 00 00 00 00 00 00 00 00 00 00 00 00 00 FF FF 60 3F FF FF 60 3F 83 16
2026-07-24T17:49:21.090147+00:00 TX 01 03 00 20 00 02 C5 C1
2026-07-24T17:49:21.098148+00:00 RX 01 03 04 00 00 07 1E 78 0B
2026-07-24T17:49:21.100149+00:00 TX 01 03 01 C4 00 01 C4 0B
2026-07-24T17:49:21.107150+00:00 RX 01 03 02 00 00 B8 44
2026-07-24T17:49:21.157317+00:00 TX 01 03 00 00 00 20 44 12
2026-07-24T17:49:21.202321+00:00 RX 01 03 40 00 00 00 00 00 03 00 00 00 03 00 00 00 00 00 00 00 00 00 00 00 00 00 00 00 01 00 00 01 00 05 0A 00 00 00 00 00 00 00 00 00 00 00 00 00 00 00 00 00 00 00 00 00 00 00 00 FF FF 5D 21 FF FF 5D 21 BF 61
2026-07-24T17:49:21.204321+00:00 TX 01 03 00 20 00 02 C5 C1
2026-07-24T17:49:21.211825+00:00 RX 01 03 04 00 00 07 1F B9 CB
2026-07-24T17:49:21.213825+00:00 TX 01 03 01 C4 00 01 C4 0B
2026-07-24T17:49:21.219826+00:00 RX 01 03 02 00 00 B8 44
2026-07-24T17:49:21.270335+00:00 TX 01 03 00 00 00 20 44 12
2026-07-24T17:49:21.314346+00:00 RX 01 03 40 00 00 00 00 00 03 00 00 00 03 00 00 00 00 00 00 00 00 00 00 00 00 00 00 00 01 00 00 01 00 05 0A 00 00 00 00 00 00 00 00 00 00 00 00 00 00 00 00 00 00 00 00 00 00 00 00 FF FF 5B 4A FF FF 5B 4A D8 81
2026-07-24T17:49:21.317346+00:00 TX 01 03 00 20 00 02 C5 C1
2026-07-24T17:49:21.324349+00:00 RX 01 03 04 00 00 07 20 F9 DB
2026-07-24T17:49:21.327349+00:00 TX 01 03 01 C4 00 01 C4 0B
2026-07-24T17:49:21.333347+00:00 RX 01 03 02 00 00 B8 44
2026-07-24T17:49:21.384402+00:00 TX 01 03 00 00 00 20 44 12
