2026-07-25T06:02:55.126135+00:00 TX 01 03 01 16 00 01 64 32
2026-07-25T06:02:55.133134+00:00 RX 01 03 02 00 03 F8 45
2026-07-25T06:02:55.135134+00:00 TX 01 10 00 40 00 0B 16 97 1D 00 09 00 00 00 00 00 00 00 00 00 00 00 00 00 00 00 00 00 00 8B 00
2026-07-25T06:02:55.142640+00:00 RX 01 10 00 40 00 0B 80 1A
2026-07-25T06:02:55.145637+00:00 TX 01 06 00 4B A5 5A 02 B7
2026-07-25T06:02:55.152635+00:00 RX 01 06 00 4B A5 5A 02 B7
2026-07-25T06:02:55.154636+00:00 TX 01 03 00 4C 00 04 85 DE
2026-07-25T06:02:55.165141+00:00 RX 01 03 08 97 1D 00 00 00 00 00 09 D0 5A
2026-07-25T06:02:55.167141+00:00 TX 01 06 01 56 00 04 69 E5
2026-07-25T06:02:55.172143+00:00 RX 01 06 01 56 00 04 69 E5
2026-07-25T06:02:55.175143+00:00 TX 01 10 00 40 00 0B 16 97 1E 00 0A 00 00 00 00 00 00 00 00 00 00 00 00 00 00 00 00 00 00 FC 77
2026-07-25T06:02:55.183145+00:00 RX 01 10 00 40 00 0B 80 1A
2026-07-25T06:02:55.185145+00:00 TX 01 06 00 4B A5 5A 02 B7
2026-07-25T06:02:55.191147+00:00 RX 01 06 00 4B A5 5A 02 B7
2026-07-25T06:02:55.193147+00:00 TX 01 03 00 4C 00 04 85 DE
2026-07-25T06:02:55.204150+00:00 RX 01 03 08 97 1E 00 00 00 00 00 0A A3 5B
2026-07-25T06:02:55.206150+00:00 TX 01 10 00 40 00 0B 16 97 1F 00 0B 00 00 00 00 00 00 00 00 00 00 00 00 00 00 00 00 00 00 D1 5A
2026-07-25T06:02:55.213152+00:00 RX 01 10 00 40 00 0B 80 1A
2026-07-25T06:02:55.216152+00:00 TX 01 06 00 4B A5 5A 02 B7
2026-07-25T06:02:55.225155+00:00 RX 01 06 00 4B A5 5A 02 B7
2026-07-25T06:02:55.228152+00:00 TX 01 03 00 4C 00 04 85 DE
2026-07-25T06:02:55.239154+00:00 RX 01 03 08 97 1F 00 00 00 00 00 0B 72 5B
2026-07-25T06:02:55.241155+00:00 TX 01 03 01 16 00 01 64 32
2026-07-25T06:02:55.247657+00:00 RX 01 03 02 00 04 B9 87
2026-07-25T06:02:55.250159+00:00 TX 01 10 00 40 00 0B 16 97 27 00 09 00 00 00 00 00 00 00 00 00 00 00 00 00 00 00 00 00 00 14 59
2026-07-25T06:02:55.257160+00:00 RX 01 10 00 40 00 0B 80 1A
2026-07-25T06:02:55.260161+00:00 TX 01 06 00 4B A5 5A 02 B7
2026-07-25T06:02:55.266162+00:00 RX 01 06 00 4B A5 5A 02 B7
2026-07-25T06:02:55.269163+00:00 TX 01 03 00 4C 00 04 85 DE
2026-07-25T06:02:55.280165+00:00 RX 01 03 08 97 27 00 00 00 00 00 09 4A 59
2026-07-25T06:02:55.282166+00:00 TX 01 06 01 56 00 03 28 27
2026-07-25T06:02:55.288168+00:00 RX 01 06 01 56 00 03 28 27
2026-07-25T06:02:55.291168+00:00 TX 01 10 00 40 00 0B 16 97 28 00 0A 00 00 00 00 00 00 00 00 00 00 00 00 00 00 00 00 00 00 AF E2
2026-07-25T06:02:55.299170+00:00 RX 01 10 00 40 00 0B 80 1A
2026-07-25T06:02:55.301171+00:00 TX 01 06 00 4B A5 5A 02 B7
2026-07-25T06:02:55.308172+00:00 RX 01 06 00 4B A5 5A 02 B7
2026-07-25T06:02:55.310173+00:00 TX 01 03 00 4C 00 04 85 DE
2026-07-25T06:02:55.321175+00:00 RX 01 03 08 97 28 00 00 00 00 00 0A F5 58
2026-07-25T06:02:55.325177+00:00 TX 01 10 00 40 00 0B 16 97 29 00 0B 00 00 00 00 00 00 00 00 00 00 00 00 00 00 00 00 00 00 82 CF
2026-07-25T06:02:55.333175+00:00 RX 01 10 00 40 00 0B 80 1A
2026-07-25T06:02:55.335175+00:00 TX 01 06 00 4B A5 5A 02 B7
2026-07-25T06:02:55.345680+00:00 RX 01 06 00 4B A5 5A 02 B7
2026-07-25T06:02:55.348678+00:00 TX 01 03 00 4C 00 04 85 DE
2026-07-25T06:02:55.360238+00:00 RX 01 03 08 97 29 00 00 00 00 00 0B 24 58
2026-07-25T06:02:55.362739+00:00 TX 01 03 01 16 00 01 64 32
2026-07-25T06:02:55.369741+00:00 RX 01 03 02 00 03 F8 45
2026-07-25T06:02:55.371742+00:00 TX 01 10 00 40 00 0B 16 97 3B 00 09 00 00 00 00 00 00 00 00 00 00 00 00 00 00 00 00 00 00 CA 04
2026-07-25T06:02:55.379743+00:00 RX 01 10 00 40 00 0B 80 1A
2026-07-25T06:02:55.381743+00:00 TX 01 06 00 4B A5 5A 02 B7
2026-07-25T06:02:55.388745+00:00 RX 01 06 00 4B A5 5A 02 B7
2026-07-25T06:02:55.390746+00:00 TX 01 03 00 4C 00 04 85 DE
2026-07-25T06:02:55.401748+00:00 RX 01 03 08 97 3B 00 00 00 00 00 09 97 98
2026-07-25T06:02:55.403748+00:00 TX 01 06 01 56 00 08 69 E0
2026-07-25T06:02:55.409750+00:00 RX 01 06 01 56 00 08 69 E0
2026-07-25T06:02:55.411750+00:00 TX 01 10 00 40 00 0B 16 97 3C 00 0A 00 00 00 00 00 00 00 00 00 00 00 00 00 00 00 00 00 00 F8 F7
2026-07-25T06:02:55.419752+00:00 RX 01 10 00 40 00 0B 80 1A
2026-07-25T06:02:55.421752+00:00 TX 01 06 00 4B A5 5A 02 B7
2026-07-25T06:02:55.428754+00:00 RX 01 06 00 4B A5 5A 02 B7
2026-07-25T06:02:55.431752+00:00 TX 01 03 00 4C 00 04 85 DE
2026-07-25T06:02:55.442754+00:00 RX 01 03 08 97 3C 00 03 00 00 00 0A E5 59
2026-07-25T06:02:55.445257+00:00 TX 01 10 00 40 00 0B 16 97 3D 00 0B 00 00 00 00 00 00 00 00 00 00 00 00 00 00 00 00 00 00 D5 DA
2026-07-25T06:02:55.452761+00:00 RX 01 10 00 40 00 0B 80 1A
2026-07-25T06:02:55.454762+00:00 TX 01 06 00 4B A5 5A 02 B7
2026-07-25T06:02:55.461763+00:00 RX 01 06 00 4B A5 5A 02 B7
2026-07-25T06:02:55.463764+00:00 TX 01 03 00 4C 00 04 85 DE
2026-07-25T06:02:55.473766+00:00 RX 01 03 08 97 3D 00 03 00 00 00 0B 34 59
2026-07-25T06:02:55.475767+00:00 TX 01 03 01 16 00 01 64 32
2026-07-25T06:02:55.482330+00:00 RX 01 03 02 00 03 F8 45
2026-07-25T06:02:55.484330+00:00 TX 01 10 00 40 00 0B 16 97 3E 00 0C 00 00 00 00 00 00 00 00 00 00 00 00 00 00 00 00 00 00 53 9D
2026-07-25T06:02:55.492332+00:00 RX 01 10 00 40 00 0B 80 1A
2026-07-25T06:02:55.494333+00:00 TX 01 06 00 4B A5 5A 02 B7
2026-07-25T06:02:55.500501+00:00 RX 01 06 00 4B A5 5A 02 B7
2026-07-25T06:02:55.502742+00:00 TX 01 03 00 4C 00 04 85 DE
2026-07-25T06:02:55.513192+00:00 RX 01 03 08 97 3E 00 00 00 00 00 0C 02 9B
