2026-07-24T18:13:41.824036+00:00 TX 01 03 00 00 00 20 44 12
2026-07-24T18:13:41.868547+00:00 RX 01 03 40 00 00 00 00 00 03 00 00 00 03 00 00 00 00 00 00 00 00 00 00 00 00 00 00 00 01 00 00 01 00 05 0A 00 00 00 00 00 00 00 00 00 00 00 00 00 00 00 00 00 00 00 00 00 00 00 00 FF FF 5C D4 FF FF 5C D4 F3 72
2026-07-24T18:13:41.870548+00:00 TX 01 03 00 20 00 02 C5 C1
2026-07-24T18:13:41.878550+00:00 RX 01 03 04 00 00 41 36 4A 75
2026-07-24T18:13:41.880550+00:00 TX 01 03 01 C4 00 01 C4 0B
2026-07-24T18:13:41.886552+00:00 RX 01 03 02 00 00 B8 44
2026-07-24T18:13:41.937040+00:00 TX 01 03 00 00 00 20 44 12
2026-07-24T18:13:41.982142+00:00 RX 01 03 40 00 00 00 00 00 03 00 00 00 03 00 00 00 00 00 00 00 00 00 00 00 00 00 00 00 01 00 00 01 00 05 0A 00 00 00 00 00 00 00 00 00 00 00 00 00 00 00 00 00 00 00 00 00 00 00 00 FF FF 5C EA FF FF 5C EA 5B 67
2026-07-24T18:13:41.984707+00:00 TX 01 03 00 20 00 02 C5 C1
2026-07-24T18:13:41.992710+00:00 RX 01 03 04 00 00 41 37 8B B5
2026-07-24T18:13:41.995325+00:00 TX 01 03 01 C4 00 01 C4 0B
2026-07-24T18:13:42.001828+00:00 RX 01 03 02 00 00 B8 44
2026-07-24T18:13:42.051840+00:00 TX 01 03 00 00 00 20 44 12
2026-07-24T18:13:42.096851+00:00 RX 01 03 40 00 00 00 00 00 03 00 00 00 03 00 00 00 00 00 00 00 00 00 00 00 00 00 00 00 01 00 00 01 00 05 0A 00 00 00 00 00 00 00 00 00 00 00 00 00 00 00 00 00 00 00 00 00 00 00 00 FF FF 5D E4 FF FF 5D E4 B3 23
2026-07-24T18:13:42.098851+00:00 TX 01 03 00 20 00 02 C5 C1
2026-07-24T18:13:42.106853+00:00 RX 01 03 04 00 00 41 38 CB B1
2026-07-24T18:13:42.108853+00:00 TX 01 03 01 C4 00 01 C4 0B
2026-07-24T18:13:42.115855+00:00 RX 01 03 02 00 00 B8 44
2026-07-24T18:13:42.165920+00:00 TX 01 03 00 00 00 20 44 12
2026-07-24T18:13:42.210771+00:00 RX 01 03 40 00 00 00 00 00 03 00 00 00 03 00 00 00 00 00 00 00 00 00 00 00 00 00 00 00 01 00 00 01 00 05 0A 00 00 00 00 00 00 00 00 00 00 00 00 00 00 00 00 00 00 00 00 00 00 00 00 FF FF 5D 2D FF FF 5D 2D AF 65
2026-07-24T18:13:42.212771+00:00 TX 01 03 00 20 00 02 C5 C1
2026-07-24T18:13:42.220770+00:00 RX 01 03 04 00 00 41 39 0A 71
2026-07-24T18:13:42.222771+00:00 TX 01 03 01 C4 00 01 C4 0B
2026-07-24T18:13:42.229772+00:00 RX 01 03 02 00 00 B8 44
2026-07-24T18:13:42.280286+00:00 TX 01 03 00 00 00 20 44 12
2026-07-24T18:13:42.325293+00:00 RX 01 03 40 00 00 00 00 00 03 00 00 00 03 00 00 00 00 00 00 00 00 00 00 00 00 00 00 00 01 00 00 01 00 05 0A 00 00 00 00 00 00 00 00 00 00 00 00 00 00 00 00 00 00 00 00 00 00 00 00 FF FF 5B A6 FF FF 5B A6 48 DB
2026-07-24T18:13:42.327293+00:00 TX 01 03 00 20 00 02 C5 C1
2026-07-24T18:13:42.335295+00:00 RX 01 03 04 00 00 41 3A 4A 70
2026-07-24T18:13:42.337797+00:00 TX 01 03 01 C4 00 01 C4 0B
2026-07-24T18:13:42.344799+00:00 RX 01 03 02 00 00 B8 44
2026-07-24T18:13:42.394807+00:00 TX 01 03 00 00 00 20 44 12
2026-07-24T18:13:42.439293+00:00 RX 01 03 40 00 00 00 00 00 03 00 00 00 03 00 00 00 00 00 00 00 00 00 00 00 00 00 00 00 01 00 00 01 00 05 0A 00 00 00 00 00 00 00 00 00 00 00 00 00 00 00 00 00 00 00 00 00 00 00 00 FF FF 5A C0 FF FF 5A C0 C0 B8
2026-07-24T18:13:42.441293+00:00 TX 01 03 00 20 00 02 C5 C1
2026-07-24T18:13:42.449295+00:00 RX 01 03 04 00 00 41 3B 8B B0
2026-07-24T18:13:42.451295+00:00 TX 01 03 01 C4 00 01 C4 0B
2026-07-24T18:13:42.457296+00:00 RX 01 03 02 00 00 B8 44
2026-07-24T18:13:42.507804+00:00 TX 01 03 00 00 00 20 44 12
2026-07-24T18:13:42.552811+00:00 RX 01 03 40 00 00 00 00 00 03 00 00 00 03 00 00 00 00 00 00 00 00 00 00 00 00 00 00 00 01 00 00 01 00 05 0A 00 00 00 00 00 00 00 00 00 00 00 00 00 00 00 00 00 00 00 00 00 00 00 00 FF FF 5A 52 FF FF 5A 52 F8 C8
2026-07-24T18:13:42.554812+00:00 TX 01 03 00 20 00 02 C5 C1
2026-07-24T18:13:42.563814+00:00 RX 01 03 04 00 00 41 3C CA 72
2026-07-24T18:13:42.565814+00:00 TX 01 03 01 C4 00 01 C4 0B
2026-07-24T18:13:42.572816+00:00 RX 01 03 02 00 00 B8 44
2026-07-24T18:13:42.623591+00:00 TX 01 03 00 00 00 20 44 12
2026-07-24T18:13:42.668687+00:00 RX 01 03 40 00 00 00 00 00 03 00 00 00 03 00 00 00 00 00 00 00 00 00 00 00 00 00 00 00 01 00 00 01 00 05 0A 00 00 00 00 00 00 00 00 00 00 00 00 00 00 00 00 00 00 00 00 00 00 00 00 FF FF 5C 5A FF FF 5C 5A 1B 09
2026-07-24T18:13:42.671688+00:00 TX 01 03 00 20 00 02 C5 C1
2026-07-24T18:13:42.678689+00:00 RX 01 03 04 00 00 41 3E 4B B3
2026-07-24T18:13:42.681192+00:00 TX 01 03 01 C4 00 01 C4 0B
2026-07-24T18:13:42.687193+00:00 RX 01 03 02 00 00 B8 44
2026-07-24T18:13:42.737396+00:00 TX 01 03 00 00 00 20 44 12
2026-07-24T18:13:42.781901+00:00 RX 01 03 40 00 00 00 00 00 03 00 00 00 03 00 00 00 00 00 00 00 00 00 00 00 00 00 00 00 01 00 00 01 00 05 0A 00 00 00 00 00 00 00 00 00 00 00 00 00 00 00 00 00 00 00 00 00 00 00 00 FF FF 5E 1A FF FF 5E 1A 1B B4
2026-07-24T18:13:42.784901+00:00 TX 01 03 00 20 00 02 C5 C1
2026-07-24T18:13:42.792903+00:00 RX 01 03 04 00 00 41 3F 8A 73
2026-07-24T18:13:42.794904+00:00 TX 01 03 01 C4 00 01 C4 0B
2026-07-24T18:13:42.801414+00:00 RX 01 03 02 00 00 B8 44
2026-07-24T18:13:42.851425+00:00 TX 01 03 00 00 00 20 44 12
2026-07-24T18:13:42.896436+00:00 RX 01 03 40 00 00 00 00 00 03 00 00 00 03 00 00 00 00 00 00 00 00 00 00 00 00 00 00 00 01 00 00 01 00 05 0A 00 00 00 00 00 00 00 00 00 00 00 00 00 00 00 00 00 00 00 00 00 00 00 00 FF FF 5A 60 FF FF 5A 60 40 D9
2026-07-24T18:13:42.898436+00:00 TX 01 03 00 20 00 02 C5 C1
2026-07-24T18:13:42.906438+00:00 RX 01 03 04 00 00 41 40 CB 93
2026-07-24T18:13:42.908438+00:00 TX 01 03 01 C4 00 01 C4 0B
2026-07-24T18:13:42.914440+00:00 RX 01 03 02 00 00 B8 44
2026-07-24T18:13:42.966125+00:00 TX 01 03 00 00 00 20 44 12
2026-07-24T18:13:43.010693+00:00 RX 01 03 40 00 00 00 00 00 03 00 00 00 03 00 00 00 00 00 00 00 00 00 00 00 00 00 00 00 01 00 00 01 00 05 0A 00 00 00 00 00 00 00 00 00 00 00 00 00 00 00 00 00 00 00 00 00 00 00 00 FF FF 59 3F FF FF 59 3F 94 2F
2026-07-24T18:13:43.013694+00:00 TX 01 03 00 20 00 02 C5 C1
2026-07-24T18:13:43.021695+00:00 RX 01 03 04 00 00 41 41 0A 53
2026-07-24T18:13:43.024693+00:00 TX 01 03 01 C4 00 01 C4 0B
2026-07-24T18:13:43.031695+00:00 RX 01 03 02 00 00 B8 44
2026-07-24T18:13:43.082647+00:00 TX 01 03 00 00 00 20 44 12
2026-07-24T18:13:43.127698+00:00 RX 01 03 40 00 00 00 00 00 03 00 00 00 03 00 00 00 00 00 00 00 00 00 00 00 00 00 00 00 01 00 00 01 00 05 0A 00 00 00 00 00 00 00 00 00 00 00 00 00 00 00 00 00 00 00 00 00 00 00 00 FF FF 58 FE FF FF 58 FE 68 2F
2026-07-24T18:13:43.129698+00:00 TX 01 03 00 20 00 02 C5 C1
2026-07-24T18:13:43.137700+00:00 RX 01 03 04 00 00 41 42 4A 52
2026-07-24T18:13:43.140202+00:00 TX 01 03 01 C4 00 01 C4 0B
2026-07-24T18:13:43.146527+00:00 RX 01 03 02 00 00 B8 44
2026-07-24T18:13:43.196961+00:00 TX 01 03 00 00 00 20 44 12
2026-07-24T18:13:43.241769+00:00 RX 01 03 40 00 00 00 00 00 03 00 00 00 03 00 00 00 00 00 00 00 00 00 00 00 00 00 00 00 01 00 00 01 00 05 0A 00 00 00 00 00 00 00 00 00 00 00 00 00 00 00 00 00 00 00 00 00 00 00 00 FF FF 5B 97 FF FF 5B 97 F4 CB
2026-07-24T18:13:43.243769+00:00 TX 01 03 00 20 00 02 C5 C1
2026-07-24T18:13:43.251771+00:00 RX 01 03 04 00 00 41 44 CA 50
2026-07-24T18:13:43.253771+00:00 TX 01 03 01 C4 00 01 C4 0B
2026-07-24T18:13:43.260773+00:00 RX 01 03 02 00 00 B8 44
2026-07-24T18:13:43.311565+00:00 TX 01 03 00 00 00 20 44 12
2026-07-24T18:13:43.356250+00:00 RX 01 03 40 00 00 00 00 00 03 00 00 00 03 00 00 00 00 00 00 00 00 00 00 00 00 00 00 00 01 00 00 01 00 05 0A 00 00 00 00 00 00 00 00 00 00 00 00 00 00 00 00 00 00 00 00 00 00 00 00 FF FF 5C 97 FF FF 5C 97 F7 4C
2026-07-24T18:13:43.360254+00:00 TX 01 03 00 20 00 02 C5 C1
2026-07-24T18:13:43.368252+00:00 RX 01 03 04 00 00 41 45 0B 90
2026-07-24T18:13:43.370253+00:00 TX 01 03 01 C4 00 01 C4 0B
2026-07-24T18:13:43.376255+00:00 RX 01 03 02 00 00 B8 44
2026-07-24T18:13:43.427263+00:00 TX 01 03 00 00 00 20 44 12
2026-07-24T18:13:43.472313+00:00 RX 01 03 40 00 00 00 00 00 03 00 00 00 03 00 00 00 00 00 00 00 00 00 00 00 00 00 00 00 01 00 00 01 00 05 0A 00 00 00 00 00 00 00 00 00 00 00 00 00 00 00 00 00 00 00 00 00 00 00 00 FF FF 5B A4 FF FF 5B A4 B0 DA
2026-07-24T18:13:43.474314+00:00 TX 01 03 00 20 00 02 C5 C1
2026-07-24T18:13:43.482316+00:00 RX 01 03 04 00 00 41 46 4B 91
2026-07-24T18:13:43.484825+00:00 TX 01 03 01 C4 00 01 C4 0B
2026-07-24T18:13:43.491820+00:00 RX 01 03 02 00 00 B8 44
2026-07-24T18:13:43.541848+00:00 TX 01 03 00 00 00 20 44 12
2026-07-24T18:13:43.586356+00:00 RX 01 03 40 00 00 00 00 00 03 00 00 00 03 00 00 00 00 00 00 00 00 00 00 00 00 00 00 00 01 00 00 01 00 05 0A 00 00 00 00 00 00 00 00 00 00 00 00 00 00 00 00 00 00 00 00 00 00 00 00 FF FF 5D A9 FF FF 5D A9 5F 18
2026-07-24T18:13:43.588357+00:00 TX 01 03 00 20 00 02 C5 C1
2026-07-24T18:13:43.596358+00:00 RX 01 03 04 00 00 41 47 8A 51
2026-07-24T18:13:43.598860+00:00 TX 01 03 01 C4 00 01 C4 0B
2026-07-24T18:13:43.604862+00:00 RX 01 03 02 00 00 B8 44
2026-07-24T18:13:43.655983+00:00 TX 01 03 00 00 00 20 44 12
2026-07-24T18:13:43.700514+00:00 RX 01 03 40 00 00 00 00 00 03 00 00 00 03 00 00 00 00 00 00 00 00 00 00 00 00 00 00 00 01 00 00 01 00 05 0A 00 00 00 00 00 00 00 00 00 00 00 00 00 00 00 00 00 00 00 00 00 00 00 00 FF FF 5E 73 FF FF 5E 73 87 93
2026-07-24T18:13:43.702514+00:00 TX 01 03 00 20 00 02 C5 C1
2026-07-24T18:13:43.710517+00:00 RX 01 03 04 00 00 41 48 CA 55
2026-07-24T18:13:43.712517+00:00 TX 01 03 01 C4 00 01 C4 0B
2026-07-24T18:13:43.718518+00:00 RX 01 03 02 00 00 B8 44
2026-07-24T18:13:43.769056+00:00 TX 01 03 00 00 00 20 44 12
2026-07-24T18:13:43.813583+00:00 RX 01 03 40 00 00 00 00 00 03 00 00 00 03 00 00 00 00 00 00 00 00 00 00 00 00 00 00 00 01 00 00 01 00 05 0A 00 00 00 00 00 00 00 00 00 00 00 00 00 00 00 00 00 00 00 00 00 00 00 00 FF FF 5F FD FF FF 5F FD 6F A9
2026-07-24T18:13:43.815583+00:00 TX 01 03 00 20 00 02 C5 C1
2026-07-24T18:13:43.823585+00:00 RX 01 03 04 00 00 41 49 0B 95
2026-07-24T18:13:43.825586+00:00 TX 01 03 01 C4 00 01 C4 0B
2026-07-24T18:13:43.832584+00:00 RX 01 03 02 00 00 B8 44
2026-07-24T18:13:43.883097+00:00 TX 01 03 00 00 00 20 44 12
2026-07-24T18:13:43.928104+00:00 RX 01 03 40 00 00 00 00 00 03 00 00 00 03 00 00 00 00 00 00 00 00 00 00 00 00 00 00 00 01 00 00 01 00 05 0A 00 00 00 00 00 00 00 00 00 00 00 00 00 00 00 00 00 00 00 00 00 00 00 00 FF FF 5E 3E FF FF 5E 3E 6B A8
2026-07-24T18:13:43.931104+00:00 TX 01 03 00 20 00 02 C5 C1
2026-07-24T18:13:43.938618+00:00 RX 01 03 04 00 00 41 4B 8A 54
2026-07-24T18:13:43.941123+00:00 TX 01 03 01 C4 00 01 C4 0B
2026-07-24T18:13:43.948122+00:00 RX 01 03 02 00 00 B8 44
2026-07-24T18:13:43.998220+00:00 TX 01 03 00 00 00 20 44 12
2026-07-24T18:13:44.042876+00:00 RX 01 03 40 00 00 00 00 00 03 00 00 00 03 00 00 00 00 00 00 00 00 00 00 00 00 00 00 00 01 00 00 01 00 05 0A 00 00 00 00 00 00 00 00 00 00 00 00 00 00 00 00 00 00 00 00 00 00 00 00 FF FF 5A 40 FF FF 5A 40 C0 C6
2026-07-24T18:13:44.045877+00:00 TX 01 03 00 20 00 02 C5 C1
2026-07-24T18:13:44.053879+00:00 RX 01 03 04 00 00 41 4C CB 96
2026-07-24T18:13:44.055879+00:00 TX 01 03 01 C4 00 01 C4 0B
2026-07-24T18:13:44.062880+00:00 RX 01 03 02 00 00 B8 44
2026-07-24T18:13:44.112892+00:00 TX 01 03 00 00 00 20 44 12
2026-07-24T18:13:44.158578+00:00 RX 01 03 40 00 00 00 00 00 03 00 00 00 03 00 00 00 00 00 00 00 00 00 00 00 00 00 00 00 01 00 00 01 00 05 0A 00 00 00 00 00 00 00 00 00 00 00 00 00 00 00 00 00 00 00 00 00 00 00 00 FF FF 59 D2 FF FF 59 D2 F8 75
2026-07-24T18:13:44.160578+00:00 TX 01 03 00 20 00 02 C5 C1
2026-07-24T18:13:44.168580+00:00 RX 01 03 04 00 00 41 4D 0A 56
2026-07-24T18:13:44.170581+00:00 TX 01 03 01 C4 00 01 C4 0B
2026-07-24T18:13:44.176582+00:00 RX 01 03 02 00 00 B8 44
2026-07-24T18:13:44.226595+00:00 TX 01 03 00 00 00 20 44 12
2026-07-24T18:13:44.271106+00:00 RX 01 03 40 00 00 00 00 00 03 00 00 00 03 00 00 00 00 00 00 00 00 00 00 00 00 00 00 00 01 00 00 01 00 05 0A 00 00 00 00 00 00 00 00 00 00 00 00 00 00 00 00 00 00 00 00 00 00 00 00 FF FF 5E 2F FF FF 5E 2F 57 A7
2026-07-24T18:13:44.273106+00:00 TX 01 03 00 20 00 02 C5 C1
2026-07-24T18:13:44.280108+00:00 RX 01 03 04 00 00 41 4E 4A 57
2026-07-24T18:13:44.282109+00:00 TX 01 03 01 C4 00 01 C4 0B
2026-07-24T18:13:44.289110+00:00 RX 01 03 02 00 00 B8 44
2026-07-24T18:13:44.339118+00:00 TX 01 03 00 00 00 20 44 12
2026-07-24T18:13:44.384628+00:00 RX 01 03 40 00 00 00 00 00 03 00 00 00 03 00 00 00 00 00 00 00 00 00 00 00 00 00 00 00 01 00 00 01 00 05 0A 00 00 00 00 00 00 00 00 00 00 00 00 00 00 00 00 00 00 00 00 00 00 00 00 FF FF 5D 5E FF FF 5D 5E EB 4B
2026-07-24T18:13:44.386629+00:00 TX 01 03 00 20 00 02 C5 C1
2026-07-24T18:13:44.394631+00:00 RX 01 03 04 00 00 41 4F 8B 97
2026-07-24T18:13:44.396631+00:00 TX 01 03 01 C4 00 01 C4 0B
2026-07-24T18:13:44.404146+00:00 RX 01 03 02 00 00 B8 44
2026-07-24T18:13:44.454158+00:00 TX 01 03 00 00 00 20 44 12
2026-07-24T18:13:44.499165+00:00 RX 01 03 40 00 00 00 00 00 03 00 00 00 03 00 00 00 00 00 00 00 00 00 00 00 00 00 00 00 01 00 00 01 00 05 0A 00 00 00 00 00 00 00 00 00 00 00 00 00 00 00 00 00 00 00 00 00 00 00 00 FF FF 5C F4 FF FF 5C F4 73 6D
2026-07-24T18:13:44.501165+00:00 TX 01 03 00 20 00 02 C5 C1
2026-07-24T18:13:44.509209+00:00 RX 01 03 04 00 00 41 50 CA 5F
2026-07-24T18:13:44.512209+00:00 TX 01 03 01 C4 00 01 C4 0B
2026-07-24T18:13:44.519211+00:00 RX 01 03 02 00 00 B8 44
2026-07-24T18:13:44.569720+00:00 TX 01 03 00 00 00 20 44 12
2026-07-24T18:13:44.614763+00:00 RX 01 03 40 00 00 00 00 00 03 00 00 00 03 00 00 00 00 00 00 00 00 00 00 00 00 00 00 00 01 00 00 01 00 05 0A 00 00 00 00 00 00 00 00 00 00 00 00 00 00 00 00 00 00 00 00 00 00 00 00 FF FF 5B DC FF FF 5B DC 10 F2
2026-07-24T18:13:44.616764+00:00 TX 01 03 00 20 00 02 C5 C1
2026-07-24T18:13:44.625299+00:00 RX 01 03 04 00 00 41 51 0B 9F
2026-07-24T18:13:44.627299+00:00 TX 01 03 01 C4 00 01 C4 0B
2026-07-24T18:13:44.633415+00:00 RX 01 03 02 00 00 B8 44
2026-07-24T18:13:44.684445+00:00 TX 01 03 00 00 00 20 44 12
2026-07-24T18:13:44.729452+00:00 RX 01 03 40 00 00 00 00 00 03 00 00 00 03 00 00 00 00 00 00 00 00 00 00 00 00 00 00 00 01 00 00 01 00 05 0A 00 00 00 00 00 00 00 00 00 00 00 00 00 00 00 00 00 00 00 00 00 00 00 00 FF FF 59 90 FF FF 59 90 00 4B
2026-07-24T18:13:44.731452+00:00 TX 01 03 00 20 00 02 C5 C1
2026-07-24T18:13:44.739454+00:00 RX 01 03 04 00 00 41 53 8A 5E
2026-07-24T18:13:44.741455+00:00 TX 01 03 01 C4 00 01 C4 0B
2026-07-24T18:13:44.747957+00:00 RX 01 03 02 00 00 B8 44
2026-07-24T18:13:44.799637+00:00 TX 01 03 00 00 00 20 44 12
2026-07-24T18:13:44.844661+00:00 RX 01 03 40 00 00 00 00 00 03 00 00 00 03 00 00 00 00 00 00 00 00 00 00 00 00 00 00 00 01 00 00 01 00 05 0A 00 00 00 00 00 00 00 00 00 00 00 00 00 00 00 00 00 00 00 00 00 00 00 00 FF FF 5B 65 FF FF 5B 65 4C 9B
2026-07-24T18:13:44.846661+00:00 TX 01 03 00 20 00 02 C5 C1
2026-07-24T18:13:44.854663+00:00 RX 01 03 04 00 00 41 54 CB 9C
2026-07-24T18:13:44.856663+00:00 TX 01 03 01 C4 00 01 C4 0B
2026-07-24T18:13:44.863665+00:00 RX 01 03 02 00 00 B8 44
2026-07-24T18:13:44.913728+00:00 TX 01 03 00 00 00 20 44 12
2026-07-24T18:13:44.958198+00:00 RX 01 03 40 00 00 00 00 00 03 00 00 00 03 00 00 00 00 00 00 00 00 00 00 00 00 00 00 00 01 00 00 01 00 05 0A 00 00 00 00 00 00 00 00 00 00 00 00 00 00 00 00 00 00 00 00 00 00 00 00 FF FF 5A B0 FF FF 5A B0 80 97
2026-07-24T18:13:44.960199+00:00 TX 01 03 00 20 00 02 C5 C1
2026-07-24T18:13:44.968200+00:00 RX 01 03 04 00 00 41 55 0A 5C
2026-07-24T18:13:44.970201+00:00 TX 01 03 01 C4 00 01 C4 0B
2026-07-24T18:13:44.977203+00:00 RX 01 03 02 00 00 B8 44
2026-07-24T18:13:45.027779+00:00 TX 01 03 00 00 00 20 44 12
2026-07-24T18:13:45.072533+00:00 RX 01 03 40 00 00 00 00 00 03 00 00 00 03 00 00 00 00 00 00 00 00 00 00 00 00 00 00 00 01 00 00 01 00 05 0A 00 00 00 00 00 00 00 00 00 00 00 00 00 00 00 00 00 00 00 00 00 00 00 00 FF FF 58 D6 FF FF 58 D6 08 37
2026-07-24T18:13:45.075120+00:00 TX 01 03 00 20 00 02 C5 C1
2026-07-24T18:13:45.084125+00:00 RX 01 03 04 00 00 41 56 4A 5D
2026-07-24T18:13:45.086203+00:00 TX 01 03 01 C4 00 01 C4 0B
2026-07-24T18:13:45.093518+00:00 RX 01 03 02 00 00 B8 44
2026-07-24T18:13:45.143526+00:00 TX 01 03 00 00 00 20 44 12
2026-07-24T18:13:45.188134+00:00 RX 01 03 40 00 00 00 00 00 03 00 00 00 03 00 00 00 00 00 00 00 00 00 00 00 00 00 00 00 01 00 00 01 00 05 0A 00 00 00 00 00 00 00 00 00 00 00 00 00 00 00 00 00 00 00 00 00 00 00 00 FF FF 57 69 FF FF 57 69 59 53
2026-07-24T18:13:45.190134+00:00 TX 01 03 00 20 00 02 C5 C1
2026-07-24T18:13:45.198135+00:00 RX 01 03 04 00 00 41 57 8B 9D
2026-07-24T18:13:45.200136+00:00 TX 01 03 01 C4 00 01 C4 0B
2026-07-24T18:13:45.206639+00:00 RX 01 03 02 00 00 B8 44
2026-07-24T18:13:45.256650+00:00 TX 01 03 00 00 00 20 44 12
2026-07-24T18:13:45.301660+00:00 RX 01 03 40 00 00 00 00 00 03 00 00 00 03 00 00 00 00 00 00 00 00 00 00 00 00 00 00 00 01 00 00 01 00 05 0A 00 00 00 00 00 00 00 00 00 00 00 00 00 00 00 00 00 00 00 00 00 00 00 00 FF FF 58 14 FF FF 58 14 F0 77
2026-07-24T18:13:45.303662+00:00 TX 01 03 00 20 00 02 C5 C1
2026-07-24T18:13:45.311663+00:00 RX 01 03 04 00 00 41 58 CB 99
2026-07-24T18:13:45.313663+00:00 TX 01 03 01 C4 00 01 C4 0B
2026-07-24T18:13:45.320665+00:00 RX 01 03 02 00 00 B8 44
2026-07-24T18:13:45.371175+00:00 TX 01 03 00 00 00 20 44 12
2026-07-24T18:13:45.416186+00:00 RX 01 03 40 00 00 00 00 00 03 00 00 00 03 00 00 00 00 00 00 00 00 00 00 00 00 00 00 00 01 00 00 01 00 05 0A 00 00 00 00 00 00 00 00 00 00 00 00 00 00 00 00 00 00 00 00 00 00 00 00 FF FF 5A E2 FF FF 5A E2 B8 A6
2026-07-24T18:13:45.418187+00:00 TX 01 03 00 20 00 02 C5 C1
2026-07-24T18:13:45.426189+00:00 RX 01 03 04 00 00 41 5A 4A 58
2026-07-24T18:13:45.428189+00:00 TX 01 03 01 C4 00 01 C4 0B
2026-07-24T18:13:45.434188+00:00 RX 01 03 02 00 00 B8 44
2026-07-24T18:13:45.485703+00:00 TX 01 03 00 00 00 20 44 12
2026-07-24T18:13:45.530212+00:00 RX 01 03 40 00 00 00 00 00 03 00 00 00 03 00 00 00 00 00 00 00 00 00 00 00 00 00 00 00 01 00 00 01 00 05 0A 00 00 00 00 00 00 00 00 00 00 00 00 00 00 00 00 00 00 00 00 00 00 00 00 FF FF 5B FE FF FF 5B FE 68 EC
2026-07-24T18:13:45.533210+00:00 TX 01 03 00 20 00 02 C5 C1
2026-07-24T18:13:45.541212+00:00 RX 01 03 04 00 00 41 5B 8B 98
2026-07-24T18:13:45.544213+00:00 TX 01 03 01 C4 00 01 C4 0B
2026-07-24T18:13:45.550716+00:00 RX 01 03 02 00 00 B8 44
2026-07-24T18:13:45.601236+00:00 TX 01 03 00 00 00 20 44 12
2026-07-24T18:13:45.645326+00:00 RX 01 03 40 00 00 00 00 00 03 00 00 00 03 00 00 00 00 00 00 00 00 00 00 00 00 00 00 00 01 00 00 01 00 05 0A 00 00 00 00 00 00 00 00 00 00 00 00 00 00 00 00 00 00 00 00 00 00 00 00 FF FF 59 12 FF FF 59 12 F8 34
2026-07-24T18:13:45.648828+00:00 TX 01 03 00 20 00 02 C5 C1
2026-07-24T18:13:45.656830+00:00 RX 01 03 04 00 00 41 5C CA 5A
2026-07-24T18:13:45.659831+00:00 TX 01 03 01 C4 00 01 C4 0B
2026-07-24T18:13:45.665832+00:00 RX 01 03 02 00 00 B8 44
2026-07-24T18:13:45.717365+00:00 TX 01 03 00 00 00 20 44 12
2026-07-24T18:13:45.761903+00:00 RX 01 03 40 00 00 00 00 00 03 00 00 00 03 00 00 00 00 00 00 00 00 00 00 00 00 00 00 00 01 00 00 01 00 05 0A 00 00 00 00 00 00 00 00 00 00 00 00 00 00 00 00 00 00 00 00 00 00 00 00 FF FF 5B 44 FF FF 5B 44 30 84
2026-07-24T18:13:45.763904+00:00 TX 01 03 00 20 00 02 C5 C1
2026-07-24T18:13:45.770905+00:00 RX 01 03 04 00 00 41 5D 0B 9A
2026-07-24T18:13:45.773906+00:00 TX 01 03 01 C4 00 01 C4 0B
2026-07-24T18:13:45.779907+00:00 RX 01 03 02 00 00 B8 44
2026-07-24T18:13:45.829936+00:00 TX 01 03 00 00 00 20 44 12
2026-07-24T18:13:45.874444+00:00 RX 01 03 40 00 00 00 00 00 03 00 00 00 03 00 00 00 00 00 00 00 00 00 00 00 00 00 00 00 01 00 00 01 00 05 0A 00 00 00 00 00 00 00 00 00 00 00 00 00 00 00 00 00 00 00 00 00 00 00 00 FF FF 5C 91 FF FF 5C 91 FF 4E
2026-07-24T18:13:45.876445+00:00 TX 01 03 00 20 00 02 C5 C1
2026-07-24T18:13:45.884447+00:00 RX 01 03 04 00 00 41 5E 4B 9B
2026-07-24T18:13:45.886447+00:00 TX 01 03 01 C4 00 01 C4 0B
2026-07-24T18:13:45.893449+00:00 RX 01 03 02 00 00 B8 44
2026-07-24T18:13:45.943457+00:00 TX 01 03 00 00 00 20 44 12
2026-07-24T18:13:45.988514+00:00 RX 01 03 40 00 00 00 00 00 03 00 00 00 03 00 00 00 00 00 00 00 00 00 00 00 00 00 00 00 01 00 00 01 00 05 0A 00 00 00 00 00 00 00 00 00 00 00 00 00 00 00 00 00 00 00 00 00 00 00 00 FF FF 5B 99 FF FF 5B 99 1C CE
2026-07-24T18:13:45.990514+00:00 TX 01 03 00 20 00 02 C5 C1
2026-07-24T18:13:45.998516+00:00 RX 01 03 04 00 00 41 5F 8A 5B
2026-07-24T18:13:46.001021+00:00 TX 01 03 01 C4 00 01 C4 0B
2026-07-24T18:13:46.007041+00:00 RX 01 03 02 00 00 B8 44
2026-07-24T18:13:46.058052+00:00 TX 01 03 00 00 00 20 44 12
2026-07-24T18:13:46.103423+00:00 RX 01 03 40 00 00 00 00 00 03 00 00 00 03 00 00 00 00 00 00 00 00 00 00 00 00 00 00 00 01 00 00 01 00 05 0A 00 00 00 00 00 00 00 00 00 00 00 00 00 00 00 00 00 00 00 00 00 00 00 00 FF FF 5A B6 FF FF 5A B6 88 95
2026-07-24T18:13:46.106424+00:00 TX 01 03 00 20 00 02 C5 C1
2026-07-24T18:13:46.114510+00:00 RX 01 03 04 00 00 41 61 0B 8B
2026-07-24T18:13:46.116510+00:00 TX 01 03 01 C4 00 01 C4 0B
2026-07-24T18:13:46.123511+00:00 RX 01 03 02 00 00 B8 44
2026-07-24T18:13:46.173620+00:00 TX 01 03 00 00 00 20 44 12
2026-07-24T18:13:46.218683+00:00 RX 01 03 40 00 00 00 00 00 03 00 00 00 03 00 00 00 00 00 00 00 00 00 00 00 00 00 00 00 01 00 00 01 00 05 0A 00 00 00 00 00 00 00 00 00 00 00 00 00 00 00 00 00 00 00 00 00 00 00 00 FF FF 5A 6B FF FF 5A 6B A4 DF
2026-07-24T18:13:46.220684+00:00 TX 01 03 00 20 00 02 C5 C1
2026-07-24T18:13:46.228686+00:00 RX 01 03 04 00 00 41 62 4B 8A
2026-07-24T18:13:46.231687+00:00 TX 01 03 01 C4 00 01 C4 0B
2026-07-24T18:13:46.238685+00:00 RX 01 03 02 00 00 B8 44
2026-07-24T18:13:46.288701+00:00 TX 01 03 00 00 00 20 44 12
2026-07-24T18:13:46.333703+00:00 RX 01 03 40 00 00 00 00 00 03 00 00 00 03 00 00 00 00 00 00 00 00 00 00 00 00 00 00 00 01 00 00 01 00 05 0A 00 00 00 00 00 00 00 00 00 00 00 00 00 00 00 00 00 00 00 00 00 00 00 00 FF FF 59 E9 FF FF 59 E9 5C 63
2026-07-24T18:13:46.335704+00:00 TX 01 03 00 20 00 02 C5 C1
2026-07-24T18:13:46.344706+00:00 RX 01 03 04 00 00 41 63 8A 4A
2026-07-24T18:13:46.346707+00:00 TX 01 03 01 C4 00 01 C4 0B
2026-07-24T18:13:46.353210+00:00 RX 01 03 02 00 00 B8 44
2026-07-24T18:13:46.403375+00:00 TX 01 03 00 00 00 20 44 12
2026-07-24T18:13:46.448418+00:00 RX 01 03 40 00 00 00 00 00 03 00 00 00 03 00 00 00 00 00 00 00 00 00 00 00 00 00 00 00 01 00 00 01 00 05 0A 00 00 00 00 00 00 00 00 00 00 00 00 00 00 00 00 00 00 00 00 00 00 00 00 FF FF 5B A8 FF FF 5B A8 A0 DE
2026-07-24T18:13:46.451920+00:00 TX 01 03 00 20 00 02 C5 C1
2026-07-24T18:13:46.458922+00:00 RX 01 03 04 00 00 41 64 CB 88
2026-07-24T18:13:46.461922+00:00 TX 01 03 01 C4 00 01 C4 0B
2026-07-24T18:13:46.467924+00:00 RX 01 03 02 00 00 B8 44
2026-07-24T18:13:46.518030+00:00 TX 01 03 00 00 00 20 44 12
2026-07-24T18:13:46.562538+00:00 RX 01 03 40 00 00 00 00 00 03 00 00 00 03 00 00 00 00 00 00 00 00 00 00 00 00 00 00 00 01 00 00 01 00 05 0A 00 00 00 00 00 00 00 00 00 00 00 00 00 00 00 00 00 00 00 00 00 00 00 00 FF FF 5B 72 FF FF 5B 72 78 96
2026-07-24T18:13:46.564539+00:00 TX 01 03 00 20 00 02 C5 C1
2026-07-24T18:13:46.572444+00:00 RX 01 03 04 00 00 41 65 0A 48
2026-07-24T18:13:46.575442+00:00 TX 01 03 01 C4 00 01 C4 0B
2026-07-24T18:13:46.583443+00:00 RX 01 03 02 00 00 B8 44
2026-07-24T18:13:46.633963+00:00 TX 01 03 00 00 00 20 44 12
2026-07-24T18:13:46.678994+00:00 RX 01 03 40 00 00 00 00 00 03 00 00 00 03 00 00 00 00 00 00 00 00 00 00 00 00 00 00 00 01 00 00 01 00 05 0A 00 00 00 00 00 00 00 00 00 00 00 00 00 00 00 00 00 00 00 00 00 00 00 00 FF FF 5C 18 FF FF 5C 18 E3 37
2026-07-24T18:13:46.680994+00:00 TX 01 03 00 20 00 02 C5 C1
2026-07-24T18:13:46.687997+00:00 RX 01 03 04 00 00 41 67 8B 89
2026-07-24T18:13:46.689997+00:00 TX 01 03 01 C4 00 01 C4 0B
2026-07-24T18:13:46.695998+00:00 RX 01 03 02 00 00 B8 44
2026-07-24T18:13:46.746006+00:00 TX 01 03 00 00 00 20 44 12
2026-07-24T18:13:46.790794+00:00 RX 01 03 40 00 00 00 00 00 03 00 00 00 03 00 00 00 00 00 00 00 00 00 00 00 00 00 00 00 01 00 00 01 00 05 0A 00 00 00 00 00 00 00 00 00 00 00 00 00 00 00 00 00 00 00 00 00 00 00 00 FF FF 5B 4C FF FF 5B 4C D0 83
2026-07-24T18:13:46.793805+00:00 TX 01 03 00 20 00 02 C5 C1
2026-07-24T18:13:46.800807+00:00 RX 01 03 04 00 00 41 68 CB 8D
2026-07-24T18:13:46.804309+00:00 TX 01 03 01 C4 00 01 C4 0B
2026-07-24T18:13:46.810310+00:00 RX 01 03 02 00 00 B8 44
2026-07-24T18:13:46.861267+00:00 TX 01 03 00 00 00 20 44 12
2026-07-24T18:13:46.906277+00:00 RX 01 03 40 00 00 00 00 00 03 00 00 00 03 00 00 00 00 00 00 00 00 00 00 00 00 00 00 00 01 00 00 01 00 05 0A 00 00 00 00 00 00 00 00 00 00 00 00 00 00 00 00 00 00 00 00 00 00 00 00 FF FF 59 C6 FF FF 59 C6 C8 79
2026-07-24T18:13:46.908278+00:00 TX 01 03 00 20 00 02 C5 C1
2026-07-24T18:13:46.916280+00:00 RX 01 03 04 00 00 41 69 0A 4D
2026-07-24T18:13:46.919281+00:00 TX 01 03 01 C4 00 01 C4 0B
2026-07-24T18:13:46.925282+00:00 RX 01 03 02 00 00 B8 44
2026-07-24T18:13:46.976792+00:00 TX 01 03 00 00 00 20 44 12
2026-07-24T18:13:47.021333+00:00 RX 01 03 40 00 00 00 00 00 03 00 00 00 03 00 00 00 00 00 00 00 00 00 00 00 00 00 00 00 01 00 00 01 00 05 0A 00 00 00 00 00 00 00 00 00 00 00 00 00 00 00 00 00 00 00 00 00 00 00 00 FF FF 5C 28 FF FF 5C 28 A3 27
2026-07-24T18:13:47.023333+00:00 TX 01 03 00 20 00 02 C5 C1
2026-07-24T18:13:47.031335+00:00 RX 01 03 04 00 00 41 6A 4A 4C
2026-07-24T18:13:47.033336+00:00 TX 01 03 01 C4 00 01 C4 0B
2026-07-24T18:13:47.039334+00:00 RX 01 03 02 00 00 B8 44
2026-07-24T18:13:47.089848+00:00 TX 01 03 00 00 00 20 44 12
2026-07-24T18:13:47.134408+00:00 RX 01 03 40 00 00 00 00 00 03 00 00 00 03 00 00 00 00 00 00 00 00 00 00 00 00 00 00 00 01 00 00 01 00 05 0A 00 00 00 00 00 00 00 00 00 00 00 00 00 00 00 00 00 00 00 00 00 00 00 00 FF FF 5E FE FF FF 5E FE 6B E9
2026-07-24T18:13:47.137406+00:00 TX 01 03 00 20 00 02 C5 C1
2026-07-24T18:13:47.145560+00:00 RX 01 03 04 00 00 41 6B 8B 8C
2026-07-24T18:13:47.147561+00:00 TX 01 03 01 C4 00 01 C4 0B
2026-07-24T18:13:47.154064+00:00 RX 01 03 02 00 00 B8 44
2026-07-24T18:13:47.204094+00:00 TX 01 03 00 00 00 20 44 12
2026-07-24T18:13:47.248278+00:00 RX 01 03 40 00 00 00 00 00 03 00 00 00 03 00 00 00 00 00 00 00 00 00 00 00 00 00 00 00 01 00 00 01 00 05 0A 00 00 00 00 00 00 00 00 00 00 00 00 00 00 00 00 00 00 00 00 00 00 00 00 FF FF 5D 2E FF FF 5D 2E AB 64
2026-07-24T18:13:47.251784+00:00 TX 01 03 00 20 00 02 C5 C1
2026-07-24T18:13:47.259786+00:00 RX 01 03 04 00 00 41 6C CA 4E
2026-07-24T18:13:47.261786+00:00 TX 01 03 01 C4 00 01 C4 0B
2026-07-24T18:13:47.267788+00:00 RX 01 03 02 00 00 B8 44
2026-07-24T18:13:47.318800+00:00 TX 01 03 00 00 00 20 44 12
2026-07-24T18:13:47.363308+00:00 RX 01 03 40 00 00 00 00 00 03 00 00 00 03 00 00 00 00 00 00 00 00 00 00 00 00 00 00 00 01 00 00 01 00 05 0A 00 00 00 00 00 00 00 00 00 00 00 00 00 00 00 00 00 00 00 00 00 00 00 00 FF FF 5C EF FF FF 5C EF 57 64
2026-07-24T18:13:47.366316+00:00 TX 01 03 00 20 00 02 C5 C1
2026-07-24T18:13:47.374320+00:00 RX 01 03 04 00 00 41 6D 0B 8E
2026-07-24T18:13:47.376321+00:00 TX 01 03 01 C4 00 01 C4 0B
2026-07-24T18:13:47.383322+00:00 RX 01 03 02 00 00 B8 44
2026-07-24T18:13:47.433903+00:00 TX 01 03 00 00 00 20 44 12
2026-07-24T18:13:47.478411+00:00 RX 01 03 40 00 00 00 00 00 03 00 00 00 03 00 00 00 00 00 00 00 00 00 00 00 00 00 00 00 01 00 00 01 00 05 0A 00 00 00 00 00 00 00 00 00 00 00 00 00 00 00 00 00 00 00 00 00 00 00 00 FF FF 5D 72 FF FF 5D 72 7B 50
2026-07-24T18:13:47.480411+00:00 TX 01 03 00 20 00 02 C5 C1
2026-07-24T18:13:47.488414+00:00 RX 01 03 04 00 00 41 6F 8A 4F
2026-07-24T18:13:47.491411+00:00 TX 01 03 01 C4 00 01 C4 0B
2026-07-24T18:13:47.498412+00:00 RX 01 03 02 00 00 B8 44
2026-07-24T18:13:47.548923+00:00 TX 01 03 00 00 00 20 44 12
2026-07-24T18:13:47.594432+00:00 RX 01 03 40 00 00 00 00 00 03 00 00 00 03 00 00 00 00 00 00 00 00 00 00 00 00 00 00 00 01 00 00 01 00 05 0A 00 00 00 00 00 00 00 00 00 00 00 00 00 00 00 00 00 00 00 00 00 00 00 00 FF FF 5D E0 FF FF 5D E0 43 20
2026-07-24T18:13:47.596433+00:00 TX 01 03 00 20 00 02 C5 C1
2026-07-24T18:13:47.604950+00:00 RX 01 03 04 00 00 41 70 CB 87
2026-07-24T18:13:47.606950+00:00 TX 01 03 01 C4 00 01 C4 0B
2026-07-24T18:13:47.613952+00:00 RX 01 03 02 00 00 B8 44
2026-07-24T18:13:47.664018+00:00 TX 01 03 00 00 00 20 44 12
2026-07-24T18:13:47.709058+00:00 RX 01 03 40 00 00 00 00 00 03 00 00 00 03 00 00 00 00 00 00 00 00 00 00 00 00 00 00 00 01 00 00 01 00 05 0A 00 00 00 00 00 00 00 00 00 00 00 00 00 00 00 00 00 00 00 00 00 00 00 00 FF FF 5D 1E FF FF 5D 1E EB 74
2026-07-24T18:13:47.711058+00:00 TX 01 03 00 20 00 02 C5 C1
2026-07-24T18:13:47.718060+00:00 RX 01 03 04 00 00 41 71 0A 47
2026-07-24T18:13:47.720060+00:00 TX 01 03 01 C4 00 01 C4 0B
2026-07-24T18:13:47.726062+00:00 RX 01 03 02 00 00 B8 44
2026-07-24T18:13:47.776107+00:00 TX 01 03 00 00 00 20 44 12
2026-07-24T18:13:47.820116+00:00 RX 01 03 40 00 00 00 00 00 03 00 00 00 03 00 00 00 00 00 00 00 00 00 00 00 00 00 00 00 01 00 00 01 00 05 0A 00 00 00 00 00 00 00 00 00 00 00 00 00 00 00 00 00 00 00 00 00 00 00 00 FF FF 5D 3A FF FF 5D 3A 9B 68
2026-07-24T18:13:47.823117+00:00 TX 01 03 00 20 00 02 C5 C1
2026-07-24T18:13:47.830118+00:00 RX 01 03 04 00 00 41 72 4A 46
2026-07-24T18:13:47.833119+00:00 TX 01 03 01 C4 00 01 C4 0B
2026-07-24T18:13:47.839117+00:00 RX 01 03 02 00 00 B8 44
2026-07-24T18:13:47.889637+00:00 TX 01 03 00 00 00 20 44 12
2026-07-24T18:13:47.934548+00:00 RX 01 03 40 00 00 00 00 00 03 00 00 00 03 00 00 00 00 00 00 00 00 00 00 00 00 00 00 00 01 00 00 01 00 05 0A 00 00 00 00 00 00 00 00 00 00 00 00 00 00 00 00 00 00 00 00 00 00 00 00 FF FF 5A D0 FF FF 5A D0 00 B7
2026-07-24T18:13:47.936549+00:00 TX 01 03 00 20 00 02 C5 C1
2026-07-24T18:13:47.945547+00:00 RX 01 03 04 00 00 41 73 8B 86
2026-07-24T18:13:47.947548+00:00 TX 01 03 01 C4 00 01 C4 0B
2026-07-24T18:13:47.954050+00:00 RX 01 03 02 00 00 B8 44
2026-07-24T18:13:48.004085+00:00 TX 01 03 00 00 00 20 44 12
2026-07-24T18:13:48.048589+00:00 RX 01 03 40 00 00 00 00 00 03 00 00 00 03 00 00 00 00 00 00 00 00 00 00 00 00 00 00 00 01 00 00 01 00 05 0A 00 00 00 00 00 00 00 00 00 00 00 00 00 00 00 00 00 00 00 00 00 00 00 00 FF FF 5B 94 FF FF 5B 94 F0 CA
2026-07-24T18:13:48.050589+00:00 TX 01 03 00 20 00 02 C5 C1
2026-07-24T18:13:48.058092+00:00 RX 01 03 04 00 00 41 74 CA 44
2026-07-24T18:13:48.060093+00:00 TX 01 03 01 C4 00 01 C4 0B
2026-07-24T18:13:48.066095+00:00 RX 01 03 02 00 00 B8 44
2026-07-24T18:13:48.116155+00:00 TX 01 03 00 00 00 20 44 12
2026-07-24T18:13:48.160942+00:00 RX 01 03 40 00 00 00 00 00 03 00 00 00 03 00 00 00 00 00 00 00 00 00 00 00 00 00 00 00 01 00 00 01 00 05 0A 00 00 00 00 00 00 00 00 00 00 00 00 00 00 00 00 00 00 00 00 00 00 00 00 FF FF 5D 0D FF FF 5D 0D 2F 7A
2026-07-24T18:13:48.162942+00:00 TX 01 03 00 20 00 02 C5 C1
2026-07-24T18:13:48.170941+00:00 RX 01 03 04 00 00 41 76 4B 85
2026-07-24T18:13:48.172942+00:00 TX 01 03 01 C4 00 01 C4 0B
2026-07-24T18:13:48.178943+00:00 RX 01 03 02 00 00 B8 44
2026-07-24T18:13:48.229773+00:00 TX 01 03 00 00 00 20 44 12
2026-07-24T18:13:48.274955+00:00 RX 01 03 40 00 00 00 00 00 03 00 00 00 03 00 00 00 00 00 00 00 00 00 00 00 00 00 00 00 01 00 00 01 00 05 0A 00 00 00 00 00 00 00 00 00 00 00 00 00 00 00 00 00 00 00 00 00 00 00 00 FF FF 5C 7E FF FF 5C 7E 6B 15
2026-07-24T18:13:48.276956+00:00 TX 01 03 00 20 00 02 C5 C1
2026-07-24T18:13:48.285354+00:00 RX 01 03 04 00 00 41 77 8A 45
2026-07-24T18:13:48.288857+00:00 TX 01 03 01 C4 00 01 C4 0B
2026-07-24T18:13:48.294858+00:00 RX 01 03 02 00 00 B8 44
2026-07-24T18:13:48.345867+00:00 TX 01 03 00 00 00 20 44 12
2026-07-24T18:13:48.390873+00:00 RX 01 03 40 00 00 00 00 00 03 00 00 00 03 00 00 00 00 00 00 00 00 00 00 00 00 00 00 00 01 00 00 01 00 05 0A 00 00 00 00 00 00 00 00 00 00 00 00 00 00 00 00 00 00 00 00 00 00 00 00 FF FF 5B 54 FF FF 5B 54 F0 8B
2026-07-24T18:13:48.393874+00:00 TX 01 03 00 20 00 02 C5 C1
2026-07-24T18:13:48.401876+00:00 RX 01 03 04 00 00 41 78 CA 41
2026-07-24T18:13:48.403877+00:00 TX 01 03 01 C4 00 01 C4 0B
2026-07-24T18:13:48.410381+00:00 RX 01 03 02 00 00 B8 44
2026-07-24T18:13:48.460392+00:00 TX 01 03 00 00 00 20 44 12
2026-07-24T18:13:48.504729+00:00 RX 01 03 40 00 00 00 00 00 03 00 00 00 03 00 00 00 00 00 00 00 00 00 00 00 00 00 00 00 01 00 00 01 00 05 0A 00 00 00 00 00 00 00 00 00 00 00 00 00 00 00 00 00 00 00 00 00 00 00 00 FF FF 5E 79 FF FF 5E 79 9F 95
2026-07-24T18:13:48.507730+00:00 TX 01 03 00 20 00 02 C5 C1
2026-07-24T18:13:48.514731+00:00 RX 01 03 04 00 00 41 79 0B 81
2026-07-24T18:13:48.517732+00:00 TX 01 03 01 C4 00 01 C4 0B
2026-07-24T18:13:48.523733+00:00 RX 01 03 02 00 00 B8 44
2026-07-24T18:13:48.575242+00:00 TX 01 03 00 00 00 20 44 12
2026-07-24T18:13:48.620253+00:00 RX 01 03 40 00 00 00 00 00 03 00 00 00 03 00 00 00 00 00 00 00 00 00 00 00 00 00 00 00 01 00 00 01 00 05 0A 00 00 00 00 00 00 00 00 00 00 00 00 00 00 00 00 00 00 00 00 00 00 00 00 FF FF 5D 6A FF FF 5D 6A 5B 58
2026-07-24T18:13:48.623254+00:00 TX 01 03 00 20 00 02 C5 C1
2026-07-24T18:13:48.631338+00:00 RX 01 03 04 00 00 41 7A 4B 80
2026-07-24T18:13:48.633339+00:00 TX 01 03 01 C4 00 01 C4 0B
2026-07-24T18:13:48.640032+00:00 RX 01 03 02 00 00 B8 44
2026-07-24T18:13:48.690064+00:00 TX 01 03 00 00 00 20 44 12
2026-07-24T18:13:48.734225+00:00 RX 01 03 40 00 00 00 00 00 03 00 00 00 03 00 00 00 00 00 00 00 00 00 00 00 00 00 00 00 01 00 00 01 00 05 0A 00 00 00 00 00 00 00 00 00 00 00 00 00 00 00 00 00 00 00 00 00 00 00 00 FF FF 5B C3 FF FF 5B C3 C4 F8
2026-07-24T18:13:48.737227+00:00 TX 01 03 00 20 00 02 C5 C1
2026-07-24T18:13:48.744737+00:00 RX 01 03 04 00 00 41 7B 8A 40
2026-07-24T18:13:48.747738+00:00 TX 01 03 01 C4 00 01 C4 0B
2026-07-24T18:13:48.753801+00:00 RX 01 03 02 00 00 B8 44
2026-07-24T18:13:48.804330+00:00 TX 01 03 00 00 00 20 44 12
2026-07-24T18:13:48.848883+00:00 RX 01 03 40 00 00 00 00 00 03 00 00 00 03 00 00 00 00 00 00 00 00 00 00 00 00 00 00 00 01 00 00 01 00 05 0A 00 00 00 00 00 00 00 00 00 00 00 00 00 00 00 00 00 00 00 00 00 00 00 00 FF FF 5A 69 FF FF 5A 69 5C DE
2026-07-24T18:13:48.850883+00:00 TX 01 03 00 20 00 02 C5 C1
2026-07-24T18:13:48.858386+00:00 RX 01 03 04 00 00 41 7D 0A 42
2026-07-24T18:13:48.860386+00:00 TX 01 03 01 C4 00 01 C4 0B
2026-07-24T18:13:48.866388+00:00 RX 01 03 02 00 00 B8 44
2026-07-24T18:13:48.916399+00:00 TX 01 03 00 00 00 20 44 12
2026-07-24T18:13:48.960907+00:00 RX 01 03 40 00 00 00 00 00 03 00 00 00 03 00 00 00 00 00 00 00 00 00 00 00 00 00 00 00 01 00 00 01 00 05 0A 00 00 00 00 00 00 00 00 00 00 00 00 00 00 00 00 00 00 00 00 00 00 00 00 FF FF 58 2B FF FF 58 2B A4 62
2026-07-24T18:13:48.962908+00:00 TX 01 03 00 20 00 02 C5 C1
2026-07-24T18:13:48.969910+00:00 RX 01 03 04 00 00 41 7E 4A 43
2026-07-24T18:13:48.972910+00:00 TX 01 03 01 C4 00 01 C4 0B
2026-07-24T18:13:48.978911+00:00 RX 01 03 02 00 00 B8 44
2026-07-24T18:13:49.029546+00:00 TX 01 03 00 00 00 20 44 12
2026-07-24T18:13:49.073722+00:00 RX 01 03 40 00 00 00 00 00 03 00 00 00 03 00 00 00 00 00 00 00 00 00 00 00 00 00 00 00 01 00 00 01 00 05 0A 00 00 00 00 00 00 00 00 00 00 00 00 00 00 00 00 00 00 00 00 00 00 00 00 FF FF 57 2B FF FF 57 2B A1 6D
2026-07-24T18:13:49.076723+00:00 TX 01 03 00 20 00 02 C5 C1
2026-07-24T18:13:49.085725+00:00 RX 01 03 04 00 00 41 7F 8B 83
2026-07-24T18:13:49.087726+00:00 TX 01 03 01 C4 00 01 C4 0B
2026-07-24T18:13:49.094727+00:00 RX 01 03 02 00 00 B8 44
2026-07-24T18:13:49.144864+00:00 TX 01 03 00 00 00 20 44 12
2026-07-24T18:13:49.190483+00:00 RX 01 03 40 00 00 00 00 00 03 00 00 00 03 00 00 00 00 00 00 00 00 00 00 00 00 00 00 00 01 00 00 01 00 05 0A 00 00 00 00 00 00 00 00 00 00 00 00 00 00 00 00 00 00 00 00 00 00 00 00 FF FF 58 8C FF FF 58 8C D0 01
2026-07-24T18:13:49.192483+00:00 TX 01 03 00 20 00 02 C5 C1
2026-07-24T18:13:49.200485+00:00 RX 01 03 04 00 00 41 80 CB C3
2026-07-24T18:13:49.203486+00:00 TX 01 03 01 C4 00 01 C4 0B
2026-07-24T18:13:49.210002+00:00 RX 01 03 02 00 00 B8 44
2026-07-24T18:13:49.260015+00:00 TX 01 03 00 00 00 20 44 12
2026-07-24T18:13:49.304560+00:00 RX 01 03 40 00 00 00 00 00 03 00 00 00 03 00 00 00 00 00 00 00 00 00 00 00 00 00 00 00 01 00 00 01 00 05 0A 00 00 00 00 00 00 00 00 00 00 00 00 00 00 00 00 00 00 00 00 00 00 00 00 FF FF 58 8D FF FF 58 8D 2C 01
2026-07-24T18:13:49.307137+00:00 TX 01 03 00 20 00 02 C5 C1
2026-07-24T18:13:49.315435+00:00 RX 01 03 04 00 00 41 81 0A 03
2026-07-24T18:13:49.318949+00:00 TX 01 03 01 C4 00 01 C4 0B
2026-07-24T18:13:49.325950+00:00 RX 01 03 02 00 00 B8 44
2026-07-24T18:13:49.376461+00:00 TX 01 03 00 00 00 20 44 12
2026-07-24T18:13:49.420880+00:00 RX 01 03 40 00 00 00 00 00 03 00 00 00 03 00 00 00 00 00 00 00 00 00 00 00 00 00 00 00 01 00 00 01 00 05 0A 00 00 00 00 00 00 00 00 00 00 00 00 00 00 00 00 00 00 00 00 00 00 00 00 FF FF 58 5C FF FF 58 5C 10 4F
2026-07-24T18:13:49.423877+00:00 TX 01 03 00 20 00 02 C5 C1
2026-07-24T18:13:49.430879+00:00 RX 01 03 04 00 00 41 82 4A 02
2026-07-24T18:13:49.433879+00:00 TX 01 03 01 C4 00 01 C4 0B
2026-07-24T18:13:49.439881+00:00 RX 01 03 02 00 00 B8 44
2026-07-24T18:13:49.490910+00:00 TX 01 03 00 00 00 20 44 12
2026-07-24T18:13:49.535998+00:00 RX 01 03 40 00 00 00 00 00 03 00 00 00 03 00 00 00 00 00 00 00 00 00 00 00 00 00 00 00 01 00 00 01 00 05 0A 00 00 00 00 00 00 00 00 00 00 00 00 00 00 00 00 00 00 00 00 00 00 00 00 FF FF 59 7A FF FF 59 7A 98 13
2026-07-24T18:13:49.537999+00:00 TX 01 03 00 20 00 02 C5 C1
2026-07-24T18:13:49.545997+00:00 RX 01 03 04 00 00 41 84 CA 00
2026-07-24T18:13:49.547997+00:00 TX 01 03 01 C4 00 01 C4 0B
2026-07-24T18:13:49.553999+00:00 RX 01 03 02 00 00 B8 44
2026-07-24T18:13:49.604508+00:00 TX 01 03 00 00 00 20 44 12
2026-07-24T18:13:49.649158+00:00 RX 01 03 40 00 00 00 00 00 03 00 00 00 03 00 00 00 00 00 00 00 00 00 00 00 00 00 00 00 01 00 00 01 00 05 0A 00 00 00 00 00 00 00 00 00 00 00 00 00 00 00 00 00 00 00 00 00 00 00 00 FF FF 59 F3 FF FF 59 F3 84 6A
2026-07-24T18:13:49.651159+00:00 TX 01 03 00 20 00 02 C5 C1
2026-07-24T18:13:49.659662+00:00 RX 01 03 04 00 00 41 85 0B C0
2026-07-24T18:13:49.662663+00:00 TX 01 03 01 C4 00 01 C4 0B
2026-07-24T18:13:49.668664+00:00 RX 01 03 02 00 00 B8 44
2026-07-24T18:13:49.720203+00:00 TX 01 03 00 00 00 20 44 12
2026-07-24T18:13:49.764769+00:00 RX 01 03 40 00 00 00 00 00 03 00 00 00 03 00 00 00 00 00 00 00 00 00 00 00 00 00 00 00 01 00 00 01 00 05 0A 00 00 00 00 00 00 00 00 00 00 00 00 00 00 00 00 00 00 00 00 00 00 00 00 FF FF 57 AB FF FF 57 AB A1 13
2026-07-24T18:13:49.767770+00:00 TX 01 03 00 20 00 02 C5 C1
2026-07-24T18:13:49.774771+00:00 RX 01 03 04 00 00 41 86 4B C1
2026-07-24T18:13:49.778769+00:00 TX 01 03 01 C4 00 01 C4 0B
2026-07-24T18:13:49.785771+00:00 RX 01 03 02 00 00 B8 44
2026-07-24T18:13:49.835811+00:00 TX 01 03 00 00 00 20 44 12
2026-07-24T18:13:49.880318+00:00 RX 01 03 40 00 00 00 00 00 03 00 00 00 03 00 00 00 00 00 00 00 00 00 00 00 00 00 00 00 01 00 00 01 00 05 0A 00 00 00 00 00 00 00 00 00 00 00 00 00 00 00 00 00 00 00 00 00 00 00 00 FF FF 58 75 FF FF 58 75 8C 57
2026-07-24T18:13:49.882319+00:00 TX 01 03 00 20 00 02 C5 C1
2026-07-24T18:13:49.890320+00:00 RX 01 03 04 00 00 41 87 8A 01
2026-07-24T18:13:49.892321+00:00 TX 01 03 01 C4 00 01 C4 0B
2026-07-24T18:13:49.898322+00:00 RX 01 03 02 00 00 B8 44
2026-07-24T18:13:49.949018+00:00 TX 01 03 00 00 00 20 44 12
2026-07-24T18:13:49.994071+00:00 RX 01 03 40 00 00 00 00 00 03 00 00 00 03 00 00 00 00 00 00 00 00 00 00 00 00 00 00 00 01 00 00 01 00 05 0A 00 00 00 00 00 00 00 00 00 00 00 00 00 00 00 00 00 00 00 00 00 00 00 00 FF FF 56 97 FF FF 56 97 F1 46
2026-07-24T18:13:49.995071+00:00 TX 01 03 00 20 00 02 C5 C1
2026-07-24T18:13:50.003073+00:00 RX 01 03 04 00 00 41 88 CA 05
2026-07-24T18:13:50.005073+00:00 TX 01 03 01 C4 00 01 C4 0B
2026-07-24T18:13:50.011577+00:00 RX 01 03 02 00 00 B8 44
2026-07-24T18:13:50.061587+00:00 TX 01 03 00 00 00 20 44 12
2026-07-24T18:13:50.106598+00:00 RX 01 03 40 00 00 00 00 00 03 00 00 00 03 00 00 00 00 00 00 00 00 00 00 00 00 00 00 00 01 00 00 01 00 05 0A 00 00 00 00 00 00 00 00 00 00 00 00 00 00 00 00 00 00 00 00 00 00 00 00 FF FF 57 12 FF FF 57 12 FD 7A
2026-07-24T18:13:50.108598+00:00 TX 01 03 00 20 00 02 C5 C1
2026-07-24T18:13:50.116600+00:00 RX 01 03 04 00 00 41 89 0B C5
2026-07-24T18:13:50.118601+00:00 TX 01 03 01 C4 00 01 C4 0B
2026-07-24T18:13:50.125602+00:00 RX 01 03 02 00 00 B8 44
2026-07-24T18:13:50.175634+00:00 TX 01 03 00 00 00 20 44 12
2026-07-24T18:13:50.220161+00:00 RX 01 03 40 00 00 00 00 00 03 00 00 00 03 00 00 00 00 00 00 00 00 00 00 00 00 00 00 00 01 00 00 01 00 05 0A 00 00 00 00 00 00 00 00 00 00 00 00 00 00 00 00 00 00 00 00 00 00 00 00 FF FF 57 DD FF FF 57 DD E9 3E
2026-07-24T18:13:50.222662+00:00 TX 01 03 00 20 00 02 C5 C1
2026-07-24T18:13:50.229664+00:00 RX 01 03 04 00 00 41 8B 8A 04
2026-07-24T18:13:50.232664+00:00 TX 01 03 01 C4 00 01 C4 0B
2026-07-24T18:13:50.238666+00:00 RX 01 03 02 00 00 B8 44
2026-07-24T18:13:50.289823+00:00 TX 01 03 00 00 00 20 44 12
2026-07-24T18:13:50.334834+00:00 RX 01 03 40 00 00 00 00 00 03 00 00 00 03 00 00 00 00 00 00 00 00 00 00 00 00 00 00 00 01 00 00 01 00 05 0A 00 00 00 00 00 00 00 00 00 00 00 00 00 00 00 00 00 00 00 00 00 00 00 00 FF FF 56 3F FF FF 56 3F 91 20
2026-07-24T18:13:50.336834+00:00 TX 01 03 00 20 00 02 C5 C1
2026-07-24T18:13:50.344833+00:00 RX 01 03 04 00 00 41 8C CB C6
2026-07-24T18:13:50.346833+00:00 TX 01 03 01 C4 00 01 C4 0B
2026-07-24T18:13:50.352834+00:00 RX 01 03 02 00 00 B8 44
2026-07-24T18:13:50.403345+00:00 TX 01 03 00 00 00 20 44 12
2026-07-24T18:13:50.448356+00:00 RX 01 03 40 00 00 00 00 00 03 00 00 00 03 00 00 00 00 00 00 00 00 00 00 00 00 00 00 00 01 00 00 01 00 05 0A 00 00 00 00 00 00 00 00 00 00 00 00 00 00 00 00 00 00 00 00 00 00 00 00 FF FF 54 37 FF FF 54 37 71 A5
2026-07-24T18:13:50.450356+00:00 TX 01 03 00 20 00 02 C5 C1
2026-07-24T18:13:50.457358+00:00 RX 01 03 04 00 00 41 8D 0A 06
2026-07-24T18:13:50.459859+00:00 TX 01 03 01 C4 00 01 C4 0B
2026-07-24T18:13:50.465862+00:00 RX 01 03 02 00 00 B8 44
2026-07-24T18:13:50.515918+00:00 TX 01 03 00 00 00 20 44 12
2026-07-24T18:13:50.560426+00:00 RX 01 03 40 00 00 00 00 00 03 00 00 00 03 00 00 00 00 00 00 00 00 00 00 00 00 00 00 00 01 00 00 01 00 05 0A 00 00 00 00 00 00 00 00 00 00 00 00 00 00 00 00 00 00 00 00 00 00 00 00 FF FF 57 68 FF FF 57 68 A5 53
2026-07-24T18:13:50.562426+00:00 TX 01 03 00 20 00 02 C5 C1
2026-07-24T18:13:50.570428+00:00 RX 01 03 04 00 00 41 8E 4A 07
2026-07-24T18:13:50.572429+00:00 TX 01 03 01 C4 00 01 C4 0B
2026-07-24T18:13:50.579430+00:00 RX 01 03 02 00 00 B8 44
2026-07-24T18:13:50.630086+00:00 TX 01 03 00 00 00 20 44 12
2026-07-24T18:13:50.674136+00:00 RX 01 03 40 00 00 00 00 00 03 00 00 00 03 00 00 00 00 00 00 00 00 00 00 00 00 00 00 00 01 00 00 01 00 05 0A 00 00 00 00 00 00 00 00 00 00 00 00 00 00 00 00 00 00 00 00 00 00 00 00 FF FF 56 E8 FF FF 56 E8 A5 6C
2026-07-24T18:13:50.678138+00:00 TX 01 03 00 20 00 02 C5 C1
2026-07-24T18:13:50.686139+00:00 RX 01 03 04 00 00 41 8F 8B C7
2026-07-24T18:13:50.688140+00:00 TX 01 03 01 C4 00 01 C4 0B
2026-07-24T18:13:50.694142+00:00 RX 01 03 02 00 00 B8 44
2026-07-24T18:13:50.744150+00:00 TX 01 03 00 00 00 20 44 12
2026-07-24T18:13:50.788226+00:00 RX 01 03 40 00 00 00 00 00 03 00 00 00 03 00 00 00 00 00 00 00 00 00 00 00 00 00 00 00 01 00 00 01 00 05 0A 00 00 00 00 00 00 00 00 00 00 00 00 00 00 00 00 00 00 00 00 00 00 00 00 FF FF 57 06 FF FF 57 06 CD 76
2026-07-24T18:13:50.791226+00:00 TX 01 03 00 20 00 02 C5 C1
2026-07-24T18:13:50.799224+00:00 RX 01 03 04 00 00 41 90 CA 0F
2026-07-24T18:13:50.801225+00:00 TX 01 03 01 C4 00 01 C4 0B
2026-07-24T18:13:50.807731+00:00 RX 01 03 02 00 00 B8 44
2026-07-24T18:13:50.858238+00:00 TX 01 03 00 00 00 20 44 12
2026-07-24T18:13:50.903750+00:00 RX 01 03 40 00 00 00 00 00 03 00 00 00 03 00 00 00 00 00 00 00 00 00 00 00 00 00 00 00 01 00 00 01 00 05 0A 00 00 00 00 00 00 00 00 00 00 00 00 00 00 00 00 00 00 00 00 00 00 00 00 FF FF 5A AE FF FF 5A AE A8 9D
2026-07-24T18:13:50.906750+00:00 TX 01 03 00 20 00 02 C5 C1
2026-07-24T18:13:50.914752+00:00 RX 01 03 04 00 00 41 92 4B CE
2026-07-24T18:13:50.916752+00:00 TX 01 03 01 C4 00 01 C4 0B
2026-07-24T18:13:50.923754+00:00 RX 01 03 02 00 00 B8 44
2026-07-24T18:13:50.973809+00:00 TX 01 03 00 00 00 20 44 12
2026-07-24T18:13:51.018647+00:00 RX 01 03 40 00 00 00 00 00 03 00 00 00 03 00 00 00 00 00 00 00 00 00 00 00 00 00 00 00 01 00 00 01 00 05 0A 00 00 00 00 00 00 00 00 00 00 00 00 00 00 00 00 00 00 00 00 00 00 00 00 FF FF 5C C2 FF FF 5C C2 3B 7F
2026-07-24T18:13:51.020648+00:00 TX 01 03 00 20 00 02 C5 C1
2026-07-24T18:13:51.028151+00:00 RX 01 03 04 00 00 41 93 8A 0E
2026-07-24T18:13:51.030152+00:00 TX 01 03 01 C4 00 01 C4 0B
2026-07-24T18:13:51.036153+00:00 RX 01 03 02 00 00 B8 44
2026-07-24T18:13:51.086662+00:00 TX 01 03 00 00 00 20 44 12
2026-07-24T18:13:51.131673+00:00 RX 01 03 40 00 00 00 00 00 03 00 00 00 03 00 00 00 00 00 00 00 00 00 00 00 00 00 00 00 01 00 00 01 00 05 0A 00 00 00 00 00 00 00 00 00 00 00 00 00 00 00 00 00 00 00 00 00 00 00 00 FF FF 5C C1 FF FF 5C C1 3F 7E
2026-07-24T18:13:51.134674+00:00 TX 01 03 00 20 00 02 C5 C1
2026-07-24T18:13:51.142675+00:00 RX 01 03 04 00 00 41 94 CB CC
2026-07-24T18:13:51.146247+00:00 TX 01 03 01 C4 00 01 C4 0B
2026-07-24T18:13:51.153249+00:00 RX 01 03 02 00 00 B8 44
2026-07-24T18:13:51.203917+00:00 TX 01 03 00 00 00 20 44 12
2026-07-24T18:13:51.248926+00:00 RX 01 03 40 00 00 00 00 00 03 00 00 00 03 00 00 00 00 00 00 00 00 00 00 00 00 00 00 00 01 00 00 01 00 05 0A 00 00 00 00 00 00 00 00 00 00 00 00 00 00 00 00 00 00 00 00 00 00 00 00 FF FF 5A 2D FF FF 5A 2D AC E2
2026-07-24T18:13:51.250927+00:00 TX 01 03 00 20 00 02 C5 C1
2026-07-24T18:13:51.257928+00:00 RX 01 03 04 00 00 41 95 0A 0C
2026-07-24T18:13:51.260433+00:00 TX 01 03 01 C4 00 01 C4 0B
2026-07-24T18:13:51.267431+00:00 RX 01 03 02 00 00 B8 44
2026-07-24T18:13:51.317443+00:00 TX 01 03 00 00 00 20 44 12
2026-07-24T18:13:51.361952+00:00 RX 01 03 40 00 00 00 00 00 03 00 00 00 03 00 00 00 00 00 00 00 00 00 00 00 00 00 00 00 01 00 00 01 00 05 0A 00 00 00 00 00 00 00 00 00 00 00 00 00 00 00 00 00 00 00 00 00 00 00 00 FF FF 59 89 FF FF 59 89 DC 43
2026-07-24T18:13:51.363952+00:00 TX 01 03 00 20 00 02 C5 C1
2026-07-24T18:13:51.370954+00:00 RX 01 03 04 00 00 41 96 4A 0D
2026-07-24T18:13:51.372954+00:00 TX 01 03 01 C4 00 01 C4 0B
2026-07-24T18:13:51.378955+00:00 RX 01 03 02 00 00 B8 44
2026-07-24T18:13:51.429487+00:00 TX 01 03 00 00 00 20 44 12
2026-07-24T18:13:51.473997+00:00 RX 01 03 40 00 00 00 00 00 03 00 00 00 03 00 00 00 00 00 00 00 00 00 00 00 00 00 00 00 01 00 00 01 00 05 0A 00 00 00 00 00 00 00 00 00 00 00 00 00 00 00 00 00 00 00 00 00 00 00 00 FF FF 5A E7 FF FF 5A E7 B4 A5
2026-07-24T18:13:51.475997+00:00 TX 01 03 00 20 00 02 C5 C1
2026-07-24T18:13:51.483999+00:00 RX 01 03 04 00 00 41 97 8B CD
2026-07-24T18:13:51.486000+00:00 TX 01 03 01 C4 00 01 C4 0B
2026-07-24T18:13:51.491998+00:00 RX 01 03 02 00 00 B8 44
2026-07-24T18:13:51.543095+00:00 TX 01 03 00 00 00 20 44 12
2026-07-24T18:13:51.588603+00:00 RX 01 03 40 00 00 00 00 00 03 00 00 00 03 00 00 00 00 00 00 00 00 00 00 00 00 00 00 00 01 00 00 01 00 05 0A 00 00 00 00 00 00 00 00 00 00 00 00 00 00 00 00 00 00 00 00 00 00 00 00 FF FF 5A 52 FF FF 5A 52 F8 C8
2026-07-24T18:13:51.590604+00:00 TX 01 03 00 20 00 02 C5 C1
2026-07-24T18:13:51.598602+00:00 RX 01 03 04 00 00 41 98 CB C9
2026-07-24T18:13:51.600603+00:00 TX 01 03 01 C4 00 01 C4 0B
2026-07-24T18:13:51.606604+00:00 RX 01 03 02 00 00 B8 44
2026-07-24T18:13:51.657144+00:00 TX 01 03 00 00 00 20 44 12
2026-07-24T18:13:51.702176+00:00 RX 01 03 40 00 00 00 00 00 03 00 00 00 03 00 00 00 00 00 00 00 00 00 00 00 00 00 00 00 01 00 00 01 00 05 0A 00 00 00 00 00 00 00 00 00 00 00 00 00 00 00 00 00 00 00 00 00 00 00 00 FF FF 5A 49 FF FF 5A 49 DC C1
2026-07-24T18:13:51.704177+00:00 TX 01 03 00 20 00 02 C5 C1
2026-07-24T18:13:51.712179+00:00 RX 01 03 04 00 00 41 9A 4A 08
2026-07-24T18:13:51.714179+00:00 TX 01 03 01 C4 00 01 C4 0B
2026-07-24T18:13:51.720181+00:00 RX 01 03 02 00 00 B8 44
2026-07-24T18:13:51.771034+00:00 TX 01 03 00 00 00 20 44 12
2026-07-24T18:13:51.816553+00:00 RX 01 03 40 00 00 00 00 00 03 00 00 00 03 00 00 00 00 00 00 00 00 00 00 00 00 00 00 00 01 00 00 01 00 05 0A 00 00 00 00 00 00 00 00 00 00 00 00 00 00 00 00 00 00 00 00 00 00 00 00 FF FF 5A 28 FF FF 5A 28 A0 E1
2026-07-24T18:13:51.818553+00:00 TX 01 03 00 20 00 02 C5 C1
2026-07-24T18:13:51.826057+00:00 RX 01 03 04 00 00 41 9B 8B C8
2026-07-24T18:13:51.829059+00:00 TX 01 03 01 C4 00 01 C4 0B
2026-07-24T18:13:51.835059+00:00 RX 01 03 02 00 00 B8 44
2026-07-24T18:13:51.886569+00:00 TX 01 03 00 00 00 20 44 12
2026-07-24T18:13:51.931579+00:00 RX 01 03 40 00 00 00 00 00 03 00 00 00 03 00 00 00 00 00 00 00 00 00 00 00 00 00 00 00 01 00 00 01 00 05 0A 00 00 00 00 00 00 00 00 00 00 00 00 00 00 00 00 00 00 00 00 00 00 00 00 FF FF 58 B8 FF FF 58 B8 60 12
2026-07-24T18:13:51.933580+00:00 TX 01 03 00 20 00 02 C5 C1
2026-07-24T18:13:51.941582+00:00 RX 01 03 04 00 00 41 9C CA 0A
2026-07-24T18:13:51.943582+00:00 TX 01 03 01 C4 00 01 C4 0B
2026-07-24T18:13:51.950581+00:00 RX 01 03 02 00 00 B8 44
2026-07-24T18:13:52.000607+00:00 TX 01 03 00 00 00 20 44 12
2026-07-24T18:13:52.044656+00:00 RX 01 03 40 00 00 00 00 00 03 00 00 00 03 00 00 00 00 00 00 00 00 00 00 00 00 00 00 00 01 00 00 01 00 05 0A 00 00 00 00 00 00 00 00 00 00 00 00 00 00 00 00 00 00 00 00 00 00 00 00 FF FF 58 92 FF FF 58 92 F8 0B
2026-07-24T18:13:52.048653+00:00 TX 01 03 00 20 00 02 C5 C1
2026-07-24T18:13:52.056655+00:00 RX 01 03 04 00 00 41 9D 0B CA
2026-07-24T18:13:52.058656+00:00 TX 01 03 01 C4 00 01 C4 0B
2026-07-24T18:13:52.065159+00:00 RX 01 03 02 00 00 B8 44
2026-07-24T18:13:52.116252+00:00 TX 01 03 00 00 00 20 44 12
2026-07-24T18:13:52.160858+00:00 RX 01 03 40 00 00 00 00 00 03 00 00 00 03 00 00 00 00 00 00 00 00 00 00 00 00 00 00 00 01 00 00 01 00 05 0A 00 00 00 00 00 00 00 00 00 00 00 00 00 00 00 00 00 00 00 00 00 00 00 00 FF FF 5A C4 FF FF 5A C4 30 BB
2026-07-24T18:13:52.162889+00:00 TX 01 03 00 20 00 02 C5 C1
2026-07-24T18:13:52.170734+00:00 RX 01 03 04 00 00 41 9E 4B CB
2026-07-24T18:13:52.172798+00:00 TX 01 03 01 C4 00 01 C4 0B
2026-07-24T18:13:52.178858+00:00 RX 01 03 02 00 00 B8 44
2026-07-24T18:13:52.229408+00:00 TX 01 03 00 00 00 20 44 12
2026-07-24T18:13:52.273916+00:00 RX 01 03 40 00 00 00 00 00 03 00 00 00 03 00 00 00 00 00 00 00 00 00 00 00 00 00 00 00 01 00 00 01 00 05 0A 00 00 00 00 00 00 00 00 00 00 00 00 00 00 00 00 00 00 00 00 00 00 00 00 FF FF 5B E0 FF FF 5B E0 40 E6
2026-07-24T18:13:52.275916+00:00 TX 01 03 00 20 00 02 C5 C1
2026-07-24T18:13:52.283914+00:00 RX 01 03 04 00 00 41 9F 8A 0B
2026-07-24T18:13:52.286915+00:00 TX 01 03 01 C4 00 01 C4 0B
2026-07-24T18:13:52.293421+00:00 RX 01 03 02 00 00 B8 44
2026-07-24T18:13:52.343430+00:00 TX 01 03 00 00 00 20 44 12
2026-07-24T18:13:52.388940+00:00 RX 01 03 40 00 00 00 00 00 03 00 00 00 03 00 00 00 00 00 00 00 00 00 00 00 00 00 00 00 01 00 00 01 00 05 0A 00 00 00 00 00 00 00 00 00 00 00 00 00 00 00 00 00 00 00 00 00 00 00 00 FF FF 59 B4 FF FF 59 B4 70 57
2026-07-24T18:13:52.391940+00:00 TX 01 03 00 20 00 02 C5 C1
2026-07-24T18:13:52.399939+00:00 RX 01 03 04 00 00 41 A1 0B DB
2026-07-24T18:13:52.401940+00:00 TX 01 03 01 C4 00 01 C4 0B
2026-07-24T18:13:52.407941+00:00 RX 01 03 02 00 00 B8 44
2026-07-24T18:13:52.458478+00:00 TX 01 03 00 00 00 20 44 12
2026-07-24T18:13:52.503488+00:00 RX 01 03 40 00 00 00 00 00 03 00 00 00 03 00 00 00 00 00 00 00 00 00 00 00 00 00 00 00 01 00 00 01 00 05 0A 00 00 00 00 00 00 00 00 00 00 00 00 00 00 00 00 00 00 00 00 00 00 00 00 FF FF 5A C0 FF FF 5A C0 C0 B8
2026-07-24T18:13:52.506990+00:00 TX 01 03 00 20 00 02 C5 C1
2026-07-24T18:13:52.514992+00:00 RX 01 03 04 00 00 41 A2 4B DA
2026-07-24T18:13:52.516992+00:00 TX 01 03 01 C4 00 01 C4 0B
2026-07-24T18:13:52.523994+00:00 RX 01 03 02 00 00 B8 44
2026-07-24T18:13:52.574504+00:00 TX 01 03 00 00 00 20 44 12
2026-07-24T18:13:52.619472+00:00 RX 01 03 40 00 00 00 00 00 03 00 00 00 03 00 00 00 00 00 00 00 00 00 00 00 00 00 00 00 01 00 00 01 00 05 0A 00 00 00 00 00 00 00 00 00 00 00 00 00 00 00 00 00 00 00 00 00 00 00 00 FF FF 59 F1 FF FF 59 F1 7C 6B
2026-07-24T18:13:52.621473+00:00 TX 01 03 00 20 00 02 C5 C1
2026-07-24T18:13:52.629549+00:00 RX 01 03 04 00 00 41 A3 8A 1A
2026-07-24T18:13:52.632546+00:00 TX 01 03 01 C4 00 01 C4 0B
2026-07-24T18:13:52.638548+00:00 RX 01 03 02 00 00 B8 44
2026-07-24T18:13:52.689577+00:00 TX 01 03 00 00 00 20 44 12
2026-07-24T18:13:52.734126+00:00 RX 01 03 40 00 00 00 00 00 03 00 00 00 03 00 00 00 00 00 00 00 00 00 00 00 00 00 00 00 01 00 00 01 00 05 0A 00 00 00 00 00 00 00 00 00 00 00 00 00 00 00 00 00 00 00 00 00 00 00 00 FF FF 5B 91 FF FF 5B 91 FC C9
2026-07-24T18:13:52.736126+00:00 TX 01 03 00 20 00 02 C5 C1
2026-07-24T18:13:52.744125+00:00 RX 01 03 04 00 00 41 A4 CB D8
2026-07-24T18:13:52.747126+00:00 TX 01 03 01 C4 00 01 C4 0B
2026-07-24T18:13:52.753179+00:00 RX 01 03 02 00 00 B8 44
2026-07-24T18:13:52.803386+00:00 TX 01 03 00 00 00 20 44 12
2026-07-24T18:13:52.848395+00:00 RX 01 03 40 00 00 00 00 00 03 00 00 00 03 00 00 00 00 00 00 00 00 00 00 00 00 00 00 00 01 00 00 01 00 05 0A 00 00 00 00 00 00 00 00 00 00 00 00 00 00 00 00 00 00 00 00 00 00 00 00 FF FF 5D EE FF FF 5D EE AB 25
2026-07-24T18:13:52.851392+00:00 TX 01 03 00 20 00 02 C5 C1
2026-07-24T18:13:52.859394+00:00 RX 01 03 04 00 00 41 A5 0A 18
2026-07-24T18:13:52.861394+00:00 TX 01 03 01 C4 00 01 C4 0B
2026-07-24T18:13:52.867897+00:00 RX 01 03 02 00 00 B8 44
2026-07-24T18:13:52.917909+00:00 TX 01 03 00 00 00 20 44 12
2026-07-24T18:13:52.963417+00:00 RX 01 03 40 00 00 00 00 00 03 00 00 00 03 00 00 00 00 00 00 00 00 00 00 00 00 00 00 00 01 00 00 01 00 05 0A 00 00 00 00 00 00 00 00 00 00 00 00 00 00 00 00 00 00 00 00 00 00 00 00 FF FF 5F 0F FF FF 5F 0F D7 F9
2026-07-24T18:13:52.966443+00:00 TX 01 03 00 20 00 02 C5 C1
2026-07-24T18:13:52.974966+00:00 RX 01 03 04 00 00 41 A7 8B D9
2026-07-24T18:13:52.977966+00:00 TX 01 03 01 C4 00 01 C4 0B
2026-07-24T18:13:52.983968+00:00 RX 01 03 02 00 00 B8 44
2026-07-24T18:13:53.035382+00:00 TX 01 03 00 00 00 20 44 12
2026-07-24T18:13:53.079890+00:00 RX 01 03 40 00 00 00 00 00 03 00 00 00 03 00 00 00 00 00 00 00 00 00 00 00 00 00 00 00 01 00 00 01 00 05 0A 00 00 00 00 00 00 00 00 00 00 00 00 00 00 00 00 00 00 00 00 00 00 00 00 FF FF 5D 3F FF FF 5D 3F 97 6B
2026-07-24T18:13:53.081979+00:00 TX 01 03 00 20 00 02 C5 C1
2026-07-24T18:13:53.089491+00:00 RX 01 03 04 00 00 41 A8 CB DD
2026-07-24T18:13:53.092492+00:00 TX 01 03 01 C4 00 01 C4 0B
2026-07-24T18:13:53.099493+00:00 RX 01 03 02 00 00 B8 44
2026-07-24T18:13:53.150075+00:00 TX 01 03 00 00 00 20 44 12
2026-07-24T18:13:53.195581+00:00 RX 01 03 40 00 00 00 00 00 03 00 00 00 03 00 00 00 00 00 00 00 00 00 00 00 00 00 00 00 01 00 00 01 00 05 0A 00 00 00 00 00 00 00 00 00 00 00 00 00 00 00 00 00 00 00 00 00 00 00 00 FF FF 5D 58 FF FF 5D 58 E3 49
2026-07-24T18:13:53.197582+00:00 TX 01 03 00 20 00 02 C5 C1
2026-07-24T18:13:53.205207+00:00 RX 01 03 04 00 00 41 A9 0A 1D
2026-07-24T18:13:53.207208+00:00 TX 01 03 01 C4 00 01 C4 0B
2026-07-24T18:13:53.213707+00:00 RX 01 03 02 00 00 B8 44
2026-07-24T18:13:53.264217+00:00 TX 01 03 00 00 00 20 44 12
2026-07-24T18:13:53.309730+00:00 RX 01 03 40 00 00 00 00 00 03 00 00 00 03 00 00 00 00 00 00 00 00 00 00 00 00 00 00 00 01 00 00 01 00 05 0A 00 00 00 00 00 00 00 00 00 00 00 00 00 00 00 00 00 00 00 00 00 00 00 00 FF FF 5E 82 FF FF 5E 82 3B C2
2026-07-24T18:13:53.312731+00:00 TX 01 03 00 20 00 02 C5 C1
2026-07-24T18:13:53.320732+00:00 RX 01 03 04 00 00 41 AA 4A 1C
2026-07-24T18:13:53.322733+00:00 TX 01 03 01 C4 00 01 C4 0B
2026-07-24T18:13:53.328734+00:00 RX 01 03 02 00 00 B8 44
2026-07-24T18:13:53.379900+00:00 TX 01 03 00 00 00 20 44 12
2026-07-24T18:13:53.424451+00:00 RX 01 03 40 00 00 00 00 00 03 00 00 00 03 00 00 00 00 00 00 00 00 00 00 00 00 00 00 00 01 00 00 01 00 05 0A 00 00 00 00 00 00 00 00 00 00 00 00 00 00 00 00 00 00 00 00 00 00 00 00 FF FF 5C 4D FF FF 5C 4D 2F 04
2026-07-24T18:13:53.427452+00:00 TX 01 03 00 20 00 02 C5 C1
2026-07-24T18:13:53.434956+00:00 RX 01 03 04 00 00 41 AB 8B DC
2026-07-24T18:13:53.436956+00:00 TX 01 03 01 C4 00 01 C4 0B
2026-07-24T18:13:53.443958+00:00 RX 01 03 02 00 00 B8 44
2026-07-24T18:13:53.494187+00:00 TX 01 03 00 00 00 20 44 12
2026-07-24T18:13:53.539227+00:00 RX 01 03 40 00 00 00 00 00 03 00 00 00 03 00 00 00 00 00 00 00 00 00 00 00 00 00 00 00 01 00 00 01 00 05 0A 00 00 00 00 00 00 00 00 00 00 00 00 00 00 00 00 00 00 00 00 00 00 00 00 FF FF 5B 1F FF FF 5B 1F 14 B2
2026-07-24T18:13:53.541227+00:00 TX 01 03 00 20 00 02 C5 C1
2026-07-24T18:13:53.549230+00:00 RX 01 03 04 00 00 41 AC CA 1E
2026-07-24T18:13:53.551230+00:00 TX 01 03 01 C4 00 01 C4 0B
2026-07-24T18:13:53.557228+00:00 RX 01 03 02 00 00 B8 44
2026-07-24T18:13:53.607823+00:00 TX 01 03 00 00 00 20 44 12
2026-07-24T18:13:53.652332+00:00 RX 01 03 40 00 00 00 00 00 03 00 00 00 03 00 00 00 00 00 00 00 00 00 00 00 00 00 00 00 01 00 00 01 00 05 0A 00 00 00 00 00 00 00 00 00 00 00 00 00 00 00 00 00 00 00 00 00 00 00 00 FF FF 5C 14 FF FF 5C 14 F3 33
2026-07-24T18:13:53.655329+00:00 TX 01 03 00 20 00 02 C5 C1
2026-07-24T18:13:53.663332+00:00 RX 01 03 04 00 00 41 AE 4B DF
2026-07-24T18:13:53.665332+00:00 TX 01 03 01 C4 00 01 C4 0B
2026-07-24T18:13:53.671835+00:00 RX 01 03 02 00 00 B8 44
2026-07-24T18:13:53.722366+00:00 TX 01 03 00 00 00 20 44 12
2026-07-24T18:13:53.768385+00:00 RX 01 03 40 00 00 00 00 00 03 00 00 00 03 00 00 00 00 00 00 00 00 00 00 00 00 00 00 00 01 00 00 01 00 05 0A 00 00 00 00 00 00 00 00 00 00 00 00 00 00 00 00 00 00 00 00 00 00 00 00 FF FF 5D 32 FF FF 5D 32 7B 6F
2026-07-24T18:13:53.770385+00:00 TX 01 03 00 20 00 02 C5 C1
2026-07-24T18:13:53.778387+00:00 RX 01 03 04 00 00 41 AF 8A 1F
2026-07-24T18:13:53.780388+00:00 TX 01 03 01 C4 00 01 C4 0B
2026-07-24T18:13:53.786389+00:00 RX 01 03 02 00 00 B8 44
2026-07-24T18:13:53.836397+00:00 TX 01 03 00 00 00 20 44 12
2026-07-24T18:13:53.881906+00:00 RX 01 03 40 00 00 00 00 00 03 00 00 00 03 00 00 00 00 00 00 00 00 00 00 00 00 00 00 00 01 00 00 01 00 05 0A 00 00 00 00 00 00 00 00 00 00 00 00 00 00 00 00 00 00 00 00 00 00 00 00 FF FF 5D 75 FF FF 5D 75 8F 52
2026-07-24T18:13:53.883906+00:00 TX 01 03 00 20 00 02 C5 C1
2026-07-24T18:13:53.890908+00:00 RX 01 03 04 00 00 41 B0 CB D7
2026-07-24T18:13:53.893909+00:00 TX 01 03 01 C4 00 01 C4 0B
2026-07-24T18:13:53.899910+00:00 RX 01 03 02 00 00 B8 44
2026-07-24T18:13:53.950392+00:00 TX 01 03 00 00 00 20 44 12
2026-07-24T18:13:53.994979+00:00 RX 01 03 40 00 00 00 00 00 03 00 00 00 03 00 00 00 00 00 00 00 00 00 00 00 00 00 00 00 01 00 00 01 00 05 0A 00 00 00 00 00 00 00 00 00 00 00 00 00 00 00 00 00 00 00 00 00 00 00 00 FF FF 5C 32 FF FF 5C 32 7B 2E
2026-07-24T18:13:53.997977+00:00 TX 01 03 00 20 00 02 C5 C1
2026-07-24T18:13:54.005979+00:00 RX 01 03 04 00 00 41 B1 0A 17
2026-07-24T18:13:54.007979+00:00 TX 01 03 01 C4 00 01 C4 0B
2026-07-24T18:13:54.014478+00:00 RX 01 03 02 00 00 B8 44
2026-07-24T18:13:54.065336+00:00 TX 01 03 00 00 00 20 44 12
2026-07-24T18:13:54.110849+00:00 RX 01 03 40 00 00 00 00 00 03 00 00 00 03 00 00 00 00 00 00 00 00 00 00 00 00 00 00 00 01 00 00 01 00 05 0A 00 00 00 00 00 00 00 00 00 00 00 00 00 00 00 00 00 00 00 00 00 00 00 00 FF FF 5B 9C FF FF 5B 9C 10 CD
2026-07-24T18:13:54.112850+00:00 TX 01 03 00 20 00 02 C5 C1
2026-07-24T18:13:54.120851+00:00 RX 01 03 04 00 00 41 B2 4A 16
2026-07-24T18:13:54.122852+00:00 TX 01 03 01 C4 00 01 C4 0B
2026-07-24T18:13:54.128853+00:00 RX 01 03 02 00 00 B8 44
2026-07-24T18:13:54.179401+00:00 TX 01 03 00 00 00 20 44 12
2026-07-24T18:13:54.223905+00:00 RX 01 03 40 00 00 00 00 00 03 00 00 00 03 00 00 00 00 00 00 00 00 00 00 00 00 00 00 00 01 00 00 01 00 05 0A 00 00 00 00 00 00 00 00 00 00 00 00 00 00 00 00 00 00 00 00 00 00 00 00 FF FF 5C 1F FF FF 5C 1F 17 35
2026-07-24T18:13:54.225905+00:00 TX 01 03 00 20 00 02 C5 C1
2026-07-24T18:13:54.233408+00:00 RX 01 03 04 00 00 41 B3 8B D6
2026-07-24T18:13:54.235408+00:00 TX 01 03 01 C4 00 01 C4 0B
2026-07-24T18:13:54.242410+00:00 RX 01 03 02 00 00 B8 44
2026-07-24T18:13:54.292930+00:00 TX 01 03 00 00 00 20 44 12
2026-07-24T18:13:54.337940+00:00 RX 01 03 40 00 00 00 00 00 03 00 00 00 03 00 00 00 00 00 00 00 00 00 00 00 00 00 00 00 01 00 00 01 00 05 0A 00 00 00 00 00 00 00 00 00 00 00 00 00 00 00 00 00 00 00 00 00 00 00 00 FF FF 5D 15 FF FF 5D 15 0F 72
2026-07-24T18:13:54.339940+00:00 TX 01 03 00 20 00 02 C5 C1
2026-07-24T18:13:54.347943+00:00 RX 01 03 04 00 00 41 B4 CA 14
2026-07-24T18:13:54.349943+00:00 TX 01 03 01 C4 00 01 C4 0B
2026-07-24T18:13:54.355941+00:00 RX 01 03 02 00 00 B8 44
2026-07-24T18:13:54.407450+00:00 TX 01 03 00 00 00 20 44 12
2026-07-24T18:13:54.452507+00:00 RX 01 03 40 00 00 00 00 00 03 00 00 00 03 00 00 00 00 00 00 00 00 00 00 00 00 00 00 00 01 00 00 01 00 05 0A 00 00 00 00 00 00 00 00 00 00 00 00 00 00 00 00 00 00 00 00 00 00 00 00 FF FF 5D 3B FF FF 5D 3B 67 68
2026-07-24T18:13:54.454507+00:00 TX 01 03 00 20 00 02 C5 C1
2026-07-24T18:13:54.463506+00:00 RX 01 03 04 00 00 41 B6 4B D5
2026-07-24T18:13:54.465507+00:00 TX 01 03 01 C4 00 01 C4 0B
2026-07-24T18:13:54.472009+00:00 RX 01 03 02 00 00 B8 44
2026-07-24T18:13:54.522048+00:00 TX 01 03 00 00 00 20 44 12
2026-07-24T18:13:54.567054+00:00 RX 01 03 40 00 00 00 00 00 03 00 00 00 03 00 00 00 00 00 00 00 00 00 00 00 00 00 00 00 01 00 00 01 00 05 0A 00 00 00 00 00 00 00 00 00 00 00 00 00 00 00 00 00 00 00 00 00 00 00 00 FF FF 5C 1C FF FF 5C 1C 13 34
2026-07-24T18:13:54.569055+00:00 TX 01 03 00 20 00 02 C5 C1
2026-07-24T18:13:54.576557+00:00 RX 01 03 04 00 00 41 B7 8A 15
2026-07-24T18:13:54.579558+00:00 TX 01 03 01 C4 00 01 C4 0B
2026-07-24T18:13:54.585559+00:00 RX 01 03 02 00 00 B8 44
2026-07-24T18:13:54.635599+00:00 TX 01 03 00 00 00 20 44 12
2026-07-24T18:13:54.679630+00:00 RX 01 03 40 00 00 00 00 00 03 00 00 00 03 00 00 00 00 00 00 00 00 00 00 00 00 00 00 00 01 00 00 01 00 05 0A 00 00 00 00 00 00 00 00 00 00 00 00 00 00 00 00 00 00 00 00 00 00 00 00 FF FF 5C 49 FF FF 5C 49 DF 07
2026-07-24T18:13:54.682631+00:00 TX 01 03 00 20 00 02 C5 C1
2026-07-24T18:13:54.689632+00:00 RX 01 03 04 00 00 41 B8 CA 11
2026-07-24T18:13:54.692633+00:00 TX 01 03 01 C4 00 01 C4 0B
2026-07-24T18:13:54.698635+00:00 RX 01 03 02 00 00 B8 44
2026-07-24T18:13:54.748644+00:00 TX 01 03 00 00 00 20 44 12
2026-07-24T18:13:54.792723+00:00 RX 01 03 40 00 00 00 00 00 03 00 00 00 03 00 00 00 00 00 00 00 00 00 00 00 00 00 00 00 01 00 00 01 00 05 0A 00 00 00 00 00 00 00 00 00 00 00 00 00 00 00 00 00 00 00 00 00 00 00 00 FF FF 5C 12 FF FF 5C 12 FB 31
2026-07-24T18:13:54.795724+00:00 TX 01 03 00 20 00 02 C5 C1
2026-07-24T18:13:54.803723+00:00 RX 01 03 04 00 00 41 B9 0B D1
2026-07-24T18:13:54.805723+00:00 TX 01 03 01 C4 00 01 C4 0B
2026-07-24T18:13:54.812229+00:00 RX 01 03 02 00 00 B8 44
2026-07-24T18:13:54.862731+00:00 TX 01 03 00 00 00 20 44 12
2026-07-24T18:13:54.908243+00:00 RX 01 03 40 00 00 00 00 00 03 00 00 00 03 00 00 00 00 00 00 00 00 00 00 00 00 00 00 00 01 00 00 01 00 05 0A 00 00 00 00 00 00 00 00 00 00 00 00 00 00 00 00 00 00 00 00 00 00 00 00 FF FF 59 F4 FF FF 59 F4 70 68
2026-07-24T18:13:54.910244+00:00 TX 01 03 00 20 00 02 C5 C1
2026-07-24T18:13:54.918245+00:00 RX 01 03 04 00 00 41 BA 4B D0
2026-07-24T18:13:54.920246+00:00 TX 01 03 01 C4 00 01 C4 0B
2026-07-24T18:13:54.926247+00:00 RX 01 03 02 00 00 B8 44
2026-07-24T18:13:54.977121+00:00 TX 01 03 00 00 00 20 44 12
2026-07-24T18:13:55.021148+00:00 RX 01 03 40 00 00 00 00 00 03 00 00 00 03 00 00 00 00 00 00 00 00 00 00 00 00 00 00 00 01 00 00 01 00 05 0A 00 00 00 00 00 00 00 00 00 00 00 00 00 00 00 00 00 00 00 00 00 00 00 00 FF FF 5A 11 FF FF 5A 11 FC F6
2026-07-24T18:13:55.024148+00:00 TX 01 03 00 20 00 02 C5 C1
2026-07-24T18:13:55.031656+00:00 RX 01 03 04 00 00 41 BB 8A 10
2026-07-24T18:13:55.034654+00:00 TX 01 03 01 C4 00 01 C4 0B
2026-07-24T18:13:55.040655+00:00 RX 01 03 02 00 00 B8 44
2026-07-24T18:13:55.091164+00:00 TX 01 03 00 00 00 20 44 12
2026-07-24T18:13:55.136245+00:00 RX 01 03 40 00 00 00 00 00 03 00 00 00 03 00 00 00 00 00 00 00 00 00 00 00 00 00 00 00 01 00 00 01 00 05 0A 00 00 00 00 00 00 00 00 00 00 00 00 00 00 00 00 00 00 00 00 00 00 00 00 FF FF 5B 68 FF FF 5B 68 A0 9F
2026-07-24T18:13:55.138246+00:00 TX 01 03 00 20 00 02 C5 C1
2026-07-24T18:13:55.146291+00:00 RX 01 03 04 00 00 41 BD 0A 12
2026-07-24T18:13:55.149288+00:00 TX 01 03 01 C4 00 01 C4 0B
2026-07-24T18:13:55.155290+00:00 RX 01 03 02 00 00 B8 44
2026-07-24T18:13:55.205798+00:00 TX 01 03 00 00 00 20 44 12
2026-07-24T18:13:55.250810+00:00 RX 01 03 40 00 00 00 00 00 03 00 00 00 03 00 00 00 00 00 00 00 00 00 00 00 00 00 00 00 01 00 00 01 00 05 0A 00 00 00 00 00 00 00 00 00 00 00 00 00 00 00 00 00 00 00 00 00 00 00 00 FF FF 5A 22 FF FF 5A 22 B8 E7
2026-07-24T18:13:55.252810+00:00 TX 01 03 00 20 00 02 C5 C1
2026-07-24T18:13:55.260809+00:00 RX 01 03 04 00 00 41 BE 4A 13
2026-07-24T18:13:55.262810+00:00 TX 01 03 01 C4 00 01 C4 0B
2026-07-24T18:13:55.268811+00:00 RX 01 03 02 00 00 B8 44
2026-07-24T18:13:55.318967+00:00 TX 01 03 00 00 00 20 44 12
2026-07-24T18:13:55.363975+00:00 RX 01 03 40 00 00 00 00 00 03 00 00 00 03 00 00 00 00 00 00 00 00 00 00 00 00 00 00 00 01 00 00 01 00 05 0A 00 00 00 00 00 00 00 00 00 00 00 00 00 00 00 00 00 00 00 00 00 00 00 00 FF FF 59 ED FF FF 59 ED AC 60
2026-07-24T18:13:55.365976+00:00 TX 01 03 00 20 00 02 C5 C1
2026-07-24T18:13:55.373480+00:00 RX 01 03 04 00 00 41 BF 8B D3
2026-07-24T18:13:55.376481+00:00 TX 01 03 01 C4 00 01 C4 0B
2026-07-24T18:13:55.383482+00:00 RX 01 03 02 00 00 B8 44
2026-07-24T18:13:55.433490+00:00 TX 01 03 00 00 00 20 44 12
2026-07-24T18:13:55.478031+00:00 RX 01 03 40 00 00 00 00 00 03 00 00 00 03 00 00 00 00 00 00 00 00 00 00 00 00 00 00 00 01 00 00 01 00 05 0A 00 00 00 00 00 00 00 00 00 00 00 00 00 00 00 00 00 00 00 00 00 00 00 00 FF FF 5A 98 FF FF 5A 98 E0 8F
2026-07-24T18:13:55.480031+00:00 TX 01 03 00 20 00 02 C5 C1
2026-07-24T18:13:55.488067+00:00 RX 01 03 04 00 00 41 C0 CA 33
2026-07-24T18:13:55.490069+00:00 TX 01 03 01 C4 00 01 C4 0B
2026-07-24T18:13:55.496071+00:00 RX 01 03 02 00 00 B8 44
2026-07-24T18:13:55.547103+00:00 TX 01 03 00 00 00 20 44 12
2026-07-24T18:13:55.591611+00:00 RX 01 03 40 00 00 00 00 00 03 00 00 00 03 00 00 00 00 00 00 00 00 00 00 00 00 00 00 00 01 00 00 01 00 05 0A 00 00 00 00 00 00 00 00 00 00 00 00 00 00 00 00 00 00 00 00 00 00 00 00 FF FF 5A 7C FF FF 5A 7C 90 D2
2026-07-24T18:13:55.595609+00:00 TX 01 03 00 20 00 02 C5 C1
2026-07-24T18:13:55.603611+00:00 RX 01 03 04 00 00 41 C1 0B F3
2026-07-24T18:13:55.606612+00:00 TX 01 03 01 C4 00 01 C4 0B
2026-07-24T18:13:55.613211+00:00 RX 01 03 02 00 00 B8 44
2026-07-24T18:13:55.663309+00:00 TX 01 03 00 00 00 20 44 12
2026-07-24T18:13:55.708349+00:00 RX 01 03 40 00 00 00 00 00 03 00 00 00 03 00 00 00 00 00 00 00 00 00 00 00 00 00 00 00 01 00 00 01 00 05 0A 00 00 00 00 00 00 00 00 00 00 00 00 00 00 00 00 00 00 00 00 00 00 00 00 FF FF 59 77 FF FF 59 77 74 17
2026-07-24T18:13:55.710350+00:00 TX 01 03 00 20 00 02 C5 C1
2026-07-24T18:13:55.718351+00:00 RX 01 03 04 00 00 41 C2 4B F2
2026-07-24T18:13:55.720352+00:00 TX 01 03 01 C4 00 01 C4 0B
2026-07-24T18:13:55.727353+00:00 RX 01 03 02 00 00 B8 44
2026-07-24T18:13:55.777356+00:00 TX 01 03 00 00 00 20 44 12
2026-07-24T18:13:55.822364+00:00 RX 01 03 40 00 00 00 00 00 03 00 00 00 03 00 00 00 00 00 00 00 00 00 00 00 00 00 00 00 01 00 00 01 00 05 0A 00 00 00 00 00 00 00 00 00 00 00 00 00 00 00 00 00 00 00 00 00 00 00 00 FF FF 59 D4 FF FF 59 D4 F0 77
2026-07-24T18:13:55.824364+00:00 TX 01 03 00 20 00 02 C5 C1
2026-07-24T18:13:55.832870+00:00 RX 01 03 04 00 00 41 C4 CB F0
2026-07-24T18:13:55.835868+00:00 TX 01 03 01 C4 00 01 C4 0B
2026-07-24T18:13:55.842869+00:00 RX 01 03 02 00 00 B8 44
2026-07-24T18:13:55.893380+00:00 TX 01 03 00 00 00 20 44 12
2026-07-24T18:13:55.938390+00:00 RX 01 03 40 00 00 00 00 00 03 00 00 00 03 00 00 00 00 00 00 00 00 00 00 00 00 00 00 00 01 00 00 01 00 05 0A 00 00 00 00 00 00 00 00 00 00 00 00 00 00 00 00 00 00 00 00 00 00 00 00 FF FF 59 EB FF FF 59 EB A4 62
2026-07-24T18:13:55.940391+00:00 TX 01 03 00 20 00 02 C5 C1
2026-07-24T18:13:55.948392+00:00 RX 01 03 04 00 00 41 C5 0A 30
2026-07-24T18:13:55.950393+00:00 TX 01 03 01 C4 00 01 C4 0B
2026-07-24T18:13:55.957395+00:00 RX 01 03 02 00 00 B8 44
2026-07-24T18:13:56.007419+00:00 TX 01 03 00 00 00 20 44 12
2026-07-24T18:13:56.052429+00:00 RX 01 03 40 00 00 00 00 00 03 00 00 00 03 00 00 00 00 00 00 00 00 00 00 00 00 00 00 00 01 00 00 01 00 05 0A 00 00 00 00 00 00 00 00 00 00 00 00 00 00 00 00 00 00 00 00 00 00 00 00 FF FF 5A C8 FF FF 5A C8 20 BF
2026-07-24T18:13:56.054430+00:00 TX 01 03 00 20 00 02 C5 C1
2026-07-24T18:13:56.063428+00:00 RX 01 03 04 00 00 41 C6 4A 31
2026-07-24T18:13:56.065429+00:00 TX 01 03 01 C4 00 01 C4 0B
2026-07-24T18:13:56.072430+00:00 RX 01 03 02 00 00 B8 44
2026-07-24T18:13:56.122944+00:00 TX 01 03 00 00 00 20 44 12
2026-07-24T18:13:56.167991+00:00 RX 01 03 40 00 00 00 00 00 03 00 00 00 03 00 00 00 00 00 00 00 00 00 00 00 00 00 00 00 01 00 00 01 00 05 0A 00 00 00 00 00 00 00 00 00 00 00 00 00 00 00 00 00 00 00 00 00 00 00 00 FF FF 5C CB FF FF 5C CB 27 78
2026-07-24T18:13:56.169992+00:00 TX 01 03 00 20 00 02 C5 C1
2026-07-24T18:13:56.177495+00:00 RX 01 03 04 00 00 41 C7 8B F1
2026-07-24T18:13:56.179495+00:00 TX 01 03 01 C4 00 01 C4 0B
2026-07-24T18:13:56.185497+00:00 RX 01 03 02 00 00 B8 44
2026-07-24T18:13:56.236262+00:00 TX 01 03 00 00 00 20 44 12
2026-07-24T18:13:56.281772+00:00 RX 01 03 40 00 00 00 00 00 03 00 00 00 03 00 00 00 00 00 00 00 00 00 00 00 00 00 00 00 01 00 00 01 00 05 0A 00 00 00 00 00 00 00 00 00 00 00 00 00 00 00 00 00 00 00 00 00 00 00 00 FF FF 5E 53 FF FF 5E 53 07 8C
2026-07-24T18:13:56.283772+00:00 TX 01 03 00 20 00 02 C5 C1
2026-07-24T18:13:56.290774+00:00 RX 01 03 04 00 00 41 C8 CB F5
2026-07-24T18:13:56.292774+00:00 TX 01 03 01 C4 00 01 C4 0B
2026-07-24T18:13:56.298776+00:00 RX 01 03 02 00 00 B8 44
2026-07-24T18:13:56.348788+00:00 TX 01 03 00 00 00 20 44 12
2026-07-24T18:13:56.393295+00:00 RX 01 03 40 00 00 00 00 00 03 00 00 00 03 00 00 00 00 00 00 00 00 00 00 00 00 00 00 00 01 00 00 01 00 05 0A 00 00 00 00 00 00 00 00 00 00 00 00 00 00 00 00 00 00 00 00 00 00 00 00 FF FF 5D 07 FF FF 5D 07 37 7C
2026-07-24T18:13:56.395296+00:00 TX 01 03 00 20 00 02 C5 C1
2026-07-24T18:13:56.403294+00:00 RX 01 03 04 00 00 41 C9 0A 35
2026-07-24T18:13:56.405295+00:00 TX 01 03 01 C4 00 01 C4 0B
2026-07-24T18:13:56.411296+00:00 RX 01 03 02 00 00 B8 44
2026-07-24T18:13:56.461303+00:00 TX 01 03 00 00 00 20 44 12
2026-07-24T18:13:56.505860+00:00 RX 01 03 40 00 00 00 00 00 03 00 00 00 03 00 00 00 00 00 00 00 00 00 00 00 00 00 00 00 01 00 00 01 00 05 0A 00 00 00 00 00 00 00 00 00 00 00 00 00 00 00 00 00 00 00 00 00 00 00 00 FF FF 5D 87 FF FF 5D 87 37 02
2026-07-24T18:13:56.507861+00:00 TX 01 03 00 20 00 02 C5 C1
2026-07-24T18:13:56.515863+00:00 RX 01 03 04 00 00 41 CB 8B F4
2026-07-24T18:13:56.517863+00:00 TX 01 03 01 C4 00 01 C4 0B
2026-07-24T18:13:56.524866+00:00 RX 01 03 02 00 00 B8 44
2026-07-24T18:13:56.574874+00:00 TX 01 03 00 00 00 20 44 12
2026-07-24T18:13:56.619881+00:00 RX 01 03 40 00 00 00 00 00 03 00 00 00 03 00 00 00 00 00 00 00 00 00 00 00 00 00 00 00 01 00 00 01 00 05 0A 00 00 00 00 00 00 00 00 00 00 00 00 00 00 00 00 00 00 00 00 00 00 00 00 FF FF 5D AE FF FF 5D AE AB 1A
2026-07-24T18:13:56.621882+00:00 TX 01 03 00 20 00 02 C5 C1
2026-07-24T18:13:56.628923+00:00 RX 01 03 04 00 00 41 CC CA 36
2026-07-24T18:13:56.631925+00:00 TX 01 03 01 C4 00 01 C4 0B
2026-07-24T18:13:56.638434+00:00 RX 01 03 02 00 00 B8 44
2026-07-24T18:13:56.688480+00:00 TX 01 03 00 00 00 20 44 12
2026-07-24T18:13:56.733127+00:00 RX 01 03 40 00 00 00 00 00 03 00 00 00 03 00 00 00 00 00 00 00 00 00 00 00 00 00 00 00 01 00 00 01 00 05 0A 00 00 00 00 00 00 00 00 00 00 00 00 00 00 00 00 00 00 00 00 00 00 00 00 FF FF 5D 7F FF FF 5D 7F 97 54
2026-07-24T18:13:56.735127+00:00 TX 01 03 00 20 00 02 C5 C1
2026-07-24T18:13:56.743268+00:00 RX 01 03 04 00 00 41 CD 0B F6
2026-07-24T18:13:56.745268+00:00 TX 01 03 01 C4 00 01 C4 0B
2026-07-24T18:13:56.751297+00:00 RX 01 03 02 00 00 B8 44
2026-07-24T18:13:56.801826+00:00 TX 01 03 00 00 00 20 44 12
2026-07-24T18:13:56.846838+00:00 RX 01 03 40 00 00 00 00 00 03 00 00 00 03 00 00 00 00 00 00 00 00 00 00 00 00 00 00 00 01 00 00 01 00 05 0A 00 00 00 00 00 00 00 00 00 00 00 00 00 00 00 00 00 00 00 00 00 00 00 00 FF FF 5C D8 FF FF 5C D8 E3 76
2026-07-24T18:13:56.849839+00:00 TX 01 03 00 20 00 02 C5 C1
2026-07-24T18:13:56.857840+00:00 RX 01 03 04 00 00 41 CE 4B F7
2026-07-24T18:13:56.859840+00:00 TX 01 03 01 C4 00 01 C4 0B
2026-07-24T18:13:56.865838+00:00 RX 01 03 02 00 00 B8 44
2026-07-24T18:13:56.916352+00:00 TX 01 03 00 00 00 20 44 12
2026-07-24T18:13:56.961726+00:00 RX 01 03 40 00 00 00 00 00 03 00 00 00 03 00 00 00 00 00 00 00 00 00 00 00 00 00 00 00 01 00 00 01 00 05 0A 00 00 00 00 00 00 00 00 00 00 00 00 00 00 00 00 00 00 00 00 00 00 00 00 FF FF 5E 1F FF FF 5E 1F 17 B7
2026-07-24T18:13:56.964358+00:00 TX 01 03 00 20 00 02 C5 C1
2026-07-24T18:13:56.972360+00:00 RX 01 03 04 00 00 41 CF 8A 37
2026-07-24T18:13:56.974360+00:00 TX 01 03 01 C4 00 01 C4 0B
2026-07-24T18:13:56.980864+00:00 RX 01 03 02 00 00 B8 44
2026-07-24T18:13:57.030888+00:00 TX 01 03 00 00 00 20 44 12
2026-07-24T18:13:57.076397+00:00 RX 01 03 40 00 00 00 00 00 03 00 00 00 03 00 00 00 00 00 00 00 00 00 00 00 00 00 00 00 01 00 00 01 00 05 0A 00 00 00 00 00 00 00 00 00 00 00 00 00 00 00 00 00 00 00 00 00 00 00 00 FF FF 5F 62 FF FF 5F 62 BB DD
2026-07-24T18:13:57.078918+00:00 TX 01 03 00 20 00 02 C5 C1
2026-07-24T18:13:57.086920+00:00 RX 01 03 04 00 00 41 D0 CB FF
2026-07-24T18:13:57.088920+00:00 TX 01 03 01 C4 00 01 C4 0B
2026-07-24T18:13:57.094655+00:00 RX 01 03 02 00 00 B8 44
2026-07-24T18:13:57.145486+00:00 TX 01 03 00 00 00 20 44 12
2026-07-24T18:13:57.190044+00:00 RX 01 03 40 00 00 00 00 00 03 00 00 00 03 00 00 00 00 00 00 00 00 00 00 00 00 00 00 00 01 00 00 01 00 05 0A 00 00 00 00 00 00 00 00 00 00 00 00 00 00 00 00 00 00 00 00 00 00 00 00 FF FF 60 1D FF FF 60 1D FB 08
2026-07-24T18:13:57.192044+00:00 TX 01 03 00 20 00 02 C5 C1
2026-07-24T18:13:57.200046+00:00 RX 01 03 04 00 00 41 D2 4A 3E
2026-07-24T18:13:57.203044+00:00 TX 01 03 01 C4 00 01 C4 0B
2026-07-24T18:13:57.209045+00:00 RX 01 03 02 00 00 B8 44
2026-07-24T18:13:57.259057+00:00 TX 01 03 00 00 00 20 44 12
2026-07-24T18:13:57.303565+00:00 RX 01 03 40 00 00 00 00 00 03 00 00 00 03 00 00 00 00 00 00 00 00 00 00 00 00 00 00 00 01 00 00 01 00 05 0A 00 00 00 00 00 00 00 00 00 00 00 00 00 00 00 00 00 00 00 00 00 00 00 00 FF FF 60 40 FF FF 60 40 D7 3C
2026-07-24T18:13:57.306566+00:00 TX 01 03 00 20 00 02 C5 C1
2026-07-24T18:13:57.314567+00:00 RX 01 03 04 00 00 41 D3 8B FE
2026-07-24T18:13:57.316568+00:00 TX 01 03 01 C4 00 01 C4 0B
2026-07-24T18:13:57.323569+00:00 RX 01 03 02 00 00 B8 44
2026-07-24T18:13:57.373585+00:00 TX 01 03 00 00 00 20 44 12
2026-07-24T18:13:57.418597+00:00 RX 01 03 40 00 00 00 00 00 03 00 00 00 03 00 00 00 00 00 00 00 00 00 00 00 00 00 00 00 01 00 00 01 00 05 0A 00 00 00 00 00 00 00 00 00 00 00 00 00 00 00 00 00 00 00 00 00 00 00 00 FF FF 60 15 FF FF 60 15 1B 0F
2026-07-24T18:13:57.421595+00:00 TX 01 03 00 20 00 02 C5 C1
2026-07-24T18:13:57.429596+00:00 RX 01 03 04 00 00 41 D4 CA 3C
2026-07-24T18:13:57.432597+00:00 TX 01 03 01 C4 00 01 C4 0B
2026-07-24T18:13:57.439099+00:00 RX 01 03 02 00 00 B8 44
2026-07-24T18:13:57.489592+00:00 TX 01 03 00 00 00 20 44 12
2026-07-24T18:13:57.533819+00:00 RX 01 03 40 00 00 00 00 00 03 00 00 00 03 00 00 00 00 00 00 00 00 00 00 00 00 00 00 00 01 00 00 01 00 05 0A 00 00 00 00 00 00 00 00 00 00 00 00 00 00 00 00 00 00 00 00 00 00 00 00 FF FF 61 55 FF FF 61 55 1B 71
2026-07-24T18:13:57.536820+00:00 TX 01 03 00 20 00 02 C5 C1
2026-07-24T18:13:57.544821+00:00 RX 01 03 04 00 00 41 D5 0B FC
2026-07-24T18:13:57.546823+00:00 TX 01 03 01 C4 00 01 C4 0B
2026-07-24T18:13:57.553824+00:00 RX 01 03 02 00 00 B8 44
2026-07-24T18:13:57.604473+00:00 TX 01 03 00 00 00 20 44 12
2026-07-24T18:13:57.648521+00:00 RX 01 03 40 00 00 00 00 00 03 00 00 00 03 00 00 00 00 00 00 00 00 00 00 00 00 00 00 00 01 00 00 01 00 05 0A 00 00 00 00 00 00 00 00 00 00 00 00 00 00 00 00 00 00 00 00 00 00 00 00 FF FF 62 0E FF FF 62 0E 3F 84
2026-07-24T18:13:57.651521+00:00 TX 01 03 00 20 00 02 C5 C1
2026-07-24T18:13:57.659523+00:00 RX 01 03 04 00 00 41 D6 4B FD
2026-07-24T18:13:57.661523+00:00 TX 01 03 01 C4 00 01 C4 0B
2026-07-24T18:13:57.668522+00:00 RX 01 03 02 00 00 B8 44
2026-07-24T18:13:57.719437+00:00 TX 01 03 00 00 00 20 44 12
2026-07-24T18:13:57.763946+00:00 RX 01 03 40 00 00 00 00 00 03 00 00 00 03 00 00 00 00 00 00 00 00 00 00 00 00 00 00 00 01 00 00 01 00 05 0A 00 00 00 00 00 00 00 00 00 00 00 00 00 00 00 00 00 00 00 00 00 00 00 00 FF FF 61 94 FF FF 61 94 E7 30
2026-07-24T18:13:57.766944+00:00 TX 01 03 00 20 00 02 C5 C1
2026-07-24T18:13:57.774946+00:00 RX 01 03 04 00 00 41 D7 8A 3D
2026-07-24T18:13:57.776946+00:00 TX 01 03 01 C4 00 01 C4 0B
2026-07-24T18:13:57.783448+00:00 RX 01 03 02 00 00 B8 44
2026-07-24T18:13:57.833955+00:00 TX 01 03 00 00 00 20 44 12
2026-07-24T18:13:57.878463+00:00 RX 01 03 40 00 00 00 00 00 03 00 00 00 03 00 00 00 00 00 00 00 00 00 00 00 00 00 00 00 01 00 00 01 00 05 0A 00 00 00 00 00 00 00 00 00 00 00 00 00 00 00 00 00 00 00 00 00 00 00 00 FF FF 62 23 FF FF 62 23 53 9F
2026-07-24T18:13:57.880463+00:00 TX 01 03 00 20 00 02 C5 C1
2026-07-24T18:13:57.887967+00:00 RX 01 03 04 00 00 41 D9 0B F9
2026-07-24T18:13:57.889967+00:00 TX 01 03 01 C4 00 01 C4 0B
2026-07-24T18:13:57.895968+00:00 RX 01 03 02 00 00 B8 44
2026-07-24T18:13:57.946980+00:00 TX 01 03 00 00 00 20 44 12
2026-07-24T18:13:57.991490+00:00 RX 01 03 40 00 00 00 00 00 03 00 00 00 03 00 00 00 00 00 00 00 00 00 00 00 00 00 00 00 01 00 00 01 00 05 0A 00 00 00 00 00 00 00 00 00 00 00 00 00 00 00 00 00 00 00 00 00 00 00 00 FF FF 62 0D FF FF 62 0D 3B 85
2026-07-24T18:13:57.995021+00:00 TX 01 03 00 20 00 02 C5 C1
2026-07-24T18:13:58.003524+00:00 RX 01 03 04 00 00 41 DA 4B F8
2026-07-24T18:13:58.006525+00:00 TX 01 03 01 C4 00 01 C4 0B
2026-07-24T18:13:58.012526+00:00 RX 01 03 02 00 00 B8 44
2026-07-24T18:13:58.063536+00:00 TX 01 03 00 00 00 20 44 12
2026-07-24T18:13:58.107868+00:00 RX 01 03 40 00 00 00 00 00 03 00 00 00 03 00 00 00 00 00 00 00 00 00 00 00 00 00 00 00 01 00 00 01 00 05 0A 00 00 00 00 00 00 00 00 00 00 00 00 00 00 00 00 00 00 00 00 00 00 00 00 FF FF 62 2F FF FF 62 2F 43 9B
2026-07-24T18:13:58.111370+00:00 TX 01 03 00 20 00 02 C5 C1
2026-07-24T18:13:58.119372+00:00 RX 01 03 04 00 00 41 DB 8A 38
2026-07-24T18:13:58.121373+00:00 TX 01 03 01 C4 00 01 C4 0B
2026-07-24T18:13:58.128375+00:00 RX 01 03 02 00 00 B8 44
2026-07-24T18:13:58.178480+00:00 TX 01 03 00 00 00 20 44 12
2026-07-24T18:13:58.223031+00:00 RX 01 03 40 00 00 00 00 00 03 00 00 00 03 00 00 00 00 00 00 00 00 00 00 00 00 00 00 00 01 00 00 01 00 05 0A 00 00 00 00 00 00 00 00 00 00 00 00 00 00 00 00 00 00 00 00 00 00 00 00 FF FF 5F F4 FF FF 5F F4 73 AE
2026-07-24T18:13:58.225032+00:00 TX 01 03 00 20 00 02 C5 C1
2026-07-24T18:13:58.233034+00:00 RX 01 03 04 00 00 41 DC CB FA
2026-07-24T18:13:58.235034+00:00 TX 01 03 01 C4 00 01 C4 0B
2026-07-24T18:13:58.241539+00:00 RX 01 03 02 00 00 B8 44
2026-07-24T18:13:58.291553+00:00 TX 01 03 00 00 00 20 44 12
2026-07-24T18:13:58.335563+00:00 RX 01 03 40 00 00 00 00 00 03 00 00 00 03 00 00 00 00 00 00 00 00 00 00 00 00 00 00 00 01 00 00 01 00 05 0A 00 00 00 00 00 00 00 00 00 00 00 00 00 00 00 00 00 00 00 00 00 00 00 00 FF FF 60 00 FF FF 60 00 D7 03
2026-07-24T18:13:58.338564+00:00 TX 01 03 00 20 00 02 C5 C1
2026-07-24T18:13:58.346567+00:00 RX 01 03 04 00 00 41 DD 0A 3A
2026-07-24T18:13:58.348567+00:00 TX 01 03 01 C4 00 01 C4 0B
2026-07-24T18:13:58.354568+00:00 RX 01 03 02 00 00 B8 44
2026-07-24T18:13:58.405074+00:00 TX 01 03 00 00 00 20 44 12
2026-07-24T18:13:58.449602+00:00 RX 01 03 40 00 00 00 00 00 03 00 00 00 03 00 00 00 00 00 00 00 00 00 00 00 00 00 00 00 01 00 00 01 00 05 0A 00 00 00 00 00 00 00 00 00 00 00 00 00 00 00 00 00 00 00 00 00 00 00 00 FF FF 5D A4 FF FF 5D A4 B3 1C
2026-07-24T18:13:58.453602+00:00 TX 01 03 00 20 00 02 C5 C1
2026-07-24T18:13:58.460604+00:00 RX 01 03 04 00 00 41 DE 4A 3B
2026-07-24T18:13:58.462605+00:00 TX 01 03 01 C4 00 01 C4 0B
2026-07-24T18:13:58.468603+00:00 RX 01 03 02 00 00 B8 44
2026-07-24T18:13:58.518632+00:00 TX 01 03 00 00 00 20 44 12
2026-07-24T18:13:58.563445+00:00 RX 01 03 40 00 00 00 00 00 03 00 00 00 03 00 00 00 00 00 00 00 00 00 00 00 00 00 00 00 01 00 00 01 00 05 0A 00 00 00 00 00 00 00 00 00 00 00 00 00 00 00 00 00 00 00 00 00 00 00 00 FF FF 5E B4 FF FF 5E B4 73 D0
2026-07-24T18:13:58.566874+00:00 TX 01 03 00 20 00 02 C5 C1
2026-07-24T18:13:58.574873+00:00 RX 01 03 04 00 00 41 E0 CB EB
2026-07-24T18:13:58.577874+00:00 TX 01 03 01 C4 00 01 C4 0B
2026-07-24T18:13:58.585377+00:00 RX 01 03 02 00 00 B8 44
2026-07-24T18:13:58.636063+00:00 TX 01 03 00 00 00 20 44 12
2026-07-24T18:13:58.682139+00:00 RX 01 03 40 00 00 00 00 00 03 00 00 00 03 00 00 00 00 00 00 00 00 00 00 00 00 00 00 00 01 00 00 01 00 05 0A 00 00 00 00 00 00 00 00 00 00 00 00 00 00 00 00 00 00 00 00 00 00 00 00 FF FF 5F 3E FF FF 5F 3E 6B E9
2026-07-24T18:13:58.684640+00:00 TX 01 03 00 20 00 02 C5 C1
2026-07-24T18:13:58.692642+00:00 RX 01 03 04 00 00 41 E1 0A 2B
2026-07-24T18:13:58.694643+00:00 TX 01 03 01 C4 00 01 C4 0B
2026-07-24T18:13:58.700644+00:00 RX 01 03 02 00 00 B8 44
2026-07-24T18:13:58.751464+00:00 TX 01 03 00 00 00 20 44 12
2026-07-24T18:13:58.796484+00:00 RX 01 03 40 00 00 00 00 00 03 00 00 00 03 00 00 00 00 00 00 00 00 00 00 00 00 00 00 00 01 00 00 01 00 05 0A 00 00 00 00 00 00 00 00 00 00 00 00 00 00 00 00 00 00 00 00 00 00 00 00 FF FF 60 D6 FF FF 60 D6 1F 4F
2026-07-24T18:13:58.798485+00:00 TX 01 03 00 20 00 02 C5 C1
2026-07-24T18:13:58.806483+00:00 RX 01 03 04 00 00 41 E2 4A 2A
2026-07-24T18:13:58.808483+00:00 TX 01 03 01 C4 00 01 C4 0B
2026-07-24T18:13:58.815486+00:00 RX 01 03 02 00 00 B8 44
2026-07-24T18:13:58.865812+00:00 TX 01 03 00 00 00 20 44 12
2026-07-24T18:13:58.910320+00:00 RX 01 03 40 00 00 00 00 00 03 00 00 00 03 00 00 00 00 00 00 00 00 00 00 00 00 00 00 00 01 00 00 01 00 05 0A 00 00 00 00 00 00 00 00 00 00 00 00 00 00 00 00 00 00 00 00 00 00 00 00 FF FF 5F 66 FF FF 5F 66 4B DE
2026-07-24T18:13:58.912322+00:00 TX 01 03 00 20 00 02 C5 C1
2026-07-24T18:13:58.920323+00:00 RX 01 03 04 00 00 41 E3 8B EA
2026-07-24T18:13:58.922324+00:00 TX 01 03 01 C4 00 01 C4 0B
2026-07-24T18:13:58.929325+00:00 RX 01 03 02 00 00 B8 44
2026-07-24T18:13:58.979835+00:00 TX 01 03 00 00 00 20 44 12
2026-07-24T18:13:59.024358+00:00 RX 01 03 40 00 00 00 00 00 03 00 00 00 03 00 00 00 00 00 00 00 00 00 00 00 00 00 00 00 01 00 00 01 00 05 0A 00 00 00 00 00 00 00 00 00 00 00 00 00 00 00 00 00 00 00 00 00 00 00 00 FF FF 5D E8 FF FF 5D E8 A3 27
2026-07-24T18:13:59.026359+00:00 TX 01 03 00 20 00 02 C5 C1
2026-07-24T18:13:59.034361+00:00 RX 01 03 04 00 00 41 E4 CA 28
2026-07-24T18:13:59.036361+00:00 TX 01 03 01 C4 00 01 C4 0B
2026-07-24T18:13:59.043864+00:00 RX 01 03 02 00 00 B8 44
2026-07-24T18:13:59.094090+00:00 TX 01 03 00 00 00 20 44 12
2026-07-24T18:13:59.139087+00:00 RX 01 03 40 00 00 00 00 00 03 00 00 00 03 00 00 00 00 00 00 00 00 00 00 00 00 00 00 00 01 00 00 01 00 05 0A 00 00 00 00 00 00 00 00 00 00 00 00 00 00 00 00 00 00 00 00 00 00 00 00 FF FF 5D 5C FF FF 5D 5C 13 4A
2026-07-24T18:13:59.141088+00:00 TX 01 03 00 20 00 02 C5 C1
2026-07-24T18:13:59.149121+00:00 RX 01 03 04 00 00 41 E5 0B E8
2026-07-24T18:13:59.151122+00:00 TX 01 03 01 C4 00 01 C4 0B
2026-07-24T18:13:59.157123+00:00 RX 01 03 02 00 00 B8 44
2026-07-24T18:13:59.207631+00:00 TX 01 03 00 00 00 20 44 12
2026-07-24T18:13:59.251640+00:00 RX 01 03 40 00 00 00 00 00 03 00 00 00 03 00 00 00 00 00 00 00 00 00 00 00 00 00 00 00 01 00 00 01 00 05 0A 00 00 00 00 00 00 00 00 00 00 00 00 00 00 00 00 00 00 00 00 00 00 00 00 FF FF 5F 43 FF FF 5F 43 C7 C2
2026-07-24T18:13:59.253640+00:00 TX 01 03 00 20 00 02 C5 C1
2026-07-24T18:13:59.260642+00:00 RX 01 03 04 00 00 41 E7 8A 29
2026-07-24T18:13:59.262642+00:00 TX 01 03 01 C4 00 01 C4 0B
2026-07-24T18:13:59.268644+00:00 RX 01 03 02 00 00 B8 44
2026-07-24T18:13:59.319154+00:00 TX 01 03 00 00 00 20 44 12
2026-07-24T18:13:59.364172+00:00 RX 01 03 40 00 00 00 00 00 03 00 00 00 03 00 00 00 00 00 00 00 00 00 00 00 00 00 00 00 01 00 00 01 00 05 0A 00 00 00 00 00 00 00 00 00 00 00 00 00 00 00 00 00 00 00 00 00 00 00 00 FF FF 5E 2B FF FF 5E 2B A7 A4
2026-07-24T18:13:59.366178+00:00 TX 01 03 00 20 00 02 C5 C1
2026-07-24T18:13:59.373677+00:00 RX 01 03 04 00 00 41 E8 CA 2D
2026-07-24T18:13:59.375678+00:00 TX 01 03 01 C4 00 01 C4 0B
2026-07-24T18:13:59.382679+00:00 RX 01 03 02 00 00 B8 44
2026-07-24T18:13:59.432685+00:00 TX 01 03 00 00 00 20 44 12
2026-07-24T18:13:59.477845+00:00 RX 01 03 40 00 00 00 00 00 03 00 00 00 03 00 00 00 00 00 00 00 00 00 00 00 00 00 00 00 01 00 00 01 00 05 0A 00 00 00 00 00 00 00 00 00 00 00 00 00 00 00 00 00 00 00 00 00 00 00 00 FF FF 5D CC FF FF 5D CC D3 3B
2026-07-24T18:13:59.479846+00:00 TX 01 03 00 20 00 02 C5 C1
2026-07-24T18:13:59.487348+00:00 RX 01 03 04 00 00 41 E9 0B ED
2026-07-24T18:13:59.490346+00:00 TX 01 03 01 C4 00 01 C4 0B
2026-07-24T18:13:59.497347+00:00 RX 01 03 02 00 00 B8 44
2026-07-24T18:13:59.547860+00:00 TX 01 03 00 00 00 20 44 12
2026-07-24T18:13:59.593369+00:00 RX 01 03 40 00 00 00 00 00 03 00 00 00 03 00 00 00 00 00 00 00 00 00 00 00 00 00 00 00 01 00 00 01 00 05 0A 00 00 00 00 00 00 00 00 00 00 00 00 00 00 00 00 00 00 00 00 00 00 00 00 FF FF 5F AD FF FF 5F AD AF 99
2026-07-24T18:13:59.596369+00:00 TX 01 03 00 20 00 02 C5 C1
2026-07-24T18:13:59.604367+00:00 RX 01 03 04 00 00 41 EA 4B EC
2026-07-24T18:13:59.606368+00:00 TX 01 03 01 C4 00 01 C4 0B
2026-07-24T18:13:59.612369+00:00 RX 01 03 02 00 00 B8 44
2026-07-24T18:13:59.663428+00:00 TX 01 03 00 00 00 20 44 12
2026-07-24T18:13:59.707483+00:00 RX 01 03 40 00 00 00 00 00 03 00 00 00 03 00 00 00 00 00 00 00 00 00 00 00 00 00 00 00 01 00 00 01 00 05 0A 00 00 00 00 00 00 00 00 00 00 00 00 00 00 00 00 00 00 00 00 00 00 00 00 FF FF 62 1B FF FF 62 1B F3 88
2026-07-24T18:13:59.710484+00:00 TX 01 03 00 20 00 02 C5 C1
2026-07-24T18:13:59.718486+00:00 RX 01 03 04 00 00 41 EB 8A 2C
2026-07-24T18:13:59.720486+00:00 TX 01 03 01 C4 00 01 C4 0B
2026-07-24T18:13:59.726487+00:00 RX 01 03 02 00 00 B8 44
2026-07-24T18:13:59.776996+00:00 TX 01 03 00 00 00 20 44 12
2026-07-24T18:13:59.822006+00:00 RX 01 03 40 00 00 00 00 00 03 00 00 00 03 00 00 00 00 00 00 00 00 00 00 00 00 00 00 00 01 00 00 01 00 05 0A 00 00 00 00 00 00 00 00 00 00 00 00 00 00 00 00 00 00 00 00 00 00 00 00 FF FF 60 B8 FF FF 60 B8 77 6A
2026-07-24T18:13:59.825007+00:00 TX 01 03 00 20 00 02 C5 C1
2026-07-24T18:13:59.833005+00:00 RX 01 03 04 00 00 41 EC CB EE
2026-07-24T18:13:59.835006+00:00 TX 01 03 01 C4 00 01 C4 0B
2026-07-24T18:13:59.841512+00:00 RX 01 03 02 00 00 B8 44
2026-07-24T18:13:59.893019+00:00 TX 01 03 00 00 00 20 44 12
2026-07-24T18:13:59.937703+00:00 RX 01 03 40 00 00 00 00 00 03 00 00 00 03 00 00 00 00 00 00 00 00 00 00 00 00 00 00 00 01 00 00 01 00 05 0A 00 00 00 00 00 00 00 00 00 00 00 00 00 00 00 00 00 00 00 00 00 00 00 00 FF FF 5D CE FF FF 5D CE 2B 3A
2026-07-24T18:13:59.939704+00:00 TX 01 03 00 20 00 02 C5 C1
2026-07-24T18:13:59.947706+00:00 RX 01 03 04 00 00 41 ED 0A 2E
2026-07-24T18:13:59.949707+00:00 TX 01 03 01 C4 00 01 C4 0B
2026-07-24T18:13:59.955708+00:00 RX 01 03 02 00 00 B8 44
2026-07-24T18:14:00.005915+00:00 TX 01 03 00 00 00 20 44 12
2026-07-24T18:14:00.050927+00:00 RX 01 03 40 00 00 00 00 00 03 00 00 00 03 00 00 00 00 00 00 00 00 00 00 00 00 00 00 00 01 00 00 01 00 05 0A 00 00 00 00 00 00 00 00 00 00 00 00 00 00 00 00 00 00 00 00 00 00 00 00 FF FF 5A C2 FF FF 5A C2 38 B9
2026-07-24T18:14:00.053928+00:00 TX 01 03 00 20 00 02 C5 C1
2026-07-24T18:14:00.061930+00:00 RX 01 03 04 00 00 41 EF 8B EF
2026-07-24T18:14:00.064930+00:00 TX 01 03 01 C4 00 01 C4 0B
2026-07-24T18:14:00.071932+00:00 RX 01 03 02 00 00 B8 44
2026-07-24T18:14:00.122442+00:00 TX 01 03 00 00 00 20 44 12
2026-07-24T18:14:00.168040+00:00 RX 01 03 40 00 00 00 00 00 03 00 00 00 03 00 00 00 00 00 00 00 00 00 00 00 00 00 00 00 01 00 00 01 00 05 0A 00 00 00 00 00 00 00 00 00 00 00 00 00 00 00 00 00 00 00 00 00 00 00 00 FF FF 5B 42 FF FF 5B 42 38 86
2026-07-24T18:14:00.170041+00:00 TX 01 03 00 20 00 02 C5 C1
2026-07-24T18:14:00.178039+00:00 RX 01 03 04 00 00 41 F0 CA 27
2026-07-24T18:14:00.180040+00:00 TX 01 03 01 C4 00 01 C4 0B
2026-07-24T18:14:00.186042+00:00 RX 01 03 02 00 00 B8 44
2026-07-24T18:14:00.237049+00:00 TX 01 03 00 00 00 20 44 12
2026-07-24T18:14:00.282557+00:00 RX 01 03 40 00 00 00 00 00 03 00 00 00 03 00 00 00 00 00 00 00 00 00 00 00 00 00 00 00 01 00 00 01 00 05 0A 00 00 00 00 00 00 00 00 00 00 00 00 00 00 00 00 00 00 00 00 00 00 00 00 FF FF 5A 12 FF FF 5A 12 F8 F7
2026-07-24T18:14:00.285226+00:00 TX 01 03 00 20 00 02 C5 C1
2026-07-24T18:14:00.293729+00:00 RX 01 03 04 00 00 41 F1 0B E7
2026-07-24T18:14:00.295729+00:00 TX 01 03 01 C4 00 01 C4 0B
2026-07-24T18:14:00.302732+00:00 RX 01 03 02 00 00 B8 44
2026-07-24T18:14:00.352743+00:00 TX 01 03 00 00 00 20 44 12
2026-07-24T18:14:00.397251+00:00 RX 01 03 40 00 00 00 00 00 03 00 00 00 03 00 00 00 00 00 00 00 00 00 00 00 00 00 00 00 01 00 00 01 00 05 0A 00 00 00 00 00 00 00 00 00 00 00 00 00 00 00 00 00 00 00 00 00 00 00 00 FF FF 5B C7 FF FF 5B C7 34 FB
2026-07-24T18:14:00.399251+00:00 TX 01 03 00 20 00 02 C5 C1
2026-07-24T18:14:00.407249+00:00 RX 01 03 04 00 00 41 F2 4B E6
2026-07-24T18:14:00.409250+00:00 TX 01 03 01 C4 00 01 C4 0B
2026-07-24T18:14:00.416252+00:00 RX 01 03 02 00 00 B8 44
2026-07-24T18:14:00.466263+00:00 TX 01 03 00 00 00 20 44 12
2026-07-24T18:14:00.510818+00:00 RX 01 03 40 00 00 00 00 00 03 00 00 00 03 00 00 00 00 00 00 00 00 00 00 00 00 00 00 00 01 00 00 01 00 05 0A 00 00 00 00 00 00 00 00 00 00 00 00 00 00 00 00 00 00 00 00 00 00 00 00 FF FF 5B B1 FF FF 5B B1 7C D6
2026-07-24T18:14:00.512818+00:00 TX 01 03 00 20 00 02 C5 C1
2026-07-24T18:14:00.520820+00:00 RX 01 03 04 00 00 41 F3 8A 26
2026-07-24T18:14:00.522821+00:00 TX 01 03 01 C4 00 01 C4 0B
2026-07-24T18:14:00.528822+00:00 RX 01 03 02 00 00 B8 44
2026-07-24T18:14:00.579830+00:00 TX 01 03 00 00 00 20 44 12
2026-07-24T18:14:00.623908+00:00 RX 01 03 40 00 00 00 00 00 03 00 00 00 03 00 00 00 00 00 00 00 00 00 00 00 00 00 00 00 01 00 00 01 00 05 0A 00 00 00 00 00 00 00 00 00 00 00 00 00 00 00 00 00 00 00 00 00 00 00 00 FF FF 5D 23 FF FF 5D 23 47 60
2026-07-24T18:14:00.626909+00:00 TX 01 03 00 20 00 02 C5 C1
2026-07-24T18:14:00.634966+00:00 RX 01 03 04 00 00 41 F4 CB E4
2026-07-24T18:14:00.636966+00:00 TX 01 03 01 C4 00 01 C4 0B
2026-07-24T18:14:00.644469+00:00 RX 01 03 02 00 00 B8 44
2026-07-24T18:14:00.694514+00:00 TX 01 03 00 00 00 20 44 12
2026-07-24T18:14:00.738521+00:00 RX 01 03 40 00 00 00 00 00 03 00 00 00 03 00 00 00 00 00 00 00 00 00 00 00 00 00 00 00 01 00 00 01 00 05 0A 00 00 00 00 00 00 00 00 00 00 00 00 00 00 00 00 00 00 00 00 00 00 00 00 FF FF 5F C7 FF FF 5F C7 37 BF
2026-07-24T18:14:00.741523+00:00 TX 01 03 00 20 00 02 C5 C1
2026-07-24T18:14:00.748524+00:00 RX 01 03 04 00 00 41 F6 4A 25
2026-07-24T18:14:00.752525+00:00 TX 01 03 01 C4 00 01 C4 0B
2026-07-24T18:14:00.759034+00:00 RX 01 03 02 00 00 B8 44
2026-07-24T18:14:00.809561+00:00 TX 01 03 00 00 00 20 44 12
2026-07-24T18:14:00.854570+00:00 RX 01 03 40 00 00 00 00 00 03 00 00 00 03 00 00 00 00 00 00 00 00 00 00 00 00 00 00 00 01 00 00 01 00 05 0A 00 00 00 00 00 00 00 00 00 00 00 00 00 00 00 00 00 00 00 00 00 00 00 00 FF FF 5F 83 FF FF 5F 83 C7 83
2026-07-24T18:14:00.856571+00:00 TX 01 03 00 20 00 02 C5 C1
2026-07-24T18:14:00.864572+00:00 RX 01 03 04 00 00 41 F7 8B E5
2026-07-24T18:14:00.866573+00:00 TX 01 03 01 C4 00 01 C4 0B
2026-07-24T18:14:00.872574+00:00 RX 01 03 02 00 00 B8 44
2026-07-24T18:14:00.923086+00:00 TX 01 03 00 00 00 20 44 12
2026-07-24T18:14:00.968096+00:00 RX 01 03 40 00 00 00 00 00 03 00 00 00 03 00 00 00 00 00 00 00 00 00 00 00 00 00 00 00 01 00 00 01 00 05 0A 00 00 00 00 00 00 00 00 00 00 00 00 00 00 00 00 00 00 00 00 00 00 00 00 FF FF 5F 26 FF FF 5F 26 4B E1
2026-07-24T18:14:00.970097+00:00 TX 01 03 00 20 00 02 C5 C1
2026-07-24T18:14:00.978096+00:00 RX 01 03 04 00 00 41 F8 CB E1
2026-07-24T18:14:00.980096+00:00 TX 01 03 01 C4 00 01 C4 0B
2026-07-24T18:14:00.986097+00:00 RX 01 03 02 00 00 B8 44
2026-07-24T18:14:01.036138+00:00 TX 01 03 00 00 00 20 44 12
2026-07-24T18:14:01.081647+00:00 RX 01 03 40 00 00 00 00 00 03 00 00 00 03 00 00 00 00 00 00 00 00 00 00 00 00 00 00 00 01 00 00 01 00 05 0A 00 00 00 00 00 00 00 00 00 00 00 00 00 00 00 00 00 00 00 00 00 00 00 00 FF FF 5F 9D FF FF 5F 9D EF 89
2026-07-24T18:14:01.083647+00:00 TX 01 03 00 20 00 02 C5 C1
2026-07-24T18:14:01.091153+00:00 RX 01 03 04 00 00 41 F9 0A 21
2026-07-24T18:14:01.094151+00:00 TX 01 03 01 C4 00 01 C4 0B
2026-07-24T18:14:01.100149+00:00 RX 01 03 02 00 00 B8 44
2026-07-24T18:14:01.150244+00:00 TX 01 03 00 00 00 20 44 12
2026-07-24T18:14:01.194752+00:00 RX 01 03 40 00 00 00 00 00 03 00 00 00 03 00 00 00 00 00 00 00 00 00 00 00 00 00 00 00 01 00 00 01 00 05 0A 00 00 00 00 00 00 00 00 00 00 00 00 00 00 00 00 00 00 00 00 00 00 00 00 FF FF 5D B4 FF FF 5D B4 73 13
2026-07-24T18:14:01.196753+00:00 TX 01 03 00 20 00 02 C5 C1
2026-07-24T18:14:01.204755+00:00 RX 01 03 04 00 00 41 FA 4A 20
2026-07-24T18:14:01.207752+00:00 TX 01 03 01 C4 00 01 C4 0B
2026-07-24T18:14:01.213753+00:00 RX 01 03 02 00 00 B8 44
2026-07-24T18:14:01.263764+00:00 TX 01 03 00 00 00 20 44 12
2026-07-24T18:14:01.308272+00:00 RX 01 03 40 00 00 00 00 00 03 00 00 00 03 00 00 00 00 00 00 00 00 00 00 00 00 00 00 00 01 00 00 01 00 05 0A 00 00 00 00 00 00 00 00 00 00 00 00 00 00 00 00 00 00 00 00 00 00 00 00 FF FF 5D A6 FF FF 5D A6 4B 1D
2026-07-24T18:14:01.310273+00:00 TX 01 03 00 20 00 02 C5 C1
2026-07-24T18:14:01.318275+00:00 RX 01 03 04 00 00 41 FB 8B E0
2026-07-24T18:14:01.321276+00:00 TX 01 03 01 C4 00 01 C4 0B
2026-07-24T18:14:01.328277+00:00 RX 01 03 02 00 00 B8 44
2026-07-24T18:14:01.378285+00:00 TX 01 03 00 00 00 20 44 12
2026-07-24T18:14:01.423296+00:00 RX 01 03 40 00 00 00 00 00 03 00 00 00 03 00 00 00 00 00 00 00 00 00 00 00 00 00 00 00 01 00 00 01 00 05 0A 00 00 00 00 00 00 00 00 00 00 00 00 00 00 00 00 00 00 00 00 00 00 00 00 FF FF 5D FE FF FF 5D FE 6B 2A
2026-07-24T18:14:01.425296+00:00 TX 01 03 00 20 00 02 C5 C1
2026-07-24T18:14:01.433295+00:00 RX 01 03 04 00 00 41 FD 0B E2
2026-07-24T18:14:01.435295+00:00 TX 01 03 01 C4 00 01 C4 0B
2026-07-24T18:14:01.442297+00:00 RX 01 03 02 00 00 B8 44
2026-07-24T18:14:01.492836+00:00 TX 01 03 00 00 00 20 44 12
2026-07-24T18:14:01.537871+00:00 RX 01 03 40 00 00 00 00 00 03 00 00 00 03 00 00 00 00 00 00 00 00 00 00 00 00 00 00 00 01 00 00 01 00 05 0A 00 00 00 00 00 00 00 00 00 00 00 00 00 00 00 00 00 00 00 00 00 00 00 00 FF FF 5E 1B FF FF 5E 1B E7 B4
2026-07-24T18:14:01.539871+00:00 TX 01 03 00 20 00 02 C5 C1
2026-07-24T18:14:01.547873+00:00 RX 01 03 04 00 00 41 FE 4B E3
2026-07-24T18:14:01.549873+00:00 TX 01 03 01 C4 00 01 C4 0B
2026-07-24T18:14:01.555875+00:00 RX 01 03 02 00 00 B8 44
2026-07-24T18:14:01.606382+00:00 TX 01 03 00 00 00 20 44 12
2026-07-24T18:14:01.651645+00:00 RX 01 03 40 00 00 00 00 00 03 00 00 00 03 00 00 00 00 00 00 00 00 00 00 00 00 00 00 00 01 00 00 01 00 05 0A 00 00 00 00 00 00 00 00 00 00 00 00 00 00 00 00 00 00 00 00 00 00 00 00 FF FF 5D D2 FF FF 5D D2 FB 31
2026-07-24T18:14:01.653646+00:00 TX 01 03 00 20 00 02 C5 C1
2026-07-24T18:14:01.660647+00:00 RX 01 03 04 00 00 41 FF 8A 23
2026-07-24T18:14:01.662648+00:00 TX 01 03 01 C4 00 01 C4 0B
2026-07-24T18:14:01.668649+00:00 RX 01 03 02 00 00 B8 44
2026-07-24T18:14:01.718691+00:00 TX 01 03 00 00 00 20 44 12
2026-07-24T18:14:01.763082+00:00 RX 01 03 40 00 00 00 00 00 03 00 00 00 03 00 00 00 00 00 00 00 00 00 00 00 00 00 00 00 01 00 00 01 00 05 0A 00 00 00 00 00 00 00 00 00 00 00 00 00 00 00 00 00 00 00 00 00 00 00 00 FF FF 5D E8 FF FF 5D E8 A3 27
2026-07-24T18:14:01.766083+00:00 TX 01 03 00 20 00 02 C5 C1
2026-07-24T18:14:01.774084+00:00 RX 01 03 04 00 00 42 00 CA 93
2026-07-24T18:14:01.776085+00:00 TX 01 03 01 C4 00 01 C4 0B
2026-07-24T18:14:01.783083+00:00 RX 01 03 02 00 00 B8 44
2026-07-24T18:14:01.833332+00:00 TX 01 03 00 00 00 20 44 12
2026-07-24T18:14:01.877841+00:00 RX 01 03 40 00 00 00 00 00 03 00 00 00 03 00 00 00 00 00 00 00 00 00 00 00 00 00 00 00 01 00 00 01 00 05 0A 00 00 00 00 00 00 00 00 00 00 00 00 00 00 00 00 00 00 00 00 00 00 00 00 FF FF 5B D2 FF FF 5B D2 F8 F7
2026-07-24T18:14:01.880842+00:00 TX 01 03 00 20 00 02 C5 C1
2026-07-24T18:14:01.891579+00:00 RX 01 03 04 00 00 42 01 0B 53
2026-07-24T18:14:01.891579+00:00 TX 01 03 01 C4 00 01 C4 0B
2026-07-24T18:14:01.898081+00:00 RX 01 03 02 00 00 B8 44
2026-07-24T18:14:01.948093+00:00 TX 01 03 00 00 00 20 44 12
2026-07-24T18:14:01.993100+00:00 RX 01 03 40 00 00 00 00 00 03 00 00 00 03 00 00 00 00 00 00 00 00 00 00 00 00 00 00 00 01 00 00 01 00 05 0A 00 00 00 00 00 00 00 00 00 00 00 00 00 00 00 00 00 00 00 00 00 00 00 00 FF FF 5B 01 FF FF 5B 01 3C B8
2026-07-24T18:14:01.996602+00:00 TX 01 03 00 20 00 02 C5 C1
2026-07-24T18:14:02.004143+00:00 RX 01 03 04 00 00 42 02 4B 52
2026-07-24T18:14:02.006144+00:00 TX 01 03 01 C4 00 01 C4 0B
2026-07-24T18:14:02.013142+00:00 RX 01 03 02 00 00 B8 44
2026-07-24T18:14:02.063151+00:00 TX 01 03 00 00 00 20 44 12
2026-07-24T18:14:02.108660+00:00 RX 01 03 40 00 00 00 00 00 03 00 00 00 03 00 00 00 00 00 00 00 00 00 00 00 00 00 00 00 01 00 00 01 00 05 0A 00 00 00 00 00 00 00 00 00 00 00 00 00 00 00 00 00 00 00 00 00 00 00 00 FF FF 5D 4E FF FF 5D 4E 2B 44
2026-07-24T18:14:02.110660+00:00 TX 01 03 00 20 00 02 C5 C1
2026-07-24T18:14:02.118662+00:00 RX 01 03 04 00 00 42 04 CB 50
2026-07-24T18:14:02.120663+00:00 TX 01 03 01 C4 00 01 C4 0B
2026-07-24T18:14:02.127245+00:00 RX 01 03 02 00 00 B8 44
2026-07-24T18:14:02.177890+00:00 TX 01 03 00 00 00 20 44 12
2026-07-24T18:14:02.222898+00:00 RX 01 03 40 00 00 00 00 00 03 00 00 00 03 00 00 00 00 00 00 00 00 00 00 00 00 00 00 00 01 00 00 01 00 05 0A 00 00 00 00 00 00 00 00 00 00 00 00 00 00 00 00 00 00 00 00 00 00 00 00 FF FF 5D 13 FF FF 5D 13 07 70
2026-07-24T18:14:02.225899+00:00 TX 01 03 00 20 00 02 C5 C1
2026-07-24T18:14:02.233898+00:00 RX 01 03 04 00 00 42 05 0A 90
2026-07-24T18:14:02.235898+00:00 TX 01 03 01 C4 00 01 C4 0B
2026-07-24T18:14:02.242899+00:00 RX 01 03 02 00 00 B8 44
2026-07-24T18:14:02.293409+00:00 TX 01 03 00 00 00 20 44 12
2026-07-24T18:14:02.338921+00:00 RX 01 03 40 00 00 00 00 00 03 00 00 00 03 00 00 00 00 00 00 00 00 00 00 00 00 00 00 00 01 00 00 01 00 05 0A 00 00 00 00 00 00 00 00 00 00 00 00 00 00 00 00 00 00 00 00 00 00 00 00 FF FF 5E AD FF FF 5E AD AF D8
2026-07-24T18:14:02.340922+00:00 TX 01 03 00 20 00 02 C5 C1
2026-07-24T18:14:02.348923+00:00 RX 01 03 04 00 00 42 06 4A 91
2026-07-24T18:14:02.350924+00:00 TX 01 03 01 C4 00 01 C4 0B
2026-07-24T18:14:02.356925+00:00 RX 01 03 02 00 00 B8 44
2026-07-24T18:14:02.407432+00:00 TX 01 03 00 00 00 20 44 12
2026-07-24T18:14:02.452131+00:00 RX 01 03 40 00 00 00 00 00 03 00 00 00 03 00 00 00 00 00 00 00 00 00 00 00 00 00 00 00 01 00 00 01 00 05 0A 00 00 00 00 00 00 00 00 00 00 00 00 00 00 00 00 00 00 00 00 00 00 00 00 FF FF 5D 73 FF FF 5D 73 87 50
2026-07-24T18:14:02.454132+00:00 TX 01 03 00 20 00 02 C5 C1
2026-07-24T18:14:02.463134+00:00 RX 01 03 04 00 00 42 07 8B 51
2026-07-24T18:14:02.465135+00:00 TX 01 03 01 C4 00 01 C4 0B
2026-07-24T18:14:02.472136+00:00 RX 01 03 02 00 00 B8 44
2026-07-24T18:14:02.522146+00:00 TX 01 03 00 00 00 20 44 12
2026-07-24T18:14:02.567156+00:00 RX 01 03 40 00 00 00 00 00 03 00 00 00 03 00 00 00 00 00 00 00 00 00 00 00 00 00 00 00 01 00 00 01 00 05 0A 00 00 00 00 00 00 00 00 00 00 00 00 00 00 00 00 00 00 00 00 00 00 00 00 FF FF 5C 20 FF FF 5C 20 43 20
2026-07-24T18:14:02.569157+00:00 TX 01 03 00 20 00 02 C5 C1
2026-07-24T18:14:02.577158+00:00 RX 01 03 04 00 00 42 08 CB 55
2026-07-24T18:14:02.579159+00:00 TX 01 03 01 C4 00 01 C4 0B
2026-07-24T18:14:02.585157+00:00 RX 01 03 02 00 00 B8 44
2026-07-24T18:14:02.637137+00:00 TX 01 03 00 00 00 20 44 12
2026-07-24T18:14:02.682676+00:00 RX 01 03 40 00 00 00 00 00 03 00 00 00 03 00 00 00 00 00 00 00 00 00 00 00 00 00 00 00 01 00 00 01 00 05 0A 00 00 00 00 00 00 00 00 00 00 00 00 00 00 00 00 00 00 00 00 00 00 00 00 FF FF 5E 56 FF FF 5E 56 0B 8F
2026-07-24T18:14:02.684676+00:00 TX 01 03 00 20 00 02 C5 C1
2026-07-24T18:14:02.692678+00:00 RX 01 03 04 00 00 42 09 0A 95
2026-07-24T18:14:02.694679+00:00 TX 01 03 01 C4 00 01 C4 0B
2026-07-24T18:14:02.701181+00:00 RX 01 03 02 00 00 B8 44
2026-07-24T18:14:02.751191+00:00 TX 01 03 00 00 00 20 44 12
2026-07-24T18:14:02.796035+00:00 RX 01 03 40 00 00 00 00 00 03 00 00 00 03 00 00 00 00 00 00 00 00 00 00 00 00 00 00 00 01 00 00 01 00 05 0A 00 00 00 00 00 00 00 00 00 00 00 00 00 00 00 00 00 00 00 00 00 00 00 00 FF FF 5E C7 FF FF 5E C7 37 FE
2026-07-24T18:14:02.799032+00:00 TX 01 03 00 20 00 02 C5 C1
2026-07-24T18:14:02.807034+00:00 RX 01 03 04 00 00 42 0B 8B 54
2026-07-24T18:14:02.810031+00:00 TX 01 03 01 C4 00 01 C4 0B
2026-07-24T18:14:02.816033+00:00 RX 01 03 02 00 00 B8 44
2026-07-24T18:14:02.866044+00:00 TX 01 03 00 00 00 20 44 12
