2026-07-25T06:26:19.920411+00:00 TX 01 03 00 00 00 20 44 12
2026-07-25T06:26:19.965432+00:00 RX 01 03 40 00 00 00 00 00 03 00 00 00 03 00 00 00 00 00 00 00 00 00 00 00 00 00 00 00 01 00 00 01 00 05 0A 00 00 00 00 00 00 00 00 00 00 00 00 00 00 00 00 00 00 00 00 00 00 00 00 FF FF 53 80 FF FF 53 80 C6 4E
2026-07-25T06:26:19.967432+00:00 TX 01 03 00 20 00 1B 04 0B
2026-07-25T06:26:20.005942+00:00 RX 01 03 36 00 00 01 B8 00 00 AB EA 00 00 00 00 00 00 00 00 00 00 00 00 00 03 00 04 00 00 00 00 00 00 00 03 00 00 00 01 00 00 00 00 00 03 00 00 00 03 00 00 00 00 00 00 00 00 EB C9
2026-07-25T06:26:20.007942+00:00 TX 01 03 01 C0 00 05 84 09
2026-07-25T06:26:20.018945+00:00 RX 01 03 0A 00 02 00 01 00 00 00 03 00 00 DD 16
2026-07-25T06:26:20.021946+00:00 TX 01 03 01 03 00 01 75 F6
2026-07-25T06:26:20.028947+00:00 RX 01 03 02 00 00 B8 44
2026-07-25T06:26:20.030948+00:00 TX 01 03 00 20 00 02 C5 C1
2026-07-25T06:26:20.037949+00:00 RX 01 03 04 00 00 01 B9 3A 11
2026-07-25T06:26:20.089468+00:00 TX 01 03 00 20 00 02 C5 C1
2026-07-25T06:26:20.097470+00:00 RX 01 03 04 00 00 01 B9 3A 11
2026-07-25T06:26:20.147981+00:00 TX 01 03 00 20 00 02 C5 C1
2026-07-25T06:26:20.155982+00:00 RX 01 03 04 00 00 01 BA 7A 10
2026-07-25T06:26:20.206493+00:00 TX 01 03 00 20 00 02 C5 C1
2026-07-25T06:26:20.214495+00:00 RX 01 03 04 00 00 01 BB BB D0
2026-07-25T06:26:20.264778+00:00 TX 01 03 00 20 00 02 C5 C1
2026-07-25T06:26:20.272776+00:00 RX 01 03 04 00 00 01 BB BB D0
2026-07-25T06:26:20.323286+00:00 TX 01 03 00 20 00 02 C5 C1
2026-07-25T06:26:20.331789+00:00 RX 01 03 04 00 00 01 BC FA 12
2026-07-25T06:26:20.381851+00:00 TX 01 03 00 20 00 02 C5 C1
2026-07-25T06:26:20.390853+00:00 RX 01 03 04 00 00 01 BC FA 12
2026-07-25T06:26:20.440865+00:00 TX 01 03 00 20 00 02 C5 C1
2026-07-25T06:26:20.449864+00:00 RX 01 03 04 00 00 01 BD 3B D2
2026-07-25T06:26:20.500378+00:00 TX 01 03 00 20 00 02 C5 C1
2026-07-25T06:26:20.509380+00:00 RX 01 03 04 00 00 01 BE 7B D3
2026-07-25T06:26:20.559881+00:00 TX 01 03 00 20 00 02 C5 C1
2026-07-25T06:26:20.568881+00:00 RX 01 03 04 00 00 01 BE 7B D3
2026-07-25T06:26:20.619394+00:00 TX 01 03 00 20 00 02 C5 C1
2026-07-25T06:26:20.627396+00:00 RX 01 03 04 00 00 01 BF BA 13
2026-07-25T06:26:20.677902+00:00 TX 01 03 00 20 00 02 C5 C1
2026-07-25T06:26:20.686406+00:00 RX 01 03 04 00 00 01 BF BA 13
2026-07-25T06:26:20.736477+00:00 TX 01 03 00 20 00 02 C5 C1
2026-07-25T06:26:20.743478+00:00 RX 01 03 04 00 00 01 C0 FB F3
2026-07-25T06:26:20.795381+00:00 TX 01 03 00 20 00 02 C5 C1
2026-07-25T06:26:20.803383+00:00 RX 01 03 04 00 00 01 C1 3A 33
2026-07-25T06:26:20.853439+00:00 TX 01 03 00 20 00 02 C5 C1
2026-07-25T06:26:20.861442+00:00 RX 01 03 04 00 00 01 C1 3A 33
2026-07-25T06:26:20.911481+00:00 TX 01 03 00 20 00 02 C5 C1
2026-07-25T06:26:20.919479+00:00 RX 01 03 04 00 00 01 C2 7A 32
2026-07-25T06:26:20.970028+00:00 TX 01 03 00 20 00 02 C5 C1
2026-07-25T06:26:20.978029+00:00 RX 01 03 04 00 00 01 C2 7A 32
2026-07-25T06:26:21.028046+00:00 TX 01 03 00 20 00 02 C5 C1
2026-07-25T06:26:21.036048+00:00 RX 01 03 04 00 00 01 C3 BB F2
2026-07-25T06:26:21.086056+00:00 TX 01 03 00 20 00 02 C5 C1
2026-07-25T06:26:21.094057+00:00 RX 01 03 04 00 00 01 C4 FA 30
2026-07-25T06:26:21.144564+00:00 TX 01 03 00 20 00 02 C5 C1
2026-07-25T06:26:21.151565+00:00 RX 01 03 04 00 00 01 C4 FA 30
2026-07-25T06:26:21.201577+00:00 TX 01 03 00 20 00 02 C5 C1
2026-07-25T06:26:21.210578+00:00 RX 01 03 04 00 00 01 C5 3B F0
2026-07-25T06:26:21.261360+00:00 TX 01 03 00 20 00 02 C5 C1
2026-07-25T06:26:21.271861+00:00 RX 01 03 04 00 00 01 C5 3B F0
2026-07-25T06:26:21.322372+00:00 TX 01 03 00 20 00 02 C5 C1
2026-07-25T06:26:21.330374+00:00 RX 01 03 04 00 00 01 C6 7B F1
2026-07-25T06:26:21.380460+00:00 TX 01 03 00 20 00 02 C5 C1
2026-07-25T06:26:21.388963+00:00 RX 01 03 04 00 00 01 C7 BA 31
2026-07-25T06:26:21.438975+00:00 TX 01 03 00 20 00 02 C5 C1
2026-07-25T06:26:21.446977+00:00 RX 01 03 04 00 00 01 C7 BA 31
2026-07-25T06:26:21.496988+00:00 TX 01 03 00 20 00 02 C5 C1
2026-07-25T06:26:21.504990+00:00 RX 01 03 04 00 00 01 C8 FA 35
2026-07-25T06:26:21.555500+00:00 TX 01 03 00 20 00 02 C5 C1
2026-07-25T06:26:21.563501+00:00 RX 01 03 04 00 00 01 C8 FA 35
2026-07-25T06:26:21.614192+00:00 TX 01 03 00 20 00 02 C5 C1
2026-07-25T06:26:21.622195+00:00 RX 01 03 04 00 00 01 C9 3B F5
2026-07-25T06:26:21.672701+00:00 TX 01 03 00 20 00 02 C5 C1
2026-07-25T06:26:21.680703+00:00 RX 01 03 04 00 00 01 CA 7B F4
2026-07-25T06:26:21.731821+00:00 TX 01 03 00 20 00 02 C5 C1
2026-07-25T06:26:21.740254+00:00 RX 01 03 04 00 00 01 CA 7B F4
2026-07-25T06:26:21.791040+00:00 TX 01 03 00 20 00 02 C5 C1
2026-07-25T06:26:21.799043+00:00 RX 01 03 04 00 00 01 CB BA 34
2026-07-25T06:26:21.849549+00:00 TX 01 03 00 20 00 02 C5 C1
2026-07-25T06:26:21.856551+00:00 RX 01 03 04 00 00 01 CB BA 34
2026-07-25T06:26:21.907559+00:00 TX 01 03 00 20 00 02 C5 C1
2026-07-25T06:26:21.915062+00:00 RX 01 03 04 00 00 01 CC FB F6
2026-07-25T06:26:21.965071+00:00 TX 01 03 00 20 00 02 C5 C1
2026-07-25T06:26:21.974071+00:00 RX 01 03 04 00 00 01 CD 3A 36
2026-07-25T06:26:22.024584+00:00 TX 01 03 00 20 00 02 C5 C1
2026-07-25T06:26:22.032585+00:00 RX 01 03 04 00 00 01 CD 3A 36
2026-07-25T06:26:22.082601+00:00 TX 01 03 00 20 00 02 C5 C1
2026-07-25T06:26:22.090105+00:00 RX 01 03 04 00 00 01 CE 7A 37
2026-07-25T06:26:22.140614+00:00 TX 01 03 00 20 00 02 C5 C1
2026-07-25T06:26:22.148615+00:00 RX 01 03 04 00 00 01 CE 7A 37
2026-07-25T06:26:22.199166+00:00 TX 01 03 00 20 00 02 C5 C1
2026-07-25T06:26:22.207167+00:00 RX 01 03 04 00 00 01 CF BB F7
2026-07-25T06:26:22.257186+00:00 TX 01 03 00 20 00 02 C5 C1
2026-07-25T06:26:22.265736+00:00 RX 01 03 04 00 00 01 D0 FA 3F
2026-07-25T06:26:22.316062+00:00 TX 01 03 00 20 00 02 C5 C1
2026-07-25T06:26:22.324060+00:00 RX 01 03 04 00 00 01 D0 FA 3F
2026-07-25T06:26:22.375138+00:00 TX 01 03 00 20 00 02 C5 C1
2026-07-25T06:26:22.383140+00:00 RX 01 03 04 00 00 01 D1 3B FF
2026-07-25T06:26:22.433151+00:00 TX 01 03 00 20 00 02 C5 C1
2026-07-25T06:26:22.441152+00:00 RX 01 03 04 00 00 01 D1 3B FF
2026-07-25T06:26:22.491869+00:00 TX 01 03 00 20 00 02 C5 C1
2026-07-25T06:26:22.499871+00:00 RX 01 03 04 00 00 01 D2 7B FE
2026-07-25T06:26:22.550380+00:00 TX 01 03 00 20 00 02 C5 C1
2026-07-25T06:26:22.558382+00:00 RX 01 03 04 00 00 01 D2 7B FE
2026-07-25T06:26:22.608892+00:00 TX 01 03 00 20 00 02 C5 C1
2026-07-25T06:26:22.616890+00:00 RX 01 03 04 00 00 01 D3 BA 3E
2026-07-25T06:26:22.667453+00:00 TX 01 03 00 20 00 02 C5 C1
2026-07-25T06:26:22.675452+00:00 RX 01 03 04 00 00 01 D4 FB FC
2026-07-25T06:26:22.725993+00:00 TX 01 03 00 20 00 02 C5 C1
2026-07-25T06:26:22.733498+00:00 RX 01 03 04 00 00 01 D4 FB FC
2026-07-25T06:26:22.784503+00:00 TX 01 03 00 20 00 02 C5 C1
2026-07-25T06:26:22.792006+00:00 RX 01 03 04 00 00 01 D5 3A 3C
2026-07-25T06:26:22.842032+00:00 TX 01 03 00 20 00 02 C5 C1
2026-07-25T06:26:22.850034+00:00 RX 01 03 04 00 00 01 D5 3A 3C
2026-07-25T06:26:22.900041+00:00 TX 01 03 00 20 00 02 C5 C1
2026-07-25T06:26:22.909043+00:00 RX 01 03 04 00 00 01 D6 7A 3D
2026-07-25T06:26:22.959551+00:00 TX 01 03 00 20 00 02 C5 C1
2026-07-25T06:26:22.968054+00:00 RX 01 03 04 00 00 01 D7 BB FD
2026-07-25T06:26:23.018596+00:00 TX 01 03 00 20 00 02 C5 C1
2026-07-25T06:26:23.026597+00:00 RX 01 03 04 00 00 01 D7 BB FD
2026-07-25T06:26:23.077106+00:00 TX 01 03 00 20 00 02 C5 C1
2026-07-25T06:26:23.085105+00:00 RX 01 03 04 00 00 01 D8 FB F9
2026-07-25T06:26:23.135118+00:00 TX 01 03 00 20 00 02 C5 C1
2026-07-25T06:26:23.143119+00:00 RX 01 03 04 00 00 01 D8 FB F9
2026-07-25T06:26:23.193145+00:00 TX 01 03 00 20 00 02 C5 C1
2026-07-25T06:26:23.201147+00:00 RX 01 03 04 00 00 01 D9 3A 39
2026-07-25T06:26:23.251157+00:00 TX 01 03 00 20 00 02 C5 C1
2026-07-25T06:26:23.259156+00:00 RX 01 03 04 00 00 01 DA 7A 38
2026-07-25T06:26:23.309168+00:00 TX 01 03 00 20 00 02 C5 C1
2026-07-25T06:26:23.317169+00:00 RX 01 03 04 00 00 01 DA 7A 38
2026-07-25T06:26:23.367302+00:00 TX 01 03 00 20 00 02 C5 C1
2026-07-25T06:26:23.374853+00:00 RX 01 03 04 00 00 01 DB BB F8
2026-07-25T06:26:23.426363+00:00 TX 01 03 00 20 00 02 C5 C1
2026-07-25T06:26:23.434365+00:00 RX 01 03 04 00 00 01 DB BB F8
2026-07-25T06:26:23.484375+00:00 TX 01 03 00 20 00 02 C5 C1
2026-07-25T06:26:23.491881+00:00 RX 01 03 04 00 00 01 DC FA 3A
2026-07-25T06:26:23.542389+00:00 TX 01 03 00 20 00 02 C5 C1
2026-07-25T06:26:23.550391+00:00 RX 01 03 04 00 00 01 DD 3B FA
2026-07-25T06:26:23.600630+00:00 TX 01 03 00 20 00 02 C5 C1
2026-07-25T06:26:23.608632+00:00 RX 01 03 04 00 00 01 DD 3B FA
2026-07-25T06:26:23.658641+00:00 TX 01 03 00 20 00 02 C5 C1
2026-07-25T06:26:23.666642+00:00 RX 01 03 04 00 00 01 DE 7B FB
2026-07-25T06:26:23.717252+00:00 TX 01 03 00 20 00 02 C5 C1
2026-07-25T06:26:23.725250+00:00 RX 01 03 04 00 00 01 DE 7B FB
2026-07-25T06:26:23.775681+00:00 TX 01 03 00 20 00 02 C5 C1
2026-07-25T06:26:23.783679+00:00 RX 01 03 04 00 00 01 DF BA 3B
2026-07-25T06:26:23.834190+00:00 TX 01 03 00 20 00 02 C5 C1
2026-07-25T06:26:23.842254+00:00 RX 01 03 04 00 00 01 E0 FA 2B
2026-07-25T06:26:23.892749+00:00 TX 01 03 00 20 00 02 C5 C1
2026-07-25T06:26:23.901277+00:00 RX 01 03 04 00 00 01 E0 FA 2B
2026-07-25T06:26:23.951785+00:00 TX 01 03 00 20 00 02 C5 C1
2026-07-25T06:26:23.959787+00:00 RX 01 03 04 00 00 01 E1 3B EB
2026-07-25T06:26:24.009801+00:00 TX 01 03 00 20 00 02 C5 C1
2026-07-25T06:26:24.017803+00:00 RX 01 03 04 00 00 01 E1 3B EB
2026-07-25T06:26:24.068318+00:00 TX 01 03 00 20 00 02 C5 C1
2026-07-25T06:26:24.076822+00:00 RX 01 03 04 00 00 01 E2 7B EA
2026-07-25T06:26:24.127328+00:00 TX 01 03 00 20 00 02 C5 C1
2026-07-25T06:26:24.134836+00:00 RX 01 03 04 00 00 01 E3 BA 2A
2026-07-25T06:26:24.185339+00:00 TX 01 03 00 20 00 02 C5 C1
2026-07-25T06:26:24.193341+00:00 RX 01 03 04 00 00 01 E3 BA 2A
2026-07-25T06:26:24.243853+00:00 TX 01 03 00 20 00 02 C5 C1
2026-07-25T06:26:24.251855+00:00 RX 01 03 04 00 00 01 E4 FB E8
2026-07-25T06:26:24.301944+00:00 TX 01 03 00 20 00 02 C5 C1
2026-07-25T06:26:24.309945+00:00 RX 01 03 04 00 00 01 E4 FB E8
2026-07-25T06:26:24.360546+00:00 TX 01 03 00 20 00 02 C5 C1
2026-07-25T06:26:24.368548+00:00 RX 01 03 04 00 00 01 E5 3A 28
2026-07-25T06:26:24.420057+00:00 TX 01 03 00 20 00 02 C5 C1
2026-07-25T06:26:24.429060+00:00 RX 01 03 04 00 00 01 E6 7A 29
2026-07-25T06:26:24.479568+00:00 TX 01 03 00 20 00 02 C5 C1
2026-07-25T06:26:24.488566+00:00 RX 01 03 04 00 00 01 E6 7A 29
2026-07-25T06:26:24.538577+00:00 TX 01 03 00 20 00 02 C5 C1
2026-07-25T06:26:24.545580+00:00 RX 01 03 04 00 00 01 E7 BB E9
2026-07-25T06:26:24.595588+00:00 TX 01 03 00 20 00 02 C5 C1
2026-07-25T06:26:24.604093+00:00 RX 01 03 04 00 00 01 E7 BB E9
2026-07-25T06:26:24.654105+00:00 TX 01 03 00 20 00 02 C5 C1
2026-07-25T06:26:24.662104+00:00 RX 01 03 04 00 00 01 E8 FB ED
2026-07-25T06:26:24.712155+00:00 TX 01 03 00 20 00 02 C5 C1
2026-07-25T06:26:24.720186+00:00 RX 01 03 04 00 00 01 E8 FB ED
2026-07-25T06:26:24.770701+00:00 TX 01 03 00 20 00 02 C5 C1
2026-07-25T06:26:24.778703+00:00 RX 01 03 04 00 00 01 E9 3A 2D
2026-07-25T06:26:24.829210+00:00 TX 01 03 00 20 00 02 C5 C1
2026-07-25T06:26:24.837212+00:00 RX 01 03 04 00 00 01 EA 7A 2C
2026-07-25T06:26:24.887440+00:00 TX 01 03 00 20 00 02 C5 C1
2026-07-25T06:26:24.895442+00:00 RX 01 03 04 00 00 01 EA 7A 2C
2026-07-25T06:26:24.945452+00:00 TX 01 03 00 20 00 02 C5 C1
2026-07-25T06:26:24.953451+00:00 RX 01 03 04 00 00 01 EB BB EC
2026-07-25T06:26:25.004002+00:00 TX 01 03 00 20 00 02 C5 C1
2026-07-25T06:26:25.012003+00:00 RX 01 03 04 00 00 01 EB BB EC
2026-07-25T06:26:25.062013+00:00 TX 01 03 00 20 00 02 C5 C1
2026-07-25T06:26:25.070520+00:00 RX 01 03 04 00 00 01 EC FA 2E
2026-07-25T06:26:25.121025+00:00 TX 01 03 00 20 00 02 C5 C1
2026-07-25T06:26:25.130028+00:00 RX 01 03 04 00 00 01 ED 3B EE
2026-07-25T06:26:25.180073+00:00 TX 01 03 00 20 00 02 C5 C1
2026-07-25T06:26:25.189071+00:00 RX 01 03 04 00 00 01 ED 3B EE
2026-07-25T06:26:25.239584+00:00 TX 01 03 00 20 00 02 C5 C1
2026-07-25T06:26:25.247586+00:00 RX 01 03 04 00 00 01 EE 7B EF
2026-07-25T06:26:25.298595+00:00 TX 01 03 00 20 00 02 C5 C1
2026-07-25T06:26:25.306596+00:00 RX 01 03 04 00 00 01 EE 7B EF
2026-07-25T06:26:25.358235+00:00 TX 01 03 00 20 00 02 C5 C1
2026-07-25T06:26:25.366237+00:00 RX 01 03 04 00 00 01 EF BA 2F
2026-07-25T06:26:25.416748+00:00 TX 01 03 00 20 00 02 C5 C1
2026-07-25T06:26:25.424750+00:00 RX 01 03 04 00 00 01 F0 FB E7
2026-07-25T06:26:25.475261+00:00 TX 01 03 00 20 00 02 C5 C1
2026-07-25T06:26:25.483259+00:00 RX 01 03 04 00 00 01 F0 FB E7
2026-07-25T06:26:25.533769+00:00 TX 01 03 00 20 00 02 C5 C1
2026-07-25T06:26:25.542274+00:00 RX 01 03 04 00 00 01 F1 3A 27
2026-07-25T06:26:25.592284+00:00 TX 01 03 00 20 00 02 C5 C1
2026-07-25T06:26:25.599788+00:00 RX 01 03 04 00 00 01 F1 3A 27
2026-07-25T06:26:25.649799+00:00 TX 01 03 00 20 00 02 C5 C1
2026-07-25T06:26:25.657798+00:00 RX 01 03 04 00 00 01 F2 7A 26
2026-07-25T06:26:25.708376+00:00 TX 01 03 00 20 00 02 C5 C1
2026-07-25T06:26:25.715411+00:00 RX 01 03 04 00 00 01 F3 BB E6
2026-07-25T06:26:25.766918+00:00 TX 01 03 00 20 00 02 C5 C1
2026-07-25T06:26:25.774920+00:00 RX 01 03 04 00 00 01 F3 BB E6
2026-07-25T06:26:25.825071+00:00 TX 01 03 00 20 00 02 C5 C1
2026-07-25T06:26:25.833074+00:00 RX 01 03 04 00 00 01 F4 FA 24
