2026-07-24T17:37:19.361943+00:00 TX 01 03 00 00 00 20 44 12
2026-07-24T17:37:19.405953+00:00 RX 01 03 40 00 00 00 00 00 03 00 00 00 03 00 00 00 00 00 00 00 00 00 00 00 00 00 00 00 01 00 00 01 00 05 0A 00 00 00 00 00 00 00 00 00 00 00 00 00 00 00 00 00 00 00 00 00 00 00 00 FF FF 5A 08 FF FF 5A 08 20 FE
2026-07-24T17:37:19.409954+00:00 TX 01 03 00 20 00 1B 04 0B
2026-07-24T17:37:19.448462+00:00 RX 01 03 36 00 00 01 5A 00 00 86 BF 00 00 00 00 00 00 00 00 00 00 00 00 00 03 00 04 00 00 00 00 00 00 00 00 00 00 00 01 00 00 00 00 00 00 00 00 00 00 00 00 00 00 00 00 00 00 25 38
2026-07-24T17:37:19.451462+00:00 TX 01 03 01 C0 00 05 84 09
2026-07-24T17:37:19.462465+00:00 RX 01 03 0A 00 02 00 00 00 00 00 00 00 00 3D D6
2026-07-24T17:37:19.465466+00:00 TX 01 03 01 03 00 01 75 F6
2026-07-24T17:37:19.471467+00:00 RX 01 03 02 00 00 B8 44
2026-07-24T17:37:19.473468+00:00 TX 01 03 00 20 00 02 C5 C1
2026-07-24T17:37:19.481470+00:00 RX 01 03 04 00 00 01 5A 7B 98
2026-07-24T17:37:19.532055+00:00 TX 01 03 00 20 00 02 C5 C1
2026-07-24T17:37:19.540056+00:00 RX 01 03 04 00 00 01 5B BA 58
2026-07-24T17:37:19.590064+00:00 TX 01 03 00 20 00 02 C5 C1
2026-07-24T17:37:19.598066+00:00 RX 01 03 04 00 00 01 5B BA 58
2026-07-24T17:37:19.648650+00:00 TX 01 03 00 20 00 02 C5 C1
2026-07-24T17:37:19.656652+00:00 RX 01 03 04 00 00 01 5C FB 9A
2026-07-24T17:37:19.706687+00:00 TX 01 03 00 20 00 02 C5 C1
2026-07-24T17:37:19.715197+00:00 RX 01 03 04 00 00 01 5D 3A 5A
2026-07-24T17:37:19.765257+00:00 TX 01 03 00 20 00 02 C5 C1
2026-07-24T17:37:19.773095+00:00 RX 01 03 04 00 00 01 5D 3A 5A
2026-07-24T17:37:19.823108+00:00 TX 01 03 00 20 00 02 C5 C1
2026-07-24T17:37:19.831107+00:00 RX 01 03 04 00 00 01 5E 7A 5B
2026-07-24T17:37:19.881620+00:00 TX 01 03 00 20 00 02 C5 C1
2026-07-24T17:37:19.889618+00:00 RX 01 03 04 00 00 01 5E 7A 5B
2026-07-24T17:37:19.940131+00:00 TX 01 03 00 20 00 02 C5 C1
2026-07-24T17:37:19.948133+00:00 RX 01 03 04 00 00 01 5F BB 9B
2026-07-24T17:37:19.998140+00:00 TX 01 03 00 20 00 02 C5 C1
2026-07-24T17:37:20.006509+00:00 RX 01 03 04 00 00 01 60 FB 8B
2026-07-24T17:37:20.057019+00:00 TX 01 03 00 20 00 02 C5 C1
2026-07-24T17:37:20.065021+00:00 RX 01 03 04 00 00 01 60 FB 8B
2026-07-24T17:37:20.115530+00:00 TX 01 03 00 20 00 02 C5 C1
2026-07-24T17:37:20.124532+00:00 RX 01 03 04 00 00 01 61 3A 4B
2026-07-24T17:37:20.175091+00:00 TX 01 03 00 20 00 02 C5 C1
2026-07-24T17:37:20.183596+00:00 RX 01 03 04 00 00 01 61 3A 4B
2026-07-24T17:37:20.234102+00:00 TX 01 03 00 20 00 02 C5 C1
2026-07-24T17:37:20.242606+00:00 RX 01 03 04 00 00 01 62 7A 4A
2026-07-24T17:37:20.293131+00:00 TX 01 03 00 20 00 02 C5 C1
2026-07-24T17:37:20.301133+00:00 RX 01 03 04 00 00 01 63 BB 8A
2026-07-24T17:37:20.351646+00:00 TX 01 03 00 20 00 02 C5 C1
2026-07-24T17:37:20.359648+00:00 RX 01 03 04 00 00 01 63 BB 8A
2026-07-24T17:37:20.409659+00:00 TX 01 03 00 20 00 02 C5 C1
2026-07-24T17:37:20.417697+00:00 RX 01 03 04 00 00 01 64 FA 48
2026-07-24T17:37:20.468209+00:00 TX 01 03 00 20 00 02 C5 C1
2026-07-24T17:37:20.476210+00:00 RX 01 03 04 00 00 01 64 FA 48
2026-07-24T17:37:20.526721+00:00 TX 01 03 00 20 00 02 C5 C1
2026-07-24T17:37:20.534723+00:00 RX 01 03 04 00 00 01 65 3B 88
2026-07-24T17:37:20.584844+00:00 TX 01 03 00 20 00 02 C5 C1
2026-07-24T17:37:20.592843+00:00 RX 01 03 04 00 00 01 65 3B 88
2026-07-24T17:37:20.642908+00:00 TX 01 03 00 20 00 02 C5 C1
2026-07-24T17:37:20.649910+00:00 RX 01 03 04 00 00 01 66 7B 89
2026-07-24T17:37:20.701572+00:00 TX 01 03 00 20 00 02 C5 C1
2026-07-24T17:37:20.709074+00:00 RX 01 03 04 00 00 01 67 BA 49
2026-07-24T17:37:20.759114+00:00 TX 01 03 00 20 00 02 C5 C1
2026-07-24T17:37:20.767113+00:00 RX 01 03 04 00 00 01 67 BA 49
2026-07-24T17:37:20.818124+00:00 TX 01 03 00 20 00 02 C5 C1
2026-07-24T17:37:20.826122+00:00 RX 01 03 04 00 00 01 68 FA 4D
2026-07-24T17:37:20.876636+00:00 TX 01 03 00 20 00 02 C5 C1
2026-07-24T17:37:20.885638+00:00 RX 01 03 04 00 00 01 68 FA 4D
2026-07-24T17:37:20.936149+00:00 TX 01 03 00 20 00 02 C5 C1
2026-07-24T17:37:20.945152+00:00 RX 01 03 04 00 00 01 69 3B 8D
2026-07-24T17:37:20.995660+00:00 TX 01 03 00 20 00 02 C5 C1
2026-07-24T17:37:21.003663+00:00 RX 01 03 04 00 00 01 6A 7B 8C
2026-07-24T17:37:21.053674+00:00 TX 01 03 00 20 00 02 C5 C1
2026-07-24T17:37:21.061308+00:00 RX 01 03 04 00 00 01 6A 7B 8C
2026-07-24T17:37:21.112064+00:00 TX 01 03 00 20 00 02 C5 C1
2026-07-24T17:37:21.120066+00:00 RX 01 03 04 00 00 01 6B BA 4C
2026-07-24T17:37:21.170139+00:00 TX 01 03 00 20 00 02 C5 C1
2026-07-24T17:37:21.178140+00:00 RX 01 03 04 00 00 01 6B BA 4C
2026-07-24T17:37:21.229147+00:00 TX 01 03 00 20 00 02 C5 C1
2026-07-24T17:37:21.237149+00:00 RX 01 03 04 00 00 01 6C FB 8E
2026-07-24T17:37:21.287214+00:00 TX 01 03 00 20 00 02 C5 C1
2026-07-24T17:37:21.295551+00:00 RX 01 03 04 00 00 01 6D 3A 4E
2026-07-24T17:37:21.346182+00:00 TX 01 03 00 20 00 02 C5 C1
2026-07-24T17:37:21.354180+00:00 RX 01 03 04 00 00 01 6D 3A 4E
2026-07-24T17:37:21.404399+00:00 TX 01 03 00 20 00 02 C5 C1
2026-07-24T17:37:21.412901+00:00 RX 01 03 04 00 00 01 6E 7A 4F
2026-07-24T17:37:21.463088+00:00 TX 01 03 00 20 00 02 C5 C1
2026-07-24T17:37:21.471090+00:00 RX 01 03 04 00 00 01 6E 7A 4F
2026-07-24T17:37:21.521159+00:00 TX 01 03 00 20 00 02 C5 C1
2026-07-24T17:37:21.529158+00:00 RX 01 03 04 00 00 01 6F BB 8F
2026-07-24T17:37:21.579324+00:00 TX 01 03 00 20 00 02 C5 C1
2026-07-24T17:37:21.587323+00:00 RX 01 03 04 00 00 01 70 FA 47
2026-07-24T17:37:21.637848+00:00 TX 01 03 00 20 00 02 C5 C1
2026-07-24T17:37:21.645351+00:00 RX 01 03 04 00 00 01 70 FA 47
2026-07-24T17:37:21.696101+00:00 TX 01 03 00 20 00 02 C5 C1
2026-07-24T17:37:21.704187+00:00 RX 01 03 04 00 00 01 71 3B 87
2026-07-24T17:37:21.755200+00:00 TX 01 03 00 20 00 02 C5 C1
2026-07-24T17:37:21.764202+00:00 RX 01 03 04 00 00 01 71 3B 87
2026-07-24T17:37:21.814212+00:00 TX 01 03 00 20 00 02 C5 C1
2026-07-24T17:37:21.822214+00:00 RX 01 03 04 00 00 01 72 7B 86
2026-07-24T17:37:21.872730+00:00 TX 01 03 00 20 00 02 C5 C1
2026-07-24T17:37:21.880732+00:00 RX 01 03 04 00 00 01 73 BA 46
2026-07-24T17:37:21.931700+00:00 TX 01 03 00 20 00 02 C5 C1
2026-07-24T17:37:21.939702+00:00 RX 01 03 04 00 00 01 73 BA 46
2026-07-24T17:37:21.989976+00:00 TX 01 03 00 20 00 02 C5 C1
2026-07-24T17:37:21.997974+00:00 RX 01 03 04 00 00 01 74 FB 84
2026-07-24T17:37:22.048512+00:00 TX 01 03 00 20 00 02 C5 C1
2026-07-24T17:37:22.056514+00:00 RX 01 03 04 00 00 01 74 FB 84
2026-07-24T17:37:22.106523+00:00 TX 01 03 00 20 00 02 C5 C1
2026-07-24T17:37:22.114530+00:00 RX 01 03 04 00 00 01 75 3A 44
2026-07-24T17:37:22.165006+00:00 TX 01 03 00 20 00 02 C5 C1
2026-07-24T17:37:22.172808+00:00 RX 01 03 04 00 00 01 76 7A 45
2026-07-24T17:37:22.223985+00:00 TX 01 03 00 20 00 02 C5 C1
2026-07-24T17:37:22.230983+00:00 RX 01 03 04 00 00 01 76 7A 45
2026-07-24T17:37:22.281021+00:00 TX 01 03 00 20 00 02 C5 C1
2026-07-24T17:37:22.289023+00:00 RX 01 03 04 00 00 01 77 BB 85
2026-07-24T17:37:22.339532+00:00 TX 01 03 00 20 00 02 C5 C1
2026-07-24T17:37:22.347533+00:00 RX 01 03 04 00 00 01 77 BB 85
2026-07-24T17:37:22.398040+00:00 TX 01 03 00 20 00 02 C5 C1
2026-07-24T17:37:22.406041+00:00 RX 01 03 04 00 00 01 78 FB 81
2026-07-24T17:37:22.456055+00:00 TX 01 03 00 20 00 02 C5 C1
2026-07-24T17:37:22.465057+00:00 RX 01 03 04 00 00 01 79 3A 41
2026-07-24T17:37:22.515615+00:00 TX 01 03 00 20 00 02 C5 C1
2026-07-24T17:37:22.524617+00:00 RX 01 03 04 00 00 01 79 3A 41
2026-07-24T17:37:22.575127+00:00 TX 01 03 00 20 00 02 C5 C1
2026-07-24T17:37:22.583142+00:00 RX 01 03 04 00 00 01 7A 7A 40
2026-07-24T17:37:22.634158+00:00 TX 01 03 00 20 00 02 C5 C1
2026-07-24T17:37:22.642160+00:00 RX 01 03 04 00 00 01 7A 7A 40
2026-07-24T17:37:22.693195+00:00 TX 01 03 00 20 00 02 C5 C1
2026-07-24T17:37:22.701195+00:00 RX 01 03 04 00 00 01 7B BB 80
2026-07-24T17:37:22.751705+00:00 TX 01 03 00 20 00 02 C5 C1
2026-07-24T17:37:22.759210+00:00 RX 01 03 04 00 00 01 7C FA 42
2026-07-24T17:37:22.809716+00:00 TX 01 03 00 20 00 02 C5 C1
2026-07-24T17:37:22.817220+00:00 RX 01 03 04 00 00 01 7C FA 42
2026-07-24T17:37:22.867730+00:00 TX 01 03 00 20 00 02 C5 C1
2026-07-24T17:37:22.875731+00:00 RX 01 03 04 00 00 01 7D 3B 82
2026-07-24T17:37:22.926243+00:00 TX 01 03 00 20 00 02 C5 C1
2026-07-24T17:37:22.934244+00:00 RX 01 03 04 00 00 01 7D 3B 82
2026-07-24T17:37:22.984753+00:00 TX 01 03 00 20 00 02 C5 C1
2026-07-24T17:37:22.992756+00:00 RX 01 03 04 00 00 01 7E 7B 83
2026-07-24T17:37:23.042962+00:00 TX 01 03 00 20 00 02 C5 C1
2026-07-24T17:37:23.050464+00:00 RX 01 03 04 00 00 01 7F BA 43
2026-07-24T17:37:23.100473+00:00 TX 01 03 00 20 00 02 C5 C1
2026-07-24T17:37:23.108474+00:00 RX 01 03 04 00 00 01 7F BA 43
2026-07-24T17:37:23.159026+00:00 TX 01 03 00 20 00 02 C5 C1
2026-07-24T17:37:23.167025+00:00 RX 01 03 04 00 00 01 80 FA 03
2026-07-24T17:37:23.217036+00:00 TX 01 03 00 20 00 02 C5 C1
2026-07-24T17:37:23.225037+00:00 RX 01 03 04 00 00 01 80 FA 03
2026-07-24T17:37:23.275071+00:00 TX 01 03 00 20 00 02 C5 C1
2026-07-24T17:37:23.284073+00:00 RX 01 03 04 00 00 01 81 3B C3
2026-07-24T17:37:23.334584+00:00 TX 01 03 00 20 00 02 C5 C1
2026-07-24T17:37:23.343586+00:00 RX 01 03 04 00 00 01 81 3B C3
2026-07-24T17:37:23.394095+00:00 TX 01 03 00 20 00 02 C5 C1
2026-07-24T17:37:23.403094+00:00 RX 01 03 04 00 00 01 82 7B C2
2026-07-24T17:37:23.453106+00:00 TX 01 03 00 20 00 02 C5 C1
2026-07-24T17:37:23.461108+00:00 RX 01 03 04 00 00 01 83 BA 02
2026-07-24T17:37:23.511694+00:00 TX 01 03 00 20 00 02 C5 C1
2026-07-24T17:37:23.519203+00:00 RX 01 03 04 00 00 01 83 BA 02
2026-07-24T17:37:23.569211+00:00 TX 01 03 00 20 00 02 C5 C1
2026-07-24T17:37:23.577213+00:00 RX 01 03 04 00 00 01 84 FB C0
2026-07-24T17:37:23.627259+00:00 TX 01 03 00 20 00 02 C5 C1
2026-07-24T17:37:23.636288+00:00 RX 01 03 04 00 00 01 84 FB C0
2026-07-24T17:37:23.687037+00:00 TX 01 03 00 20 00 02 C5 C1
2026-07-24T17:37:23.695040+00:00 RX 01 03 04 00 00 01 85 3A 00
2026-07-24T17:37:23.745546+00:00 TX 01 03 00 20 00 02 C5 C1
2026-07-24T17:37:23.754051+00:00 RX 01 03 04 00 00 01 86 7A 01
2026-07-24T17:37:23.804556+00:00 TX 01 03 00 20 00 02 C5 C1
2026-07-24T17:37:23.812558+00:00 RX 01 03 04 00 00 01 86 7A 01
2026-07-24T17:37:23.863071+00:00 TX 01 03 00 20 00 02 C5 C1
2026-07-24T17:37:23.871073+00:00 RX 01 03 04 00 00 01 87 BB C1
2026-07-24T17:37:23.921582+00:00 TX 01 03 00 20 00 02 C5 C1
2026-07-24T17:37:23.929584+00:00 RX 01 03 04 00 00 01 87 BB C1
2026-07-24T17:37:23.979593+00:00 TX 01 03 00 20 00 02 C5 C1
2026-07-24T17:37:23.987096+00:00 RX 01 03 04 00 00 01 88 FB C5
2026-07-24T17:37:24.037604+00:00 TX 01 03 00 20 00 02 C5 C1
2026-07-24T17:37:24.044605+00:00 RX 01 03 04 00 00 01 89 3A 05
2026-07-24T17:37:24.095119+00:00 TX 01 03 00 20 00 02 C5 C1
2026-07-24T17:37:24.103117+00:00 RX 01 03 04 00 00 01 89 3A 05
2026-07-24T17:37:24.154211+00:00 TX 01 03 00 20 00 02 C5 C1
2026-07-24T17:37:24.163212+00:00 RX 01 03 04 00 00 01 8A 7A 04
2026-07-24T17:37:24.213720+00:00 TX 01 03 00 20 00 02 C5 C1
2026-07-24T17:37:24.221223+00:00 RX 01 03 04 00 00 01 8A 7A 04
2026-07-24T17:37:24.271256+00:00 TX 01 03 00 20 00 02 C5 C1
2026-07-24T17:37:24.278254+00:00 RX 01 03 04 00 00 01 8B BB C4
2026-07-24T17:37:24.330196+00:00 TX 01 03 00 20 00 02 C5 C1
2026-07-24T17:37:24.338197+00:00 RX 01 03 04 00 00 01 8C FA 06
2026-07-24T17:37:24.388392+00:00 TX 01 03 00 20 00 02 C5 C1
2026-07-24T17:37:24.396391+00:00 RX 01 03 04 00 00 01 8C FA 06
2026-07-24T17:37:24.446457+00:00 TX 01 03 00 20 00 02 C5 C1
2026-07-24T17:37:24.454455+00:00 RX 01 03 04 00 00 01 8D 3B C6
2026-07-24T17:37:24.504971+00:00 TX 01 03 00 20 00 02 C5 C1
2026-07-24T17:37:24.512972+00:00 RX 01 03 04 00 00 01 8D 3B C6
2026-07-24T17:37:24.563485+00:00 TX 01 03 00 20 00 02 C5 C1
2026-07-24T17:37:24.571483+00:00 RX 01 03 04 00 00 01 8E 7B C7
2026-07-24T17:37:24.621996+00:00 TX 01 03 00 20 00 02 C5 C1
2026-07-24T17:37:24.629125+00:00 RX 01 03 04 00 00 01 8F BA 07
2026-07-24T17:37:24.680826+00:00 TX 01 03 00 20 00 02 C5 C1
2026-07-24T17:37:24.687827+00:00 RX 01 03 04 00 00 01 8F BA 07
2026-07-24T17:37:24.739337+00:00 TX 01 03 00 20 00 02 C5 C1
2026-07-24T17:37:24.747339+00:00 RX 01 03 04 00 00 01 90 FB CF
2026-07-24T17:37:24.797353+00:00 TX 01 03 00 20 00 02 C5 C1
2026-07-24T17:37:24.806352+00:00 RX 01 03 04 00 00 01 90 FB CF
2026-07-24T17:37:24.856363+00:00 TX 01 03 00 20 00 02 C5 C1
2026-07-24T17:37:24.865365+00:00 RX 01 03 04 00 00 01 91 3A 0F
2026-07-24T17:37:24.915379+00:00 TX 01 03 00 20 00 02 C5 C1
2026-07-24T17:37:24.923882+00:00 RX 01 03 04 00 00 01 92 7A 0E
2026-07-24T17:37:24.974581+00:00 TX 01 03 00 20 00 02 C5 C1
2026-07-24T17:37:24.983089+00:00 RX 01 03 04 00 00 01 92 7A 0E
2026-07-24T17:37:25.033136+00:00 TX 01 03 00 20 00 02 C5 C1
2026-07-24T17:37:25.041138+00:00 RX 01 03 04 00 00 01 93 BB CE
2026-07-24T17:37:25.091651+00:00 TX 01 03 00 20 00 02 C5 C1
2026-07-24T17:37:25.099649+00:00 RX 01 03 04 00 00 01 93 BB CE
2026-07-24T17:37:25.150216+00:00 TX 01 03 00 20 00 02 C5 C1
2026-07-24T17:37:25.158217+00:00 RX 01 03 04 00 00 01 94 FA 0C
2026-07-24T17:37:25.209051+00:00 TX 01 03 00 20 00 02 C5 C1
2026-07-24T17:37:25.217053+00:00 RX 01 03 04 00 00 01 95 3B CC
2026-07-24T17:37:25.267066+00:00 TX 01 03 00 20 00 02 C5 C1
2026-07-24T17:37:25.275592+00:00 RX 01 03 04 00 00 01 95 3B CC
