2026-07-25T06:03:22.760612+00:00 TX 01 03 00 00 00 20 44 12
2026-07-25T06:03:22.805619+00:00 RX 01 03 40 00 00 00 00 00 03 00 00 00 03 00 00 00 00 00 00 00 00 00 00 00 00 00 00 00 01 00 00 01 00 05 0A 00 00 00 00 00 00 00 00 00 00 00 00 00 00 00 00 00 00 00 00 00 00 00 00 FF FF 51 A2 FF FF 51 A2 BE D2
2026-07-25T06:03:22.807620+00:00 TX 01 03 00 20 00 1B 04 0B
2026-07-25T06:03:22.846129+00:00 RX 01 03 36 00 00 01 19 02 59 67 47 00 00 00 00 00 00 00 00 00 00 00 00 00 03 00 04 00 00 00 00 00 00 00 02 00 00 00 01 00 01 00 00 00 02 00 00 00 00 00 00 00 00 00 00 00 00 78 3C
2026-07-25T06:03:22.848130+00:00 TX 01 03 01 C0 00 05 84 09
2026-07-25T06:03:22.860132+00:00 RX 01 03 0A 00 02 00 00 00 00 00 00 00 00 3D D6
2026-07-25T06:03:22.862133+00:00 TX 01 03 01 03 00 01 75 F6
2026-07-25T06:03:22.868648+00:00 RX 01 03 02 00 00 B8 44
2026-07-25T06:03:22.870649+00:00 TX 01 03 00 20 00 02 C5 C1
2026-07-25T06:03:22.879652+00:00 RX 01 03 04 00 00 01 1A 7A 68
2026-07-25T06:03:22.930162+00:00 TX 01 03 00 20 00 02 C5 C1
2026-07-25T06:03:22.938661+00:00 RX 01 03 04 00 00 01 1A 7A 68
2026-07-25T06:03:22.989256+00:00 TX 01 03 00 20 00 02 C5 C1
2026-07-25T06:03:22.997258+00:00 RX 01 03 04 00 00 01 1B BB A8
2026-07-25T06:03:23.048266+00:00 TX 01 03 00 20 00 02 C5 C1
2026-07-25T06:03:23.056268+00:00 RX 01 03 04 00 00 01 1C FA 6A
2026-07-25T06:03:23.106777+00:00 TX 01 03 00 20 00 02 C5 C1
2026-07-25T06:03:23.114779+00:00 RX 01 03 04 00 00 01 1C FA 6A
2026-07-25T06:03:23.165290+00:00 TX 01 03 00 20 00 02 C5 C1
2026-07-25T06:03:23.173293+00:00 RX 01 03 04 00 00 01 1D 3B AA
2026-07-25T06:03:23.223800+00:00 TX 01 03 00 20 00 02 C5 C1
2026-07-25T06:03:23.231801+00:00 RX 01 03 04 00 00 01 1D 3B AA
2026-07-25T06:03:23.282313+00:00 TX 01 03 00 20 00 02 C5 C1
2026-07-25T06:03:23.290815+00:00 RX 01 03 04 00 00 01 1E 7B AB
2026-07-25T06:03:23.341398+00:00 TX 01 03 00 20 00 02 C5 C1
2026-07-25T06:03:23.349400+00:00 RX 01 03 04 00 00 01 1F BA 6B
2026-07-25T06:03:23.399521+00:00 TX 01 03 00 20 00 02 C5 C1
2026-07-25T06:03:23.407519+00:00 RX 01 03 04 00 00 01 1F BA 6B
2026-07-25T06:03:23.457530+00:00 TX 01 03 00 20 00 02 C5 C1
2026-07-25T06:03:23.465532+00:00 RX 01 03 04 00 00 01 20 FA 7B
2026-07-25T06:03:23.515565+00:00 TX 01 03 00 20 00 02 C5 C1
2026-07-25T06:03:23.523564+00:00 RX 01 03 04 00 00 01 20 FA 7B
2026-07-25T06:03:23.574077+00:00 TX 01 03 00 20 00 02 C5 C1
2026-07-25T06:03:23.582079+00:00 RX 01 03 04 00 00 01 21 3B BB
2026-07-25T06:03:23.632586+00:00 TX 01 03 00 20 00 02 C5 C1
2026-07-25T06:03:23.641090+00:00 RX 01 03 04 00 00 01 22 7B BA
2026-07-25T06:03:23.691599+00:00 TX 01 03 00 20 00 02 C5 C1
2026-07-25T06:03:23.699601+00:00 RX 01 03 04 00 00 01 22 7B BA
2026-07-25T06:03:23.749610+00:00 TX 01 03 00 20 00 02 C5 C1
2026-07-25T06:03:23.757612+00:00 RX 01 03 04 00 00 01 23 BA 7A
2026-07-25T06:03:23.808620+00:00 TX 01 03 00 20 00 02 C5 C1
2026-07-25T06:03:23.816622+00:00 RX 01 03 04 00 00 01 23 BA 7A
2026-07-25T06:03:23.866760+00:00 TX 01 03 00 20 00 02 C5 C1
2026-07-25T06:03:23.874758+00:00 RX 01 03 04 00 00 01 24 FB B8
2026-07-25T06:03:23.925406+00:00 TX 01 03 00 20 00 02 C5 C1
2026-07-25T06:03:23.933408+00:00 RX 01 03 04 00 00 01 25 3A 78
2026-07-25T06:03:23.984419+00:00 TX 01 03 00 20 00 02 C5 C1
2026-07-25T06:03:23.992421+00:00 RX 01 03 04 00 00 01 25 3A 78
2026-07-25T06:03:24.042942+00:00 TX 01 03 00 20 00 02 C5 C1
2026-07-25T06:03:24.050944+00:00 RX 01 03 04 00 00 01 26 7A 79
2026-07-25T06:03:24.101470+00:00 TX 01 03 00 20 00 02 C5 C1
2026-07-25T06:03:24.109974+00:00 RX 01 03 04 00 00 01 26 7A 79
2026-07-25T06:03:24.160483+00:00 TX 01 03 00 20 00 02 C5 C1
2026-07-25T06:03:24.168485+00:00 RX 01 03 04 00 00 01 27 BB B9
2026-07-25T06:03:24.219493+00:00 TX 01 03 00 20 00 02 C5 C1
2026-07-25T06:03:24.227993+00:00 RX 01 03 04 00 00 01 28 FB BD
2026-07-25T06:03:24.278503+00:00 TX 01 03 00 20 00 02 C5 C1
2026-07-25T06:03:24.286006+00:00 RX 01 03 04 00 00 01 28 FB BD
2026-07-25T06:03:24.337014+00:00 TX 01 03 00 20 00 02 C5 C1
2026-07-25T06:03:24.344518+00:00 RX 01 03 04 00 00 01 29 3A 7D
2026-07-25T06:03:24.396393+00:00 TX 01 03 00 20 00 02 C5 C1
2026-07-25T06:03:24.404395+00:00 RX 01 03 04 00 00 01 29 3A 7D
2026-07-25T06:03:24.455402+00:00 TX 01 03 00 20 00 02 C5 C1
2026-07-25T06:03:24.463404+00:00 RX 01 03 04 00 00 01 2A 7A 7C
2026-07-25T06:03:24.514429+00:00 TX 01 03 00 20 00 02 C5 C1
2026-07-25T06:03:24.522430+00:00 RX 01 03 04 00 00 01 2B BB BC
2026-07-25T06:03:24.572441+00:00 TX 01 03 00 20 00 02 C5 C1
2026-07-25T06:03:24.580443+00:00 RX 01 03 04 00 00 01 2B BB BC
2026-07-25T06:03:24.630698+00:00 TX 01 03 00 20 00 02 C5 C1
2026-07-25T06:03:24.639700+00:00 RX 01 03 04 00 00 01 2C FA 7E
2026-07-25T06:03:24.689712+00:00 TX 01 03 00 20 00 02 C5 C1
2026-07-25T06:03:24.698714+00:00 RX 01 03 04 00 00 01 2C FA 7E
2026-07-25T06:03:24.748725+00:00 TX 01 03 00 20 00 02 C5 C1
2026-07-25T06:03:24.757727+00:00 RX 01 03 04 00 00 01 2D 3B BE
2026-07-25T06:03:24.807736+00:00 TX 01 03 00 20 00 02 C5 C1
2026-07-25T06:03:24.815737+00:00 RX 01 03 04 00 00 01 2E 7B BF
2026-07-25T06:03:24.865782+00:00 TX 01 03 00 20 00 02 C5 C1
2026-07-25T06:03:24.873330+00:00 RX 01 03 04 00 00 01 2E 7B BF
2026-07-25T06:03:24.923428+00:00 TX 01 03 00 20 00 02 C5 C1
2026-07-25T06:03:24.931426+00:00 RX 01 03 04 00 00 01 2F BA 7F
2026-07-25T06:03:24.981438+00:00 TX 01 03 00 20 00 02 C5 C1
2026-07-25T06:03:24.989440+00:00 RX 01 03 04 00 00 01 2F BA 7F
2026-07-25T06:03:25.039950+00:00 TX 01 03 00 20 00 02 C5 C1
2026-07-25T06:03:25.048456+00:00 RX 01 03 04 00 00 01 30 FB B7
2026-07-25T06:03:25.098967+00:00 TX 01 03 00 20 00 02 C5 C1
2026-07-25T06:03:25.106969+00:00 RX 01 03 04 00 00 01 31 3A 77
2026-07-25T06:03:25.157303+00:00 TX 01 03 00 20 00 02 C5 C1
2026-07-25T06:03:25.166030+00:00 RX 01 03 04 00 00 01 31 3A 77
2026-07-25T06:03:25.216252+00:00 TX 01 03 00 20 00 02 C5 C1
2026-07-25T06:03:25.224754+00:00 RX 01 03 04 00 00 01 32 7A 76
2026-07-25T06:03:25.275261+00:00 TX 01 03 00 20 00 02 C5 C1
2026-07-25T06:03:25.283263+00:00 RX 01 03 04 00 00 01 32 7A 76
2026-07-25T06:03:25.333972+00:00 TX 01 03 00 20 00 02 C5 C1
2026-07-25T06:03:25.341974+00:00 RX 01 03 04 00 00 01 33 BB B6
2026-07-25T06:03:25.392549+00:00 TX 01 03 00 20 00 02 C5 C1
2026-07-25T06:03:25.400551+00:00 RX 01 03 04 00 00 01 33 BB B6
2026-07-25T06:03:25.450560+00:00 TX 01 03 00 20 00 02 C5 C1
2026-07-25T06:03:25.458562+00:00 RX 01 03 04 00 00 01 34 FA 74
2026-07-25T06:03:25.510141+00:00 TX 01 03 00 20 00 02 C5 C1
2026-07-25T06:03:25.518143+00:00 RX 01 03 04 00 00 01 35 3B B4
2026-07-25T06:03:25.568652+00:00 TX 01 03 00 20 00 02 C5 C1
2026-07-25T06:03:25.577654+00:00 RX 01 03 04 00 00 01 35 3B B4
2026-07-25T06:03:25.628165+00:00 TX 01 03 00 20 00 02 C5 C1
2026-07-25T06:03:25.636164+00:00 RX 01 03 04 00 00 01 36 7B B5
2026-07-25T06:03:25.686674+00:00 TX 01 03 00 20 00 02 C5 C1
2026-07-25T06:03:25.695177+00:00 RX 01 03 04 00 00 01 36 7B B5
2026-07-25T06:03:25.745211+00:00 TX 01 03 00 20 00 02 C5 C1
2026-07-25T06:03:25.752725+00:00 RX 01 03 04 00 00 01 37 BA 75
2026-07-25T06:03:25.802737+00:00 TX 01 03 00 20 00 02 C5 C1
2026-07-25T06:03:25.810736+00:00 RX 01 03 04 00 00 01 38 FA 71
2026-07-25T06:03:25.860845+00:00 TX 01 03 00 20 00 02 C5 C1
2026-07-25T06:03:25.869363+00:00 RX 01 03 04 00 00 01 38 FA 71
2026-07-25T06:03:25.919872+00:00 TX 01 03 00 20 00 02 C5 C1
2026-07-25T06:03:25.927874+00:00 RX 01 03 04 00 00 01 39 3B B1
2026-07-25T06:03:25.978503+00:00 TX 01 03 00 20 00 02 C5 C1
2026-07-25T06:03:25.986505+00:00 RX 01 03 04 00 00 01 39 3B B1
2026-07-25T06:03:26.037013+00:00 TX 01 03 00 20 00 02 C5 C1
2026-07-25T06:03:26.045015+00:00 RX 01 03 04 00 00 01 3A 7B B0
2026-07-25T06:03:26.095026+00:00 TX 01 03 00 20 00 02 C5 C1
2026-07-25T06:03:26.103027+00:00 RX 01 03 04 00 00 01 3B BA 70
2026-07-25T06:03:26.153537+00:00 TX 01 03 00 20 00 02 C5 C1
2026-07-25T06:03:26.161539+00:00 RX 01 03 04 00 00 01 3B BA 70
2026-07-25T06:03:26.212337+00:00 TX 01 03 00 20 00 02 C5 C1
2026-07-25T06:03:26.220339+00:00 RX 01 03 04 00 00 01 3C FB B2
2026-07-25T06:03:26.270350+00:00 TX 01 03 00 20 00 02 C5 C1
2026-07-25T06:03:26.279348+00:00 RX 01 03 04 00 00 01 3C FB B2
2026-07-25T06:03:26.329861+00:00 TX 01 03 00 20 00 02 C5 C1
2026-07-25T06:03:26.338860+00:00 RX 01 03 04 00 00 01 3D 3A 72
2026-07-25T06:03:26.389461+00:00 TX 01 03 00 20 00 02 C5 C1
2026-07-25T06:03:26.398463+00:00 RX 01 03 04 00 00 01 3E 7A 73
2026-07-25T06:03:26.449472+00:00 TX 01 03 00 20 00 02 C5 C1
2026-07-25T06:03:26.457471+00:00 RX 01 03 04 00 00 01 3E 7A 73
2026-07-25T06:03:26.508498+00:00 TX 01 03 00 20 00 02 C5 C1
2026-07-25T06:03:26.516500+00:00 RX 01 03 04 00 00 01 3F BB B3
2026-07-25T06:03:26.567010+00:00 TX 01 03 00 20 00 02 C5 C1
2026-07-25T06:03:26.574011+00:00 RX 01 03 04 00 00 01 3F BB B3
2026-07-25T06:03:26.625020+00:00 TX 01 03 00 20 00 02 C5 C1
2026-07-25T06:03:26.632524+00:00 RX 01 03 04 00 00 01 40 FA 53
2026-07-25T06:03:26.683030+00:00 TX 01 03 00 20 00 02 C5 C1
2026-07-25T06:03:26.690535+00:00 RX 01 03 04 00 00 01 41 3B 93
2026-07-25T06:03:26.740566+00:00 TX 01 03 00 20 00 02 C5 C1
2026-07-25T06:03:26.748569+00:00 RX 01 03 04 00 00 01 41 3B 93
2026-07-25T06:03:26.799080+00:00 TX 01 03 00 20 00 02 C5 C1
2026-07-25T06:03:26.807081+00:00 RX 01 03 04 00 00 01 42 7B 92
2026-07-25T06:03:26.857107+00:00 TX 01 03 00 20 00 02 C5 C1
2026-07-25T06:03:26.865109+00:00 RX 01 03 04 00 00 01 42 7B 92
2026-07-25T06:03:26.916380+00:00 TX 01 03 00 20 00 02 C5 C1
2026-07-25T06:03:26.924382+00:00 RX 01 03 04 00 00 01 43 BA 52
2026-07-25T06:03:26.974425+00:00 TX 01 03 00 20 00 02 C5 C1
2026-07-25T06:03:26.982428+00:00 RX 01 03 04 00 00 01 44 FB 90
2026-07-25T06:03:27.032445+00:00 TX 01 03 00 20 00 02 C5 C1
2026-07-25T06:03:27.040444+00:00 RX 01 03 04 00 00 01 44 FB 90
2026-07-25T06:03:27.091458+00:00 TX 01 03 00 20 00 02 C5 C1
2026-07-25T06:03:27.099457+00:00 RX 01 03 04 00 00 01 45 3A 50
2026-07-25T06:03:27.149466+00:00 TX 01 03 00 20 00 02 C5 C1
2026-07-25T06:03:27.157970+00:00 RX 01 03 04 00 00 01 45 3A 50
2026-07-25T06:03:27.208981+00:00 TX 01 03 00 20 00 02 C5 C1
2026-07-25T06:03:27.216981+00:00 RX 01 03 04 00 00 01 46 7A 51
2026-07-25T06:03:27.268669+00:00 TX 01 03 00 20 00 02 C5 C1
2026-07-25T06:03:27.277668+00:00 RX 01 03 04 00 00 01 47 BB 91
2026-07-25T06:03:27.328181+00:00 TX 01 03 00 20 00 02 C5 C1
2026-07-25T06:03:27.336183+00:00 RX 01 03 04 00 00 01 47 BB 91
2026-07-25T06:03:27.386801+00:00 TX 01 03 00 20 00 02 C5 C1
2026-07-25T06:03:27.394803+00:00 RX 01 03 04 00 00 01 48 FB 95
2026-07-25T06:03:27.445310+00:00 TX 01 03 00 20 00 02 C5 C1
2026-07-25T06:03:27.453816+00:00 RX 01 03 04 00 00 01 48 FB 95
2026-07-25T06:03:27.503850+00:00 TX 01 03 00 20 00 02 C5 C1
2026-07-25T06:03:27.511852+00:00 RX 01 03 04 00 00 01 49 3A 55
2026-07-25T06:03:27.562362+00:00 TX 01 03 00 20 00 02 C5 C1
2026-07-25T06:03:27.570364+00:00 RX 01 03 04 00 00 01 4A 7A 54
2026-07-25T06:03:27.620372+00:00 TX 01 03 00 20 00 02 C5 C1
2026-07-25T06:03:27.628875+00:00 RX 01 03 04 00 00 01 4A 7A 54
2026-07-25T06:03:27.679383+00:00 TX 01 03 00 20 00 02 C5 C1
2026-07-25T06:03:27.687385+00:00 RX 01 03 04 00 00 01 4B BB 94
2026-07-25T06:03:27.737911+00:00 TX 01 03 00 20 00 02 C5 C1
2026-07-25T06:03:27.745910+00:00 RX 01 03 04 00 00 01 4B BB 94
2026-07-25T06:03:27.796430+00:00 TX 01 03 00 20 00 02 C5 C1
2026-07-25T06:03:27.804432+00:00 RX 01 03 04 00 00 01 4C FA 56
2026-07-25T06:03:27.854500+00:00 TX 01 03 00 20 00 02 C5 C1
2026-07-25T06:03:27.863005+00:00 RX 01 03 04 00 00 01 4D 3B 96
2026-07-25T06:03:27.913535+00:00 TX 01 03 00 20 00 02 C5 C1
2026-07-25T06:03:27.921537+00:00 RX 01 03 04 00 00 01 4D 3B 96
2026-07-25T06:03:27.972242+00:00 TX 01 03 00 20 00 02 C5 C1
2026-07-25T06:03:27.980243+00:00 RX 01 03 04 00 00 01 4E 7B 97
2026-07-25T06:03:28.030753+00:00 TX 01 03 00 20 00 02 C5 C1
2026-07-25T06:03:28.039756+00:00 RX 01 03 04 00 00 01 4E 7B 97
2026-07-25T06:03:28.090263+00:00 TX 01 03 00 20 00 02 C5 C1
2026-07-25T06:03:28.098767+00:00 RX 01 03 04 00 00 01 4F BA 57
2026-07-25T06:03:28.148776+00:00 TX 01 03 00 20 00 02 C5 C1
2026-07-25T06:03:28.157279+00:00 RX 01 03 04 00 00 01 50 FB 9F
2026-07-25T06:03:28.208291+00:00 TX 01 03 00 20 00 02 C5 C1
2026-07-25T06:03:28.217289+00:00 RX 01 03 04 00 00 01 50 FB 9F
2026-07-25T06:03:28.267300+00:00 TX 01 03 00 20 00 02 C5 C1
2026-07-25T06:03:28.275302+00:00 RX 01 03 04 00 00 01 51 3A 5F
2026-07-25T06:03:28.325819+00:00 TX 01 03 00 20 00 02 C5 C1
2026-07-25T06:03:28.334347+00:00 RX 01 03 04 00 00 01 51 3A 5F
2026-07-25T06:03:28.384930+00:00 TX 01 03 00 20 00 02 C5 C1
2026-07-25T06:03:28.391932+00:00 RX 01 03 04 00 00 01 52 7A 5E
2026-07-25T06:03:28.443438+00:00 TX 01 03 00 20 00 02 C5 C1
2026-07-25T06:03:28.451440+00:00 RX 01 03 04 00 00 01 53 BB 9E
2026-07-25T06:03:28.501451+00:00 TX 01 03 00 20 00 02 C5 C1
2026-07-25T06:03:28.508979+00:00 RX 01 03 04 00 00 01 53 BB 9E
2026-07-25T06:03:28.560492+00:00 TX 01 03 00 20 00 02 C5 C1
2026-07-25T06:03:28.568493+00:00 RX 01 03 04 00 00 01 54 FA 5C
2026-07-25T06:03:28.618503+00:00 TX 01 03 00 20 00 02 C5 C1
2026-07-25T06:03:28.626505+00:00 RX 01 03 04 00 00 01 54 FA 5C
2026-07-25T06:03:28.676516+00:00 TX 01 03 00 20 00 02 C5 C1
2026-07-25T06:03:28.684515+00:00 RX 01 03 04 00 00 01 55 3B 9C
