2026-07-25T06:18:22.466101+00:00 TX 01 03 00 00 00 20 44 12
2026-07-25T06:18:22.510608+00:00 RX 01 03 40 00 00 00 00 00 03 00 00 00 03 00 00 00 00 00 00 00 00 00 00 00 00 00 00 00 01 00 00 01 00 05 0A 00 00 00 00 00 00 00 00 00 00 00 00 00 00 00 00 00 00 00 00 00 00 00 00 FF FF 59 28 FF FF 59 28 A0 22
2026-07-25T06:18:22.513609+00:00 TX 01 03 00 20 00 1B 04 0B
2026-07-25T06:18:22.552614+00:00 RX 01 03 36 00 00 01 D8 00 00 B8 2F 00 00 00 00 00 00 00 00 00 00 00 00 00 03 00 04 00 00 00 00 00 00 00 01 00 00 00 01 00 00 00 00 00 01 00 00 00 01 00 00 00 00 00 00 00 00 6B 4F
2026-07-25T06:18:22.554615+00:00 TX 01 03 01 C0 00 05 84 09
2026-07-25T06:18:22.567119+00:00 RX 01 03 0A 00 02 00 01 00 00 00 01 00 00 7C D6
2026-07-25T06:18:22.569633+00:00 TX 01 03 01 03 00 01 75 F6
2026-07-25T06:18:22.575635+00:00 RX 01 03 02 00 00 B8 44
2026-07-25T06:18:22.578635+00:00 TX 01 03 00 20 00 02 C5 C1
2026-07-25T06:18:22.587139+00:00 RX 01 03 04 00 00 01 D9 3A 39
2026-07-25T06:18:22.637151+00:00 TX 01 03 00 20 00 02 C5 C1
2026-07-25T06:18:22.645153+00:00 RX 01 03 04 00 00 01 DA 7A 38
2026-07-25T06:18:22.695662+00:00 TX 01 03 00 20 00 02 C5 C1
2026-07-25T06:18:22.704661+00:00 RX 01 03 04 00 00 01 DA 7A 38
2026-07-25T06:18:22.755677+00:00 TX 01 03 00 20 00 02 C5 C1
2026-07-25T06:18:22.763690+00:00 RX 01 03 04 00 00 01 DB BB F8
2026-07-25T06:18:22.814744+00:00 TX 01 03 00 20 00 02 C5 C1
2026-07-25T06:18:22.822746+00:00 RX 01 03 04 00 00 01 DC FA 3A
2026-07-25T06:18:22.874254+00:00 TX 01 03 00 20 00 02 C5 C1
2026-07-25T06:18:22.882256+00:00 RX 01 03 04 00 00 01 DC FA 3A
2026-07-25T06:18:22.933770+00:00 TX 01 03 00 20 00 02 C5 C1
2026-07-25T06:18:22.942770+00:00 RX 01 03 04 00 00 01 DD 3B FA
2026-07-25T06:18:22.993512+00:00 TX 01 03 00 20 00 02 C5 C1
2026-07-25T06:18:23.002514+00:00 RX 01 03 04 00 00 01 DD 3B FA
2026-07-25T06:18:23.052589+00:00 TX 01 03 00 20 00 02 C5 C1
2026-07-25T06:18:23.060591+00:00 RX 01 03 04 00 00 01 DE 7B FB
2026-07-25T06:18:23.111101+00:00 TX 01 03 00 20 00 02 C5 C1
2026-07-25T06:18:23.118882+00:00 RX 01 03 04 00 00 01 DF BA 3B
2026-07-25T06:18:23.169893+00:00 TX 01 03 00 20 00 02 C5 C1
2026-07-25T06:18:23.177888+00:00 RX 01 03 04 00 00 01 DF BA 3B
2026-07-25T06:18:23.228402+00:00 TX 01 03 00 20 00 02 C5 C1
2026-07-25T06:18:23.236404+00:00 RX 01 03 04 00 00 01 E0 FA 2B
2026-07-25T06:18:23.286413+00:00 TX 01 03 00 20 00 02 C5 C1
2026-07-25T06:18:23.294917+00:00 RX 01 03 04 00 00 01 E0 FA 2B
2026-07-25T06:18:23.344960+00:00 TX 01 03 00 20 00 02 C5 C1
2026-07-25T06:18:23.352962+00:00 RX 01 03 04 00 00 01 E1 3B EB
2026-07-25T06:18:23.404113+00:00 TX 01 03 00 20 00 02 C5 C1
2026-07-25T06:18:23.412114+00:00 RX 01 03 04 00 00 01 E2 7B EA
2026-07-25T06:18:23.462772+00:00 TX 01 03 00 20 00 02 C5 C1
2026-07-25T06:18:23.470774+00:00 RX 01 03 04 00 00 01 E2 7B EA
2026-07-25T06:18:23.521285+00:00 TX 01 03 00 20 00 02 C5 C1
2026-07-25T06:18:23.529286+00:00 RX 01 03 04 00 00 01 E3 BA 2A
2026-07-25T06:18:23.579297+00:00 TX 01 03 00 20 00 02 C5 C1
2026-07-25T06:18:23.587299+00:00 RX 01 03 04 00 00 01 E3 BA 2A
2026-07-25T06:18:23.637812+00:00 TX 01 03 00 20 00 02 C5 C1
2026-07-25T06:18:23.645814+00:00 RX 01 03 04 00 00 01 E4 FB E8
2026-07-25T06:18:23.696324+00:00 TX 01 03 00 20 00 02 C5 C1
2026-07-25T06:18:23.704323+00:00 RX 01 03 04 00 00 01 E5 3A 28
2026-07-25T06:18:23.754369+00:00 TX 01 03 00 20 00 02 C5 C1
2026-07-25T06:18:23.762873+00:00 RX 01 03 04 00 00 01 E5 3A 28
2026-07-25T06:18:23.812884+00:00 TX 01 03 00 20 00 02 C5 C1
2026-07-25T06:18:23.820887+00:00 RX 01 03 04 00 00 01 E6 7A 29
2026-07-25T06:18:23.871035+00:00 TX 01 03 00 20 00 02 C5 C1
2026-07-25T06:18:23.878935+00:00 RX 01 03 04 00 00 01 E6 7A 29
2026-07-25T06:18:23.929545+00:00 TX 01 03 00 20 00 02 C5 C1
2026-07-25T06:18:23.937547+00:00 RX 01 03 04 00 00 01 E7 BB E9
2026-07-25T06:18:23.987651+00:00 TX 01 03 00 20 00 02 C5 C1
2026-07-25T06:18:23.996155+00:00 RX 01 03 04 00 00 01 E7 BB E9
2026-07-25T06:18:24.046415+00:00 TX 01 03 00 20 00 02 C5 C1
2026-07-25T06:18:24.054362+00:00 RX 01 03 04 00 00 01 E8 FB ED
2026-07-25T06:18:24.105872+00:00 TX 01 03 00 20 00 02 C5 C1
2026-07-25T06:18:24.113374+00:00 RX 01 03 04 00 00 01 E9 3A 2D
2026-07-25T06:18:24.163884+00:00 TX 01 03 00 20 00 02 C5 C1
2026-07-25T06:18:24.172391+00:00 RX 01 03 04 00 00 01 E9 3A 2D
2026-07-25T06:18:24.222897+00:00 TX 01 03 00 20 00 02 C5 C1
2026-07-25T06:18:24.230899+00:00 RX 01 03 04 00 00 01 EA 7A 2C
2026-07-25T06:18:24.281414+00:00 TX 01 03 00 20 00 02 C5 C1
2026-07-25T06:18:24.289416+00:00 RX 01 03 04 00 00 01 EA 7A 2C
2026-07-25T06:18:24.339590+00:00 TX 01 03 00 20 00 02 C5 C1
2026-07-25T06:18:24.347589+00:00 RX 01 03 04 00 00 01 EB BB EC
2026-07-25T06:18:24.397705+00:00 TX 01 03 00 20 00 02 C5 C1
2026-07-25T06:18:24.405707+00:00 RX 01 03 04 00 00 01 EC FA 2E
2026-07-25T06:18:24.456234+00:00 TX 01 03 00 20 00 02 C5 C1
2026-07-25T06:18:24.464235+00:00 RX 01 03 04 00 00 01 EC FA 2E
2026-07-25T06:18:24.514746+00:00 TX 01 03 00 20 00 02 C5 C1
2026-07-25T06:18:24.523748+00:00 RX 01 03 04 00 00 01 ED 3B EE
2026-07-25T06:18:24.573759+00:00 TX 01 03 00 20 00 02 C5 C1
2026-07-25T06:18:24.582760+00:00 RX 01 03 04 00 00 01 ED 3B EE
2026-07-25T06:18:24.633271+00:00 TX 01 03 00 20 00 02 C5 C1
2026-07-25T06:18:24.641275+00:00 RX 01 03 04 00 00 01 EE 7B EF
2026-07-25T06:18:24.691283+00:00 TX 01 03 00 20 00 02 C5 C1
2026-07-25T06:18:24.699784+00:00 RX 01 03 04 00 00 01 EF BA 2F
2026-07-25T06:18:24.750429+00:00 TX 01 03 00 20 00 02 C5 C1
2026-07-25T06:18:24.758945+00:00 RX 01 03 04 00 00 01 EF BA 2F
2026-07-25T06:18:24.809447+00:00 TX 01 03 00 20 00 02 C5 C1
2026-07-25T06:18:24.817449+00:00 RX 01 03 04 00 00 01 F0 FB E7
2026-07-25T06:18:24.867493+00:00 TX 01 03 00 20 00 02 C5 C1
2026-07-25T06:18:24.875495+00:00 RX 01 03 04 00 00 01 F0 FB E7
2026-07-25T06:18:24.926005+00:00 TX 01 03 00 20 00 02 C5 C1
2026-07-25T06:18:24.934006+00:00 RX 01 03 04 00 00 01 F1 3A 27
2026-07-25T06:18:24.984527+00:00 TX 01 03 00 20 00 02 C5 C1
2026-07-25T06:18:24.993530+00:00 RX 01 03 04 00 00 01 F2 7A 26
2026-07-25T06:18:25.044067+00:00 TX 01 03 00 20 00 02 C5 C1
2026-07-25T06:18:25.052069+00:00 RX 01 03 04 00 00 01 F2 7A 26
2026-07-25T06:18:25.102625+00:00 TX 01 03 00 20 00 02 C5 C1
2026-07-25T06:18:25.110627+00:00 RX 01 03 04 00 00 01 F3 BB E6
2026-07-25T06:18:25.161152+00:00 TX 01 03 00 20 00 02 C5 C1
2026-07-25T06:18:25.169154+00:00 RX 01 03 04 00 00 01 F3 BB E6
2026-07-25T06:18:25.219169+00:00 TX 01 03 00 20 00 02 C5 C1
2026-07-25T06:18:25.227171+00:00 RX 01 03 04 00 00 01 F4 FA 24
2026-07-25T06:18:25.277182+00:00 TX 01 03 00 20 00 02 C5 C1
2026-07-25T06:18:25.285181+00:00 RX 01 03 04 00 00 01 F5 3B E4
2026-07-25T06:18:25.336695+00:00 TX 01 03 00 20 00 02 C5 C1
2026-07-25T06:18:25.344693+00:00 RX 01 03 04 00 00 01 F5 3B E4
2026-07-25T06:18:25.394757+00:00 TX 01 03 00 20 00 02 C5 C1
2026-07-25T06:18:25.403757+00:00 RX 01 03 04 00 00 01 F6 7B E5
2026-07-25T06:18:25.454290+00:00 TX 01 03 00 20 00 02 C5 C1
2026-07-25T06:18:25.462293+00:00 RX 01 03 04 00 00 01 F6 7B E5
2026-07-25T06:18:25.513803+00:00 TX 01 03 00 20 00 02 C5 C1
2026-07-25T06:18:25.522804+00:00 RX 01 03 04 00 00 01 F7 BA 25
2026-07-25T06:18:25.573330+00:00 TX 01 03 00 20 00 02 C5 C1
2026-07-25T06:18:25.581831+00:00 RX 01 03 04 00 00 01 F8 FA 21
2026-07-25T06:18:25.633344+00:00 TX 01 03 00 20 00 02 C5 C1
2026-07-25T06:18:25.642346+00:00 RX 01 03 04 00 00 01 F8 FA 21
2026-07-25T06:18:25.692354+00:00 TX 01 03 00 20 00 02 C5 C1
2026-07-25T06:18:25.699855+00:00 RX 01 03 04 00 00 01 F9 3B E1
2026-07-25T06:18:25.750365+00:00 TX 01 03 00 20 00 02 C5 C1
2026-07-25T06:18:25.758870+00:00 RX 01 03 04 00 00 01 F9 3B E1
2026-07-25T06:18:25.808878+00:00 TX 01 03 00 20 00 02 C5 C1
2026-07-25T06:18:25.816880+00:00 RX 01 03 04 00 00 01 FA 7B E0
2026-07-25T06:18:25.867454+00:00 TX 01 03 00 20 00 02 C5 C1
2026-07-25T06:18:25.875456+00:00 RX 01 03 04 00 00 01 FB BA 20
2026-07-25T06:18:25.925966+00:00 TX 01 03 00 20 00 02 C5 C1
2026-07-25T06:18:25.933967+00:00 RX 01 03 04 00 00 01 FB BA 20
2026-07-25T06:18:25.984002+00:00 TX 01 03 00 20 00 02 C5 C1
2026-07-25T06:18:25.992004+00:00 RX 01 03 04 00 00 01 FC FB E2
2026-07-25T06:18:26.042061+00:00 TX 01 03 00 20 00 02 C5 C1
2026-07-25T06:18:26.050064+00:00 RX 01 03 04 00 00 01 FC FB E2
2026-07-25T06:18:26.100595+00:00 TX 01 03 00 20 00 02 C5 C1
2026-07-25T06:18:26.108597+00:00 RX 01 03 04 00 00 01 FD 3A 22
2026-07-25T06:18:26.158604+00:00 TX 01 03 00 20 00 02 C5 C1
2026-07-25T06:18:26.166105+00:00 RX 01 03 04 00 00 01 FE 7A 23
2026-07-25T06:18:26.217115+00:00 TX 01 03 00 20 00 02 C5 C1
2026-07-25T06:18:26.225117+00:00 RX 01 03 04 00 00 01 FE 7A 23
2026-07-25T06:18:26.275129+00:00 TX 01 03 00 20 00 02 C5 C1
2026-07-25T06:18:26.285127+00:00 RX 01 03 04 00 00 01 FF BB E3
2026-07-25T06:18:26.335640+00:00 TX 01 03 00 20 00 02 C5 C1
2026-07-25T06:18:26.343641+00:00 RX 01 03 04 00 00 01 FF BB E3
2026-07-25T06:18:26.395252+00:00 TX 01 03 00 20 00 02 C5 C1
2026-07-25T06:18:26.403756+00:00 RX 01 03 04 00 00 02 00 FB 53
2026-07-25T06:18:26.454286+00:00 TX 01 03 00 20 00 02 C5 C1
2026-07-25T06:18:26.463288+00:00 RX 01 03 04 00 00 02 01 3A 93
2026-07-25T06:18:26.513799+00:00 TX 01 03 00 20 00 02 C5 C1
2026-07-25T06:18:26.522801+00:00 RX 01 03 04 00 00 02 01 3A 93
2026-07-25T06:18:26.572810+00:00 TX 01 03 00 20 00 02 C5 C1
2026-07-25T06:18:26.580314+00:00 RX 01 03 04 00 00 02 02 7A 92
2026-07-25T06:18:26.631490+00:00 TX 01 03 00 20 00 02 C5 C1
2026-07-25T06:18:26.639492+00:00 RX 01 03 04 00 00 02 02 7A 92
2026-07-25T06:18:26.689500+00:00 TX 01 03 00 20 00 02 C5 C1
2026-07-25T06:18:26.697503+00:00 RX 01 03 04 00 00 02 03 BB 52
2026-07-25T06:18:26.748041+00:00 TX 01 03 00 20 00 02 C5 C1
2026-07-25T06:18:26.755043+00:00 RX 01 03 04 00 00 02 04 FA 90
2026-07-25T06:18:26.806554+00:00 TX 01 03 00 20 00 02 C5 C1
2026-07-25T06:18:26.814057+00:00 RX 01 03 04 00 00 02 04 FA 90
2026-07-25T06:18:26.865564+00:00 TX 01 03 00 20 00 02 C5 C1
2026-07-25T06:18:26.873566+00:00 RX 01 03 04 00 00 02 05 3B 50
2026-07-25T06:18:26.924169+00:00 TX 01 03 00 20 00 02 C5 C1
2026-07-25T06:18:26.932171+00:00 RX 01 03 04 00 00 02 05 3B 50
2026-07-25T06:18:26.982828+00:00 TX 01 03 00 20 00 02 C5 C1
2026-07-25T06:18:26.990827+00:00 RX 01 03 04 00 00 02 06 7B 51
2026-07-25T06:18:27.041234+00:00 TX 01 03 00 20 00 02 C5 C1
2026-07-25T06:18:27.049236+00:00 RX 01 03 04 00 00 02 07 BA 91
2026-07-25T06:18:27.100245+00:00 TX 01 03 00 20 00 02 C5 C1
2026-07-25T06:18:27.108286+00:00 RX 01 03 04 00 00 02 07 BA 91
2026-07-25T06:18:27.158291+00:00 TX 01 03 00 20 00 02 C5 C1
2026-07-25T06:18:27.165792+00:00 RX 01 03 04 00 00 02 08 FA 95
2026-07-25T06:18:27.215803+00:00 TX 01 03 00 20 00 02 C5 C1
2026-07-25T06:18:27.223805+00:00 RX 01 03 04 00 00 02 08 FA 95
2026-07-25T06:18:27.273817+00:00 TX 01 03 00 20 00 02 C5 C1
2026-07-25T06:18:27.282818+00:00 RX 01 03 04 00 00 02 09 3B 55
2026-07-25T06:18:27.333328+00:00 TX 01 03 00 20 00 02 C5 C1
2026-07-25T06:18:27.342330+00:00 RX 01 03 04 00 00 02 0A 7B 54
2026-07-25T06:18:27.393328+00:00 TX 01 03 00 20 00 02 C5 C1
2026-07-25T06:18:27.401330+00:00 RX 01 03 04 00 00 02 0A 7B 54
2026-07-25T06:18:27.451377+00:00 TX 01 03 00 20 00 02 C5 C1
2026-07-25T06:18:27.459379+00:00 RX 01 03 04 00 00 02 0B BA 94
2026-07-25T06:18:27.509890+00:00 TX 01 03 00 20 00 02 C5 C1
2026-07-25T06:18:27.517891+00:00 RX 01 03 04 00 00 02 0B BA 94
2026-07-25T06:18:27.568402+00:00 TX 01 03 00 20 00 02 C5 C1
2026-07-25T06:18:27.576403+00:00 RX 01 03 04 00 00 02 0C FB 56
2026-07-25T06:18:27.626417+00:00 TX 01 03 00 20 00 02 C5 C1
2026-07-25T06:18:27.634418+00:00 RX 01 03 04 00 00 02 0D 3A 96
2026-07-25T06:18:27.684430+00:00 TX 01 03 00 20 00 02 C5 C1
2026-07-25T06:18:27.693429+00:00 RX 01 03 04 00 00 02 0D 3A 96
2026-07-25T06:18:27.743517+00:00 TX 01 03 00 20 00 02 C5 C1
2026-07-25T06:18:27.752394+00:00 RX 01 03 04 00 00 02 0E 7A 97
2026-07-25T06:18:27.802405+00:00 TX 01 03 00 20 00 02 C5 C1
2026-07-25T06:18:27.810909+00:00 RX 01 03 04 00 00 02 0E 7A 97
2026-07-25T06:18:27.861419+00:00 TX 01 03 00 20 00 02 C5 C1
2026-07-25T06:18:27.869421+00:00 RX 01 03 04 00 00 02 0F BB 57
2026-07-25T06:18:27.919932+00:00 TX 01 03 00 20 00 02 C5 C1
2026-07-25T06:18:27.927934+00:00 RX 01 03 04 00 00 02 10 FA 9F
2026-07-25T06:18:27.978039+00:00 TX 01 03 00 20 00 02 C5 C1
2026-07-25T06:18:27.985543+00:00 RX 01 03 04 00 00 02 10 FA 9F
2026-07-25T06:18:28.036615+00:00 TX 01 03 00 20 00 02 C5 C1
2026-07-25T06:18:28.044614+00:00 RX 01 03 04 00 00 02 11 3B 5F
2026-07-25T06:18:28.096147+00:00 TX 01 03 00 20 00 02 C5 C1
2026-07-25T06:18:28.105328+00:00 RX 01 03 04 00 00 02 11 3B 5F
2026-07-25T06:18:28.155845+00:00 TX 01 03 00 20 00 02 C5 C1
2026-07-25T06:18:28.164348+00:00 RX 01 03 04 00 00 02 12 7B 5E
2026-07-25T06:18:28.214359+00:00 TX 01 03 00 20 00 02 C5 C1
2026-07-25T06:18:28.223360+00:00 RX 01 03 04 00 00 02 13 BA 9E
2026-07-25T06:18:28.273373+00:00 TX 01 03 00 20 00 02 C5 C1
2026-07-25T06:18:28.282970+00:00 RX 01 03 04 00 00 02 13 BA 9E
2026-07-25T06:18:28.333250+00:00 TX 01 03 00 20 00 02 C5 C1
2026-07-25T06:18:28.341335+00:00 RX 01 03 04 00 00 02 14 FB 5C
2026-07-25T06:18:28.391974+00:00 TX 01 03 00 20 00 02 C5 C1
2026-07-25T06:18:28.399976+00:00 RX 01 03 04 00 00 02 14 FB 5C
