2026-07-24T17:51:30.627470+00:00 TX 01 03 00 00 00 20 44 12
2026-07-24T17:51:30.672169+00:00 RX 01 03 40 00 00 00 00 00 03 00 00 00 03 00 00 00 00 00 00 00 00 00 00 00 00 00 00 00 01 00 00 01 00 05 0A 00 00 00 00 00 00 00 00 00 00 00 00 00 00 00 00 00 00 00 00 00 00 00 00 FF FF 56 E1 FF FF 56 E1 B9 6B
2026-07-24T17:51:30.675171+00:00 TX 01 03 00 20 00 02 C5 C1
2026-07-24T17:51:30.683172+00:00 RX 01 03 04 00 00 0C 45 3E C0
2026-07-24T17:51:30.686173+00:00 TX 01 03 01 C4 00 01 C4 0B
2026-07-24T17:51:30.692171+00:00 RX 01 03 02 00 00 B8 44
2026-07-24T17:51:30.742681+00:00 TX 01 03 00 00 00 20 44 12
2026-07-24T17:51:30.787710+00:00 RX 01 03 40 00 00 00 00 00 03 00 00 00 03 00 00 00 00 00 00 00 00 00 00 00 00 00 00 00 01 00 00 01 00 05 0A 00 00 00 00 00 00 00 00 00 00 00 00 00 00 00 00 00 00 00 00 00 00 00 00 FF FF 56 79 FF FF 56 79 99 1D
2026-07-24T17:51:30.788711+00:00 TX 01 03 00 20 00 02 C5 C1
2026-07-24T17:51:30.796713+00:00 RX 01 03 04 00 00 0C 46 7E C1
2026-07-24T17:51:30.799218+00:00 TX 01 03 01 C4 00 01 C4 0B
2026-07-24T17:51:30.805662+00:00 RX 01 03 02 00 00 B8 44
2026-07-24T17:51:30.856223+00:00 TX 01 03 00 00 00 20 44 12
2026-07-24T17:51:30.901231+00:00 RX 01 03 40 00 00 00 00 00 03 00 00 00 03 00 00 00 00 00 00 00 00 00 00 00 00 00 00 00 01 00 00 01 00 05 0A 00 00 00 00 00 00 00 00 00 00 00 00 00 00 00 00 00 00 00 00 00 00 00 00 FF FF 55 4A FF FF 55 4A DD CF
2026-07-24T17:51:30.903231+00:00 TX 01 03 00 20 00 02 C5 C1
2026-07-24T17:51:30.910734+00:00 RX 01 03 04 00 00 0C 47 BF 01
2026-07-24T17:51:30.912734+00:00 TX 01 03 01 C4 00 01 C4 0B
2026-07-24T17:51:30.919736+00:00 RX 01 03 02 00 00 B8 44
2026-07-24T17:51:30.970245+00:00 TX 01 03 00 00 00 20 44 12
2026-07-24T17:51:31.015266+00:00 RX 01 03 40 00 00 00 00 00 03 00 00 00 03 00 00 00 00 00 00 00 00 00 00 00 00 00 00 00 01 00 00 01 00 05 0A 00 00 00 00 00 00 00 00 00 00 00 00 00 00 00 00 00 00 00 00 00 00 00 00 FF FF 53 6A FF FF 53 6A 5E 16
2026-07-24T17:51:31.017267+00:00 TX 01 03 00 20 00 02 C5 C1
2026-07-24T17:51:31.025269+00:00 RX 01 03 04 00 00 0C 48 FF 05
2026-07-24T17:51:31.027269+00:00 TX 01 03 01 C4 00 01 C4 0B
2026-07-24T17:51:31.033271+00:00 RX 01 03 02 00 00 B8 44
2026-07-24T17:51:31.083282+00:00 TX 01 03 00 00 00 20 44 12
2026-07-24T17:51:31.128334+00:00 RX 01 03 40 00 00 00 00 00 03 00 00 00 03 00 00 00 00 00 00 00 00 00 00 00 00 00 00 00 01 00 00 01 00 05 0A 00 00 00 00 00 00 00 00 00 00 00 00 00 00 00 00 00 00 00 00 00 00 00 00 FF FF 54 9F FF FF 54 9F 11 C3
2026-07-24T17:51:31.130334+00:00 TX 01 03 00 20 00 02 C5 C1
2026-07-24T17:51:31.138336+00:00 RX 01 03 04 00 00 0C 4A 7E C4
2026-07-24T17:51:31.140337+00:00 TX 01 03 01 C4 00 01 C4 0B
2026-07-24T17:51:31.146399+00:00 RX 01 03 02 00 00 B8 44
2026-07-24T17:51:31.196951+00:00 TX 01 03 00 00 00 20 44 12
2026-07-24T17:51:31.241981+00:00 RX 01 03 40 00 00 00 00 00 03 00 00 00 03 00 00 00 00 00 00 00 00 00 00 00 00 00 00 00 01 00 00 01 00 05 0A 00 00 00 00 00 00 00 00 00 00 00 00 00 00 00 00 00 00 00 00 00 00 00 00 FF FF 55 5C FF FF 55 5C 15 C2
2026-07-24T17:51:31.244981+00:00 TX 01 03 00 20 00 02 C5 C1
2026-07-24T17:51:31.252925+00:00 RX 01 03 04 00 00 0C 4B BF 04
2026-07-24T17:51:31.255191+00:00 TX 01 03 01 C4 00 01 C4 0B
2026-07-24T17:51:31.262189+00:00 RX 01 03 02 00 00 B8 44
2026-07-24T17:51:31.313046+00:00 TX 01 03 00 00 00 20 44 12
2026-07-24T17:51:31.357755+00:00 RX 01 03 40 00 00 00 00 00 03 00 00 00 03 00 00 00 00 00 00 00 00 00 00 00 00 00 00 00 01 00 00 01 00 05 0A 00 00 00 00 00 00 00 00 00 00 00 00 00 00 00 00 00 00 00 00 00 00 00 00 FF FF 55 EC FF FF 55 EC 55 AC
2026-07-24T17:51:31.359756+00:00 TX 01 03 00 20 00 02 C5 C1
2026-07-24T17:51:31.367824+00:00 RX 01 03 04 00 00 0C 4C FE C6
2026-07-24T17:51:31.370005+00:00 TX 01 03 01 C4 00 01 C4 0B
2026-07-24T17:51:31.376515+00:00 RX 01 03 02 00 00 B8 44
2026-07-24T17:51:31.426864+00:00 TX 01 03 00 00 00 20 44 12
2026-07-24T17:51:31.471122+00:00 RX 01 03 40 00 00 00 00 00 03 00 00 00 03 00 00 00 00 00 00 00 00 00 00 00 00 00 00 00 01 00 00 01 00 05 0A 00 00 00 00 00 00 00 00 00 00 00 00 00 00 00 00 00 00 00 00 00 00 00 00 FF FF 57 00 FF FF 57 00 C5 74
2026-07-24T17:51:31.474123+00:00 TX 01 03 00 20 00 02 C5 C1
2026-07-24T17:51:31.482125+00:00 RX 01 03 04 00 00 0C 4D 3F 06
2026-07-24T17:51:31.485126+00:00 TX 01 03 01 C4 00 01 C4 0B
2026-07-24T17:51:31.491124+00:00 RX 01 03 02 00 00 B8 44
2026-07-24T17:51:31.542815+00:00 TX 01 03 00 00 00 20 44 12
2026-07-24T17:51:31.587482+00:00 RX 01 03 40 00 00 00 00 00 03 00 00 00 03 00 00 00 00 00 00 00 00 00 00 00 00 00 00 00 01 00 00 01 00 05 0A 00 00 00 00 00 00 00 00 00 00 00 00 00 00 00 00 00 00 00 00 00 00 00 00 FF FF 55 B9 FF FF 55 B9 99 9F
2026-07-24T17:51:31.590483+00:00 TX 01 03 00 20 00 02 C5 C1
2026-07-24T17:51:31.598485+00:00 RX 01 03 04 00 00 0C 4E 7F 07
2026-07-24T17:51:31.600991+00:00 TX 01 03 01 C4 00 01 C4 0B
2026-07-24T17:51:31.607050+00:00 RX 01 03 02 00 00 B8 44
2026-07-24T17:51:31.657099+00:00 TX 01 03 00 00 00 20 44 12
2026-07-24T17:51:31.701975+00:00 RX 01 03 40 00 00 00 00 00 03 00 00 00 03 00 00 00 00 00 00 00 00 00 00 00 00 00 00 00 01 00 00 01 00 05 0A 00 00 00 00 00 00 00 00 00 00 00 00 00 00 00 00 00 00 00 00 00 00 00 00 FF FF 56 79 FF FF 56 79 99 1D
2026-07-24T17:51:31.703976+00:00 TX 01 03 00 20 00 02 C5 C1
2026-07-24T17:51:31.711479+00:00 RX 01 03 04 00 00 0C 4F BE C7
2026-07-24T17:51:31.714480+00:00 TX 01 03 01 C4 00 01 C4 0B
2026-07-24T17:51:31.721481+00:00 RX 01 03 02 00 00 B8 44
2026-07-24T17:51:31.771652+00:00 TX 01 03 00 00 00 20 44 12
2026-07-24T17:51:31.816594+00:00 RX 01 03 40 00 00 00 00 00 03 00 00 00 03 00 00 00 00 00 00 00 00 00 00 00 00 00 00 00 01 00 00 01 00 05 0A 00 00 00 00 00 00 00 00 00 00 00 00 00 00 00 00 00 00 00 00 00 00 00 00 FF FF 55 A6 FF FF 55 A6 4D 95
2026-07-24T17:51:31.818595+00:00 TX 01 03 00 20 00 02 C5 C1
2026-07-24T17:51:31.826524+00:00 RX 01 03 04 00 00 0C 51 3E CF
2026-07-24T17:51:31.829521+00:00 TX 01 03 01 C4 00 01 C4 0B
2026-07-24T17:51:31.835523+00:00 RX 01 03 02 00 00 B8 44
2026-07-24T17:51:31.885535+00:00 TX 01 03 00 00 00 20 44 12
2026-07-24T17:51:31.930043+00:00 RX 01 03 40 00 00 00 00 00 03 00 00 00 03 00 00 00 00 00 00 00 00 00 00 00 00 00 00 00 01 00 00 01 00 05 0A 00 00 00 00 00 00 00 00 00 00 00 00 00 00 00 00 00 00 00 00 00 00 00 00 FF FF 55 5D FF FF 55 5D E9 C2
2026-07-24T17:51:31.933044+00:00 TX 01 03 00 20 00 02 C5 C1
2026-07-24T17:51:31.940045+00:00 RX 01 03 04 00 00 0C 52 7E CE
2026-07-24T17:51:31.943047+00:00 TX 01 03 01 C4 00 01 C4 0B
2026-07-24T17:51:31.949045+00:00 RX 01 03 02 00 00 B8 44
2026-07-24T17:51:32.000554+00:00 TX 01 03 00 00 00 20 44 12
2026-07-24T17:51:32.045579+00:00 RX 01 03 40 00 00 00 00 00 03 00 00 00 03 00 00 00 00 00 00 00 00 00 00 00 00 00 00 00 01 00 00 01 00 05 0A 00 00 00 00 00 00 00 00 00 00 00 00 00 00 00 00 00 00 00 00 00 00 00 00 FF FF 55 BB FF FF 55 BB 61 9E
2026-07-24T17:51:32.047580+00:00 TX 01 03 00 20 00 02 C5 C1
2026-07-24T17:51:32.055582+00:00 RX 01 03 04 00 00 0C 53 BF 0E
2026-07-24T17:51:32.057582+00:00 TX 01 03 01 C4 00 01 C4 0B
2026-07-24T17:51:32.064584+00:00 RX 01 03 02 00 00 B8 44
2026-07-24T17:51:32.115094+00:00 TX 01 03 00 00 00 20 44 12
2026-07-24T17:51:32.159219+00:00 RX 01 03 40 00 00 00 00 00 03 00 00 00 03 00 00 00 00 00 00 00 00 00 00 00 00 00 00 00 01 00 00 01 00 05 0A 00 00 00 00 00 00 00 00 00 00 00 00 00 00 00 00 00 00 00 00 00 00 00 00 FF FF 53 3F FF FF 53 3F 92 25
2026-07-24T17:51:32.162256+00:00 TX 01 03 00 20 00 02 C5 C1
2026-07-24T17:51:32.170158+00:00 RX 01 03 04 00 00 0C 54 FE CC
2026-07-24T17:51:32.172221+00:00 TX 01 03 01 C4 00 01 C4 0B
2026-07-24T17:51:32.178756+00:00 RX 01 03 02 00 00 B8 44
2026-07-24T17:51:32.228775+00:00 TX 01 03 00 00 00 20 44 12
2026-07-24T17:51:32.273483+00:00 RX 01 03 40 00 00 00 00 00 03 00 00 00 03 00 00 00 00 00 00 00 00 00 00 00 00 00 00 00 01 00 00 01 00 05 0A 00 00 00 00 00 00 00 00 00 00 00 00 00 00 00 00 00 00 00 00 00 00 00 00 FF FF 53 A1 FF FF 53 A1 BA 51
2026-07-24T17:51:32.275483+00:00 TX 01 03 00 20 00 02 C5 C1
2026-07-24T17:51:32.283485+00:00 RX 01 03 04 00 00 0C 55 3F 0C
2026-07-24T17:51:32.285485+00:00 TX 01 03 01 C4 00 01 C4 0B
2026-07-24T17:51:32.292486+00:00 RX 01 03 02 00 00 B8 44
2026-07-24T17:51:32.342998+00:00 TX 01 03 00 00 00 20 44 12
2026-07-24T17:51:32.387507+00:00 RX 01 03 40 00 00 00 00 00 03 00 00 00 03 00 00 00 00 00 00 00 00 00 00 00 00 00 00 00 01 00 00 01 00 05 0A 00 00 00 00 00 00 00 00 00 00 00 00 00 00 00 00 00 00 00 00 00 00 00 00 FF FF 55 81 FF FF 55 81 39 88
2026-07-24T17:51:32.390504+00:00 TX 01 03 00 20 00 02 C5 C1
2026-07-24T17:51:32.398506+00:00 RX 01 03 04 00 00 0C 56 7F 0D
2026-07-24T17:51:32.400507+00:00 TX 01 03 01 C4 00 01 C4 0B
2026-07-24T17:51:32.407009+00:00 RX 01 03 02 00 00 B8 44
2026-07-24T17:51:32.457523+00:00 TX 01 03 00 00 00 20 44 12
2026-07-24T17:51:32.502530+00:00 RX 01 03 40 00 00 00 00 00 03 00 00 00 03 00 00 00 00 00 00 00 00 00 00 00 00 00 00 00 01 00 00 01 00 05 0A 00 00 00 00 00 00 00 00 00 00 00 00 00 00 00 00 00 00 00 00 00 00 00 00 FF FF 57 D5 FF FF 57 D5 09 39
2026-07-24T17:51:32.505040+00:00 TX 01 03 00 20 00 02 C5 C1
2026-07-24T17:51:32.512547+00:00 RX 01 03 04 00 00 0C 58 FE C9
2026-07-24T17:51:32.515544+00:00 TX 01 03 01 C4 00 01 C4 0B
2026-07-24T17:51:32.522546+00:00 RX 01 03 02 00 00 B8 44
2026-07-24T17:51:32.572561+00:00 TX 01 03 00 00 00 20 44 12
2026-07-24T17:51:32.617074+00:00 RX 01 03 40 00 00 00 00 00 03 00 00 00 03 00 00 00 00 00 00 00 00 00 00 00 00 00 00 00 01 00 00 01 00 05 0A 00 00 00 00 00 00 00 00 00 00 00 00 00 00 00 00 00 00 00 00 00 00 00 00 FF FF 57 9A FF FF 57 9A 1D 03
2026-07-24T17:51:32.620074+00:00 TX 01 03 00 20 00 02 C5 C1
2026-07-24T17:51:32.627076+00:00 RX 01 03 04 00 00 0C 59 3F 09
2026-07-24T17:51:32.629116+00:00 TX 01 03 01 C4 00 01 C4 0B
2026-07-24T17:51:32.635115+00:00 RX 01 03 02 00 00 B8 44
2026-07-24T17:51:32.686126+00:00 TX 01 03 00 00 00 20 44 12
2026-07-24T17:51:32.730635+00:00 RX 01 03 40 00 00 00 00 00 03 00 00 00 03 00 00 00 00 00 00 00 00 00 00 00 00 00 00 00 01 00 00 01 00 05 0A 00 00 00 00 00 00 00 00 00 00 00 00 00 00 00 00 00 00 00 00 00 00 00 00 FF FF 55 F5 FF FF 55 F5 89 A4
2026-07-24T17:51:32.732636+00:00 TX 01 03 00 20 00 02 C5 C1
2026-07-24T17:51:32.739635+00:00 RX 01 03 04 00 00 0C 5A 7F 08
2026-07-24T17:51:32.741635+00:00 TX 01 03 01 C4 00 01 C4 0B
2026-07-24T17:51:32.747637+00:00 RX 01 03 02 00 00 B8 44
2026-07-24T17:51:32.798186+00:00 TX 01 03 00 00 00 20 44 12
2026-07-24T17:51:32.843199+00:00 RX 01 03 40 00 00 00 00 00 03 00 00 00 03 00 00 00 00 00 00 00 00 00 00 00 00 00 00 00 01 00 00 01 00 05 0A 00 00 00 00 00 00 00 00 00 00 00 00 00 00 00 00 00 00 00 00 00 00 00 00 FF FF 55 B1 FF FF 55 B1 79 98
2026-07-24T17:51:32.845199+00:00 TX 01 03 00 20 00 02 C5 C1
2026-07-24T17:51:32.853201+00:00 RX 01 03 04 00 00 0C 5B BE C8
2026-07-24T17:51:32.855202+00:00 TX 01 03 01 C4 00 01 C4 0B
2026-07-24T17:51:32.862203+00:00 RX 01 03 02 00 00 B8 44
2026-07-24T17:51:32.912212+00:00 TX 01 03 00 00 00 20 44 12
2026-07-24T17:51:32.956720+00:00 RX 01 03 40 00 00 00 00 00 03 00 00 00 03 00 00 00 00 00 00 00 00 00 00 00 00 00 00 00 01 00 00 01 00 05 0A 00 00 00 00 00 00 00 00 00 00 00 00 00 00 00 00 00 00 00 00 00 00 00 00 FF FF 55 DB FF FF 55 DB E1 BE
2026-07-24T17:51:32.958720+00:00 TX 01 03 00 20 00 02 C5 C1
2026-07-24T17:51:32.966741+00:00 RX 01 03 04 00 00 0C 5C FF 0A
2026-07-24T17:51:32.969739+00:00 TX 01 03 01 C4 00 01 C4 0B
2026-07-24T17:51:32.976750+00:00 RX 01 03 02 00 00 B8 44
2026-07-24T17:51:33.027714+00:00 TX 01 03 00 00 00 20 44 12
2026-07-24T17:51:33.072724+00:00 RX 01 03 40 00 00 00 00 00 03 00 00 00 03 00 00 00 00 00 00 00 00 00 00 00 00 00 00 00 01 00 00 01 00 05 0A 00 00 00 00 00 00 00 00 00 00 00 00 00 00 00 00 00 00 00 00 00 00 00 00 FF FF 56 C5 FF FF 56 C5 C9 77
2026-07-24T17:51:33.074925+00:00 TX 01 03 00 20 00 02 C5 C1
2026-07-24T17:51:33.083927+00:00 RX 01 03 04 00 00 0C 5D 3E CA
2026-07-24T17:51:33.085928+00:00 TX 01 03 01 C4 00 01 C4 0B
2026-07-24T17:51:33.091930+00:00 RX 01 03 02 00 00 B8 44
2026-07-24T17:51:33.142439+00:00 TX 01 03 00 00 00 20 44 12
2026-07-24T17:51:33.187084+00:00 RX 01 03 40 00 00 00 00 00 03 00 00 00 03 00 00 00 00 00 00 00 00 00 00 00 00 00 00 00 01 00 00 01 00 05 0A 00 00 00 00 00 00 00 00 00 00 00 00 00 00 00 00 00 00 00 00 00 00 00 00 FF FF 59 CF FF FF 59 CF D4 7E
2026-07-24T17:51:33.191083+00:00 TX 01 03 00 20 00 02 C5 C1
2026-07-24T17:51:33.199084+00:00 RX 01 03 04 00 00 0C 5F BF 0B
2026-07-24T17:51:33.201085+00:00 TX 01 03 01 C4 00 01 C4 0B
2026-07-24T17:51:33.207588+00:00 RX 01 03 02 00 00 B8 44
2026-07-24T17:51:33.257602+00:00 TX 01 03 00 00 00 20 44 12
2026-07-24T17:51:33.302316+00:00 RX 01 03 40 00 00 00 00 00 03 00 00 00 03 00 00 00 00 00 00 00 00 00 00 00 00 00 00 00 01 00 00 01 00 05 0A 00 00 00 00 00 00 00 00 00 00 00 00 00 00 00 00 00 00 00 00 00 00 00 00 FF FF 59 BE FF FF 59 BE 68 51
2026-07-24T17:51:33.304317+00:00 TX 01 03 00 20 00 02 C5 C1
2026-07-24T17:51:33.311319+00:00 RX 01 03 04 00 00 0C 60 FF 1B
2026-07-24T17:51:33.314319+00:00 TX 01 03 01 C4 00 01 C4 0B
2026-07-24T17:51:33.321822+00:00 RX 01 03 02 00 00 B8 44
2026-07-24T17:51:33.372332+00:00 TX 01 03 00 00 00 20 44 12
2026-07-24T17:51:33.417341+00:00 RX 01 03 40 00 00 00 00 00 03 00 00 00 03 00 00 00 00 00 00 00 00 00 00 00 00 00 00 00 01 00 00 01 00 05 0A 00 00 00 00 00 00 00 00 00 00 00 00 00 00 00 00 00 00 00 00 00 00 00 00 FF FF 5A 06 FF FF 5A 06 C8 FB
2026-07-24T17:51:33.419341+00:00 TX 01 03 00 20 00 02 C5 C1
2026-07-24T17:51:33.427343+00:00 RX 01 03 04 00 00 0C 61 3E DB
2026-07-24T17:51:33.429344+00:00 TX 01 03 01 C4 00 01 C4 0B
2026-07-24T17:51:33.435345+00:00 RX 01 03 02 00 00 B8 44
2026-07-24T17:51:33.486357+00:00 TX 01 03 00 00 00 20 44 12
2026-07-24T17:51:33.531873+00:00 RX 01 03 40 00 00 00 00 00 03 00 00 00 03 00 00 00 00 00 00 00 00 00 00 00 00 00 00 00 01 00 00 01 00 05 0A 00 00 00 00 00 00 00 00 00 00 00 00 00 00 00 00 00 00 00 00 00 00 00 00 FF FF 59 29 FF FF 59 29 5C 22
2026-07-24T17:51:33.534434+00:00 TX 01 03 00 20 00 02 C5 C1
2026-07-24T17:51:33.542436+00:00 RX 01 03 04 00 00 0C 62 7E DA
2026-07-24T17:51:33.544437+00:00 TX 01 03 01 C4 00 01 C4 0B
2026-07-24T17:51:33.551435+00:00 RX 01 03 02 00 00 B8 44
2026-07-24T17:51:33.601945+00:00 TX 01 03 00 00 00 20 44 12
2026-07-24T17:51:33.647071+00:00 RX 01 03 40 00 00 00 00 00 03 00 00 00 03 00 00 00 00 00 00 00 00 00 00 00 00 00 00 00 01 00 00 01 00 05 0A 00 00 00 00 00 00 00 00 00 00 00 00 00 00 00 00 00 00 00 00 00 00 00 00 FF FF 5A C4 FF FF 5A C4 30 BB
2026-07-24T17:51:33.649071+00:00 TX 01 03 00 20 00 02 C5 C1
2026-07-24T17:51:33.656073+00:00 RX 01 03 04 00 00 0C 63 BF 1A
2026-07-24T17:51:33.659074+00:00 TX 01 03 01 C4 00 01 C4 0B
2026-07-24T17:51:33.665600+00:00 RX 01 03 02 00 00 B8 44
2026-07-24T17:51:33.716583+00:00 TX 01 03 00 00 00 20 44 12
2026-07-24T17:51:33.761148+00:00 RX 01 03 40 00 00 00 00 00 03 00 00 00 03 00 00 00 00 00 00 00 00 00 00 00 00 00 00 00 01 00 00 01 00 05 0A 00 00 00 00 00 00 00 00 00 00 00 00 00 00 00 00 00 00 00 00 00 00 00 00 FF FF 5C 40 FF FF 5C 40 C3 00
2026-07-24T17:51:33.763149+00:00 TX 01 03 00 20 00 02 C5 C1
2026-07-24T17:51:33.770651+00:00 RX 01 03 04 00 00 0C 64 FE D8
2026-07-24T17:51:33.772652+00:00 TX 01 03 01 C4 00 01 C4 0B
2026-07-24T17:51:33.779653+00:00 RX 01 03 02 00 00 B8 44
2026-07-24T17:51:33.830211+00:00 TX 01 03 00 00 00 20 44 12
2026-07-24T17:51:33.875222+00:00 RX 01 03 40 00 00 00 00 00 03 00 00 00 03 00 00 00 00 00 00 00 00 00 00 00 00 00 00 00 01 00 00 01 00 05 0A 00 00 00 00 00 00 00 00 00 00 00 00 00 00 00 00 00 00 00 00 00 00 00 00 FF FF 59 73 FF FF 59 73 84 14
2026-07-24T17:51:33.877222+00:00 TX 01 03 00 20 00 02 C5 C1
2026-07-24T17:51:33.885224+00:00 RX 01 03 04 00 00 0C 65 3F 18
2026-07-24T17:51:33.887224+00:00 TX 01 03 01 C4 00 01 C4 0B
2026-07-24T17:51:33.893226+00:00 RX 01 03 02 00 00 B8 44
2026-07-24T17:51:33.944736+00:00 TX 01 03 00 00 00 20 44 12
2026-07-24T17:51:33.989325+00:00 RX 01 03 40 00 00 00 00 00 03 00 00 00 03 00 00 00 00 00 00 00 00 00 00 00 00 00 00 00 01 00 00 01 00 05 0A 00 00 00 00 00 00 00 00 00 00 00 00 00 00 00 00 00 00 00 00 00 00 00 00 FF FF 58 BB FF FF 58 BB 64 13
2026-07-24T17:51:33.992322+00:00 TX 01 03 00 20 00 02 C5 C1
2026-07-24T17:51:34.000325+00:00 RX 01 03 04 00 00 0C 67 BE D9
2026-07-24T17:51:34.003325+00:00 TX 01 03 01 C4 00 01 C4 0B
2026-07-24T17:51:34.009844+00:00 RX 01 03 02 00 00 B8 44
2026-07-24T17:51:34.059966+00:00 TX 01 03 00 00 00 20 44 12
2026-07-24T17:51:34.104974+00:00 RX 01 03 40 00 00 00 00 00 03 00 00 00 03 00 00 00 00 00 00 00 00 00 00 00 00 00 00 00 01 00 00 01 00 05 0A 00 00 00 00 00 00 00 00 00 00 00 00 00 00 00 00 00 00 00 00 00 00 00 00 FF FF 57 73 FF FF 57 73 81 5A
2026-07-24T17:51:34.106974+00:00 TX 01 03 00 20 00 02 C5 C1
2026-07-24T17:51:34.114489+00:00 RX 01 03 04 00 00 0C 68 FE DD
2026-07-24T17:51:34.116994+00:00 TX 01 03 01 C4 00 01 C4 0B
2026-07-24T17:51:34.122992+00:00 RX 01 03 02 00 00 B8 44
2026-07-24T17:51:34.174589+00:00 TX 01 03 00 00 00 20 44 12
2026-07-24T17:51:34.219156+00:00 RX 01 03 40 00 00 00 00 00 03 00 00 00 03 00 00 00 00 00 00 00 00 00 00 00 00 00 00 00 01 00 00 01 00 05 0A 00 00 00 00 00 00 00 00 00 00 00 00 00 00 00 00 00 00 00 00 00 00 00 00 FF FF 56 9F FF FF 56 9F 11 41
2026-07-24T17:51:34.221157+00:00 TX 01 03 00 20 00 02 C5 C1
2026-07-24T17:51:34.228662+00:00 RX 01 03 04 00 00 0C 69 3F 1D
2026-07-24T17:51:34.231661+00:00 TX 01 03 01 C4 00 01 C4 0B
2026-07-24T17:51:34.238661+00:00 RX 01 03 02 00 00 B8 44
2026-07-24T17:51:34.288673+00:00 TX 01 03 00 00 00 20 44 12
2026-07-24T17:51:34.333182+00:00 RX 01 03 40 00 00 00 00 00 03 00 00 00 03 00 00 00 00 00 00 00 00 00 00 00 00 00 00 00 01 00 00 01 00 05 0A 00 00 00 00 00 00 00 00 00 00 00 00 00 00 00 00 00 00 00 00 00 00 00 00 FF FF 55 CB FF FF 55 CB 21 B1
2026-07-24T17:51:34.335183+00:00 TX 01 03 00 20 00 02 C5 C1
2026-07-24T17:51:34.343184+00:00 RX 01 03 04 00 00 0C 6A 7F 1C
2026-07-24T17:51:34.347186+00:00 TX 01 03 01 C4 00 01 C4 0B
2026-07-24T17:51:34.354184+00:00 RX 01 03 02 00 00 B8 44
2026-07-24T17:51:34.404693+00:00 TX 01 03 00 00 00 20 44 12
2026-07-24T17:51:34.449706+00:00 RX 01 03 40 00 00 00 00 00 03 00 00 00 03 00 00 00 00 00 00 00 00 00 00 00 00 00 00 00 01 00 00 01 00 05 0A 00 00 00 00 00 00 00 00 00 00 00 00 00 00 00 00 00 00 00 00 00 00 00 00 FF FF 56 66 FF FF 56 66 4D 17
2026-07-24T17:51:34.451707+00:00 TX 01 03 00 20 00 02 C5 C1
2026-07-24T17:51:34.459708+00:00 RX 01 03 04 00 00 0C 6B BE DC
2026-07-24T17:51:34.461709+00:00 TX 01 03 01 C4 00 01 C4 0B
2026-07-24T17:51:34.467710+00:00 RX 01 03 02 00 00 B8 44
2026-07-24T17:51:34.517820+00:00 TX 01 03 00 00 00 20 44 12
2026-07-24T17:51:34.562331+00:00 RX 01 03 40 00 00 00 00 00 03 00 00 00 03 00 00 00 00 00 00 00 00 00 00 00 00 00 00 00 01 00 00 01 00 05 0A 00 00 00 00 00 00 00 00 00 00 00 00 00 00 00 00 00 00 00 00 00 00 00 00 FF FF 56 CD FF FF 56 CD 29 70
2026-07-24T17:51:34.564331+00:00 TX 01 03 00 20 00 02 C5 C1
2026-07-24T17:51:34.572835+00:00 RX 01 03 04 00 00 0C 6C FF 1E
2026-07-24T17:51:34.574835+00:00 TX 01 03 01 C4 00 01 C4 0B
2026-07-24T17:51:34.581837+00:00 RX 01 03 02 00 00 B8 44
2026-07-24T17:51:34.632438+00:00 TX 01 03 00 00 00 20 44 12
2026-07-24T17:51:34.677710+00:00 RX 01 03 40 00 00 00 00 00 03 00 00 00 03 00 00 00 00 00 00 00 00 00 00 00 00 00 00 00 01 00 00 01 00 05 0A 00 00 00 00 00 00 00 00 00 00 00 00 00 00 00 00 00 00 00 00 00 00 00 00 FF FF 56 C2 FF FF 56 C2 3D 75
2026-07-24T17:51:34.679711+00:00 TX 01 03 00 20 00 02 C5 C1
2026-07-24T17:51:34.687713+00:00 RX 01 03 04 00 00 0C 6E 7E DF
2026-07-24T17:51:34.689713+00:00 TX 01 03 01 C4 00 01 C4 0B
2026-07-24T17:51:34.696715+00:00 RX 01 03 02 00 00 B8 44
2026-07-24T17:51:34.746933+00:00 TX 01 03 00 00 00 20 44 12
2026-07-24T17:51:34.791953+00:00 RX 01 03 40 00 00 00 00 00 03 00 00 00 03 00 00 00 00 00 00 00 00 00 00 00 00 00 00 00 01 00 00 01 00 05 0A 00 00 00 00 00 00 00 00 00 00 00 00 00 00 00 00 00 00 00 00 00 00 00 00 FF FF 56 56 FF FF 56 56 0D 07
2026-07-24T17:51:34.794953+00:00 TX 01 03 00 20 00 02 C5 C1
2026-07-24T17:51:34.803111+00:00 RX 01 03 04 00 00 0C 6F BF 1F
2026-07-24T17:51:34.806112+00:00 TX 01 03 01 C4 00 01 C4 0B
2026-07-24T17:51:34.812615+00:00 RX 01 03 02 00 00 B8 44
2026-07-24T17:51:34.863128+00:00 TX 01 03 00 00 00 20 44 12
2026-07-24T17:51:34.908135+00:00 RX 01 03 40 00 00 00 00 00 03 00 00 00 03 00 00 00 00 00 00 00 00 00 00 00 00 00 00 00 01 00 00 01 00 05 0A 00 00 00 00 00 00 00 00 00 00 00 00 00 00 00 00 00 00 00 00 00 00 00 00 FF FF 54 4D FF FF 54 4D 29 8C
2026-07-24T17:51:34.910135+00:00 TX 01 03 00 20 00 02 C5 C1
2026-07-24T17:51:34.917137+00:00 RX 01 03 04 00 00 0C 70 FE D7
2026-07-24T17:51:34.919642+00:00 TX 01 03 01 C4 00 01 C4 0B
2026-07-24T17:51:34.926641+00:00 RX 01 03 02 00 00 B8 44
2026-07-24T17:51:34.976659+00:00 TX 01 03 00 00 00 20 44 12
2026-07-24T17:51:35.021226+00:00 RX 01 03 40 00 00 00 00 00 03 00 00 00 03 00 00 00 00 00 00 00 00 00 00 00 00 00 00 00 01 00 00 01 00 05 0A 00 00 00 00 00 00 00 00 00 00 00 00 00 00 00 00 00 00 00 00 00 00 00 00 FF FF 54 84 FF FF 54 84 35 CA
2026-07-24T17:51:35.023227+00:00 TX 01 03 00 20 00 02 C5 C1
2026-07-24T17:51:35.031228+00:00 RX 01 03 04 00 00 0C 71 3F 17
2026-07-24T17:51:35.033229+00:00 TX 01 03 01 C4 00 01 C4 0B
2026-07-24T17:51:35.039230+00:00 RX 01 03 02 00 00 B8 44
2026-07-24T17:51:35.089242+00:00 TX 01 03 00 00 00 20 44 12
2026-07-24T17:51:35.133750+00:00 RX 01 03 40 00 00 00 00 00 03 00 00 00 03 00 00 00 00 00 00 00 00 00 00 00 00 00 00 00 01 00 00 01 00 05 0A 00 00 00 00 00 00 00 00 00 00 00 00 00 00 00 00 00 00 00 00 00 00 00 00 FF FF 52 AC FF FF 52 AC 56 14
2026-07-24T17:51:35.135751+00:00 TX 01 03 00 20 00 02 C5 C1
2026-07-24T17:51:35.143753+00:00 RX 01 03 04 00 00 0C 72 7F 16
2026-07-24T17:51:35.146299+00:00 TX 01 03 01 C4 00 01 C4 0B
2026-07-24T17:51:35.153298+00:00 RX 01 03 02 00 00 B8 44
2026-07-24T17:51:35.203331+00:00 TX 01 03 00 00 00 20 44 12
2026-07-24T17:51:35.247345+00:00 RX 01 03 40 00 00 00 00 00 03 00 00 00 03 00 00 00 00 00 00 00 00 00 00 00 00 00 00 00 01 00 00 01 00 05 0A 00 00 00 00 00 00 00 00 00 00 00 00 00 00 00 00 00 00 00 00 00 00 00 00 FF FF 54 B8 FF FF 54 B8 65 DE
2026-07-24T17:51:35.250345+00:00 TX 01 03 00 20 00 02 C5 C1
2026-07-24T17:51:35.258347+00:00 RX 01 03 04 00 00 0C 73 BE D6
2026-07-24T17:51:35.260347+00:00 TX 01 03 01 C4 00 01 C4 0B
2026-07-24T17:51:35.266349+00:00 RX 01 03 02 00 00 B8 44
2026-07-24T17:51:35.317357+00:00 TX 01 03 00 00 00 20 44 12
2026-07-24T17:51:35.362865+00:00 RX 01 03 40 00 00 00 00 00 03 00 00 00 03 00 00 00 00 00 00 00 00 00 00 00 00 00 00 00 01 00 00 01 00 05 0A 00 00 00 00 00 00 00 00 00 00 00 00 00 00 00 00 00 00 00 00 00 00 00 00 FF FF 57 DE FF FF 57 DE ED 3F
2026-07-24T17:51:35.364866+00:00 TX 01 03 00 20 00 02 C5 C1
2026-07-24T17:51:35.372873+00:00 RX 01 03 04 00 00 0C 75 3E D4
2026-07-24T17:51:35.375374+00:00 TX 01 03 01 C4 00 01 C4 0B
2026-07-24T17:51:35.382376+00:00 RX 01 03 02 00 00 B8 44
2026-07-24T17:51:35.432393+00:00 TX 01 03 00 00 00 20 44 12
2026-07-24T17:51:35.477403+00:00 RX 01 03 40 00 00 00 00 00 03 00 00 00 03 00 00 00 00 00 00 00 00 00 00 00 00 00 00 00 01 00 00 01 00 05 0A 00 00 00 00 00 00 00 00 00 00 00 00 00 00 00 00 00 00 00 00 00 00 00 00 FF FF 58 A9 FF FF 58 A9 5C 1D
2026-07-24T17:51:35.479404+00:00 TX 01 03 00 20 00 02 C5 C1
2026-07-24T17:51:35.487406+00:00 RX 01 03 04 00 00 0C 76 7E D5
2026-07-24T17:51:35.490403+00:00 TX 01 03 01 C4 00 01 C4 0B
2026-07-24T17:51:35.496405+00:00 RX 01 03 02 00 00 B8 44
2026-07-24T17:51:35.547416+00:00 TX 01 03 00 00 00 20 44 12
2026-07-24T17:51:35.591925+00:00 RX 01 03 40 00 00 00 00 00 03 00 00 00 03 00 00 00 00 00 00 00 00 00 00 00 00 00 00 00 01 00 00 01 00 05 0A 00 00 00 00 00 00 00 00 00 00 00 00 00 00 00 00 00 00 00 00 00 00 00 00 FF FF 57 B8 FF FF 57 B8 65 1D
2026-07-24T17:51:35.594922+00:00 TX 01 03 00 20 00 02 C5 C1
2026-07-24T17:51:35.602924+00:00 RX 01 03 04 00 00 0C 77 BF 15
2026-07-24T17:51:35.605925+00:00 TX 01 03 01 C4 00 01 C4 0B
2026-07-24T17:51:35.612439+00:00 RX 01 03 02 00 00 B8 44
2026-07-24T17:51:35.662963+00:00 TX 01 03 00 00 00 20 44 12
2026-07-24T17:51:35.707970+00:00 RX 01 03 40 00 00 00 00 00 03 00 00 00 03 00 00 00 00 00 00 00 00 00 00 00 00 00 00 00 01 00 00 01 00 05 0A 00 00 00 00 00 00 00 00 00 00 00 00 00 00 00 00 00 00 00 00 00 00 00 00 FF FF 58 56 FF FF 58 56 08 49
2026-07-24T17:51:35.709971+00:00 TX 01 03 00 20 00 02 C5 C1
2026-07-24T17:51:35.716973+00:00 RX 01 03 04 00 00 0C 78 FF 11
2026-07-24T17:51:35.719973+00:00 TX 01 03 01 C4 00 01 C4 0B
2026-07-24T17:51:35.726478+00:00 RX 01 03 02 00 00 B8 44
2026-07-24T17:51:35.777157+00:00 TX 01 03 00 00 00 20 44 12
2026-07-24T17:51:35.822189+00:00 RX 01 03 40 00 00 00 00 00 03 00 00 00 03 00 00 00 00 00 00 00 00 00 00 00 00 00 00 00 01 00 00 01 00 05 0A 00 00 00 00 00 00 00 00 00 00 00 00 00 00 00 00 00 00 00 00 00 00 00 00 FF FF 57 22 FF FF 57 22 BD 6A
2026-07-24T17:51:35.824691+00:00 TX 01 03 00 20 00 02 C5 C1
2026-07-24T17:51:35.832693+00:00 RX 01 03 04 00 00 0C 79 3E D1
2026-07-24T17:51:35.834694+00:00 TX 01 03 01 C4 00 01 C4 0B
2026-07-24T17:51:35.841695+00:00 RX 01 03 02 00 00 B8 44
2026-07-24T17:51:35.892691+00:00 TX 01 03 00 00 00 20 44 12
2026-07-24T17:51:35.937200+00:00 RX 01 03 40 00 00 00 00 00 03 00 00 00 03 00 00 00 00 00 00 00 00 00 00 00 00 00 00 00 01 00 00 01 00 05 0A 00 00 00 00 00 00 00 00 00 00 00 00 00 00 00 00 00 00 00 00 00 00 00 00 FF FF 58 35 FF FF 58 35 8C 68
2026-07-24T17:51:35.940201+00:00 TX 01 03 00 20 00 02 C5 C1
2026-07-24T17:51:35.948203+00:00 RX 01 03 04 00 00 0C 7B BF 10
2026-07-24T17:51:35.950204+00:00 TX 01 03 01 C4 00 01 C4 0B
2026-07-24T17:51:35.957202+00:00 RX 01 03 02 00 00 B8 44
2026-07-24T17:51:36.008004+00:00 TX 01 03 00 00 00 20 44 12
2026-07-24T17:51:36.053286+00:00 RX 01 03 40 00 00 00 00 00 03 00 00 00 03 00 00 00 00 00 00 00 00 00 00 00 00 00 00 00 01 00 00 01 00 05 0A 00 00 00 00 00 00 00 00 00 00 00 00 00 00 00 00 00 00 00 00 00 00 00 00 FF FF 58 54 FF FF 58 54 F0 48
2026-07-24T17:51:36.056286+00:00 TX 01 03 00 20 00 02 C5 C1
2026-07-24T17:51:36.064317+00:00 RX 01 03 04 00 00 0C 7C FE D2
2026-07-24T17:51:36.066318+00:00 TX 01 03 01 C4 00 01 C4 0B
2026-07-24T17:51:36.072824+00:00 RX 01 03 02 00 00 B8 44
2026-07-24T17:51:36.124054+00:00 TX 01 03 00 00 00 20 44 12
2026-07-24T17:51:36.169111+00:00 RX 01 03 40 00 00 00 00 00 03 00 00 00 03 00 00 00 00 00 00 00 00 00 00 00 00 00 00 00 01 00 00 01 00 05 0A 00 00 00 00 00 00 00 00 00 00 00 00 00 00 00 00 00 00 00 00 00 00 00 00 FF FF 54 DE FF FF 54 DE ED FC
2026-07-24T17:51:36.171111+00:00 TX 01 03 00 20 00 02 C5 C1
2026-07-24T17:51:36.179113+00:00 RX 01 03 04 00 00 0C 7D 3F 12
2026-07-24T17:51:36.181113+00:00 TX 01 03 01 C4 00 01 C4 0B
2026-07-24T17:51:36.187115+00:00 RX 01 03 02 00 00 B8 44
2026-07-24T17:51:36.238184+00:00 TX 01 03 00 00 00 20 44 12
2026-07-24T17:51:36.282743+00:00 RX 01 03 40 00 00 00 00 00 03 00 00 00 03 00 00 00 00 00 00 00 00 00 00 00 00 00 00 00 01 00 00 01 00 05 0A 00 00 00 00 00 00 00 00 00 00 00 00 00 00 00 00 00 00 00 00 00 00 00 00 FF FF 58 2F FF FF 58 2F 54 61
2026-07-24T17:51:36.285245+00:00 TX 01 03 00 20 00 02 C5 C1
2026-07-24T17:51:36.293849+00:00 RX 01 03 04 00 00 0C 7E 7F 13
2026-07-24T17:51:36.296848+00:00 TX 01 03 01 C4 00 01 C4 0B
2026-07-24T17:51:36.303045+00:00 RX 01 03 02 00 00 B8 44
2026-07-24T17:51:36.353756+00:00 TX 01 03 00 00 00 20 44 12
2026-07-24T17:51:36.398071+00:00 RX 01 03 40 00 00 00 00 00 03 00 00 00 03 00 00 00 00 00 00 00 00 00 00 00 00 00 00 00 01 00 00 01 00 05 0A 00 00 00 00 00 00 00 00 00 00 00 00 00 00 00 00 00 00 00 00 00 00 00 00 FF FF 58 21 FF FF 58 21 BC 64
2026-07-24T17:51:36.400072+00:00 TX 01 03 00 20 00 02 C5 C1
2026-07-24T17:51:36.408073+00:00 RX 01 03 04 00 00 0C 7F BE D3
2026-07-24T17:51:36.410575+00:00 TX 01 03 01 C4 00 01 C4 0B
2026-07-24T17:51:36.416577+00:00 RX 01 03 02 00 00 B8 44
2026-07-24T17:51:36.467090+00:00 TX 01 03 00 00 00 20 44 12
2026-07-24T17:51:36.512095+00:00 RX 01 03 40 00 00 00 00 00 03 00 00 00 03 00 00 00 00 00 00 00 00 00 00 00 00 00 00 00 01 00 00 01 00 05 0A 00 00 00 00 00 00 00 00 00 00 00 00 00 00 00 00 00 00 00 00 00 00 00 00 FF FF 55 DF FF FF 55 DF 11 BD
2026-07-24T17:51:36.514096+00:00 TX 01 03 00 20 00 02 C5 C1
2026-07-24T17:51:36.522098+00:00 RX 01 03 04 00 00 0C 80 FE 93
2026-07-24T17:51:36.525098+00:00 TX 01 03 01 C4 00 01 C4 0B
2026-07-24T17:51:36.531602+00:00 RX 01 03 02 00 00 B8 44
2026-07-24T17:51:36.582130+00:00 TX 01 03 00 00 00 20 44 12
2026-07-24T17:51:36.626701+00:00 RX 01 03 40 00 00 00 00 00 03 00 00 00 03 00 00 00 00 00 00 00 00 00 00 00 00 00 00 00 01 00 00 01 00 05 0A 00 00 00 00 00 00 00 00 00 00 00 00 00 00 00 00 00 00 00 00 00 00 00 00 FF FF 54 FB FF FF 54 FB 61 E0
2026-07-24T17:51:36.628702+00:00 TX 01 03 00 20 00 02 C5 C1
2026-07-24T17:51:36.636205+00:00 RX 01 03 04 00 00 0C 82 7F 52
2026-07-24T17:51:36.638206+00:00 TX 01 03 01 C4 00 01 C4 0B
2026-07-24T17:51:36.644207+00:00 RX 01 03 02 00 00 B8 44
2026-07-24T17:51:36.694403+00:00 TX 01 03 00 00 00 20 44 12
2026-07-24T17:51:36.739819+00:00 RX 01 03 40 00 00 00 00 00 03 00 00 00 03 00 00 00 00 00 00 00 00 00 00 00 00 00 00 00 01 00 00 01 00 05 0A 00 00 00 00 00 00 00 00 00 00 00 00 00 00 00 00 00 00 00 00 00 00 00 00 FF FF 57 C1 FF FF 57 C1 39 35
2026-07-24T17:51:36.741819+00:00 TX 01 03 00 20 00 02 C5 C1
2026-07-24T17:51:36.748821+00:00 RX 01 03 04 00 00 0C 83 BE 92
2026-07-24T17:51:36.752326+00:00 TX 01 03 01 C4 00 01 C4 0B
2026-07-24T17:51:36.758881+00:00 RX 01 03 02 00 00 B8 44
2026-07-24T17:51:36.808927+00:00 TX 01 03 00 00 00 20 44 12
2026-07-24T17:51:36.853940+00:00 RX 01 03 40 00 00 00 00 00 03 00 00 00 03 00 00 00 00 00 00 00 00 00 00 00 00 00 00 00 01 00 00 01 00 05 0A 00 00 00 00 00 00 00 00 00 00 00 00 00 00 00 00 00 00 00 00 00 00 00 00 FF FF 5B 2B FF FF 5B 2B A4 A1
2026-07-24T17:51:36.855940+00:00 TX 01 03 00 20 00 02 C5 C1
2026-07-24T17:51:36.863943+00:00 RX 01 03 04 00 00 0C 84 FF 50
2026-07-24T17:51:36.865943+00:00 TX 01 03 01 C4 00 01 C4 0B
2026-07-24T17:51:36.871945+00:00 RX 01 03 02 00 00 B8 44
2026-07-24T17:51:36.922953+00:00 TX 01 03 00 00 00 20 44 12
2026-07-24T17:51:36.967325+00:00 RX 01 03 40 00 00 00 00 00 03 00 00 00 03 00 00 00 00 00 00 00 00 00 00 00 00 00 00 00 01 00 00 01 00 05 0A 00 00 00 00 00 00 00 00 00 00 00 00 00 00 00 00 00 00 00 00 00 00 00 00 FF FF 54 D9 FF FF 54 D9 19 FE
2026-07-24T17:51:36.969828+00:00 TX 01 03 00 20 00 02 C5 C1
2026-07-24T17:51:36.976830+00:00 RX 01 03 04 00 00 0C 85 3E 90
2026-07-24T17:51:36.979831+00:00 TX 01 03 01 C4 00 01 C4 0B
2026-07-24T17:51:36.985832+00:00 RX 01 03 02 00 00 B8 44
2026-07-24T17:51:37.036841+00:00 TX 01 03 00 00 00 20 44 12
2026-07-24T17:51:37.081423+00:00 RX 01 03 40 00 00 00 00 00 03 00 00 00 03 00 00 00 00 00 00 00 00 00 00 00 00 00 00 00 01 00 00 01 00 05 0A 00 00 00 00 00 00 00 00 00 00 00 00 00 00 00 00 00 00 00 00 00 00 00 00 FF FF 57 28 FF FF 57 28 A5 6C
2026-07-24T17:51:37.084423+00:00 TX 01 03 00 20 00 02 C5 C1
2026-07-24T17:51:37.092425+00:00 RX 01 03 04 00 00 0C 86 7E 91
2026-07-24T17:51:37.094425+00:00 TX 01 03 01 C4 00 01 C4 0B
2026-07-24T17:51:37.101424+00:00 RX 01 03 02 00 00 B8 44
2026-07-24T17:51:37.152093+00:00 TX 01 03 00 00 00 20 44 12
2026-07-24T17:51:37.197125+00:00 RX 01 03 40 00 00 00 00 00 03 00 00 00 03 00 00 00 00 00 00 00 00 00 00 00 00 00 00 00 01 00 00 01 00 05 0A 00 00 00 00 00 00 00 00 00 00 00 00 00 00 00 00 00 00 00 00 00 00 00 00 FF FF 58 5E FF FF 58 5E E8 4E
2026-07-24T17:51:37.199125+00:00 TX 01 03 00 20 00 02 C5 C1
2026-07-24T17:51:37.206127+00:00 RX 01 03 04 00 00 0C 87 BF 51
2026-07-24T17:51:37.209127+00:00 TX 01 03 01 C4 00 01 C4 0B
2026-07-24T17:51:37.215336+00:00 RX 01 03 02 00 00 B8 44
2026-07-24T17:51:37.266850+00:00 TX 01 03 00 00 00 20 44 12
2026-07-24T17:51:37.310860+00:00 RX 01 03 40 00 00 00 00 00 03 00 00 00 03 00 00 00 00 00 00 00 00 00 00 00 00 00 00 00 01 00 00 01 00 05 0A 00 00 00 00 00 00 00 00 00 00 00 00 00 00 00 00 00 00 00 00 00 00 00 00 FF FF 59 E5 FF FF 59 E5 4C 67
2026-07-24T17:51:37.314857+00:00 TX 01 03 00 20 00 02 C5 C1
2026-07-24T17:51:37.322859+00:00 RX 01 03 04 00 00 0C 88 FF 55
2026-07-24T17:51:37.325860+00:00 TX 01 03 01 C4 00 01 C4 0B
2026-07-24T17:51:37.332365+00:00 RX 01 03 02 00 00 B8 44
2026-07-24T17:51:37.382605+00:00 TX 01 03 00 00 00 20 44 12
2026-07-24T17:51:37.427300+00:00 RX 01 03 40 00 00 00 00 00 03 00 00 00 03 00 00 00 00 00 00 00 00 00 00 00 00 00 00 00 01 00 00 01 00 05 0A 00 00 00 00 00 00 00 00 00 00 00 00 00 00 00 00 00 00 00 00 00 00 00 00 FF FF 5B B0 FF FF 5B B0 80 D6
2026-07-24T17:51:37.429803+00:00 TX 01 03 00 20 00 02 C5 C1
2026-07-24T17:51:37.437806+00:00 RX 01 03 04 00 00 0C 8A 7E 94
2026-07-24T17:51:37.440806+00:00 TX 01 03 01 C4 00 01 C4 0B
2026-07-24T17:51:37.446807+00:00 RX 01 03 02 00 00 B8 44
2026-07-24T17:51:37.497931+00:00 TX 01 03 00 00 00 20 44 12
2026-07-24T17:51:37.542464+00:00 RX 01 03 40 00 00 00 00 00 03 00 00 00 03 00 00 00 00 00 00 00 00 00 00 00 00 00 00 00 01 00 00 01 00 05 0A 00 00 00 00 00 00 00 00 00 00 00 00 00 00 00 00 00 00 00 00 00 00 00 00 FF FF 59 A1 FF FF 59 A1 BC 5B
2026-07-24T17:51:37.544464+00:00 TX 01 03 00 20 00 02 C5 C1
2026-07-24T17:51:37.552466+00:00 RX 01 03 04 00 00 0C 8B BF 54
2026-07-24T17:51:37.554467+00:00 TX 01 03 01 C4 00 01 C4 0B
2026-07-24T17:51:37.561465+00:00 RX 01 03 02 00 00 B8 44
2026-07-24T17:51:37.611837+00:00 TX 01 03 00 00 00 20 44 12
2026-07-24T17:51:37.656341+00:00 RX 01 03 40 00 00 00 00 00 03 00 00 00 03 00 00 00 00 00 00 00 00 00 00 00 00 00 00 00 01 00 00 01 00 05 0A 00 00 00 00 00 00 00 00 00 00 00 00 00 00 00 00 00 00 00 00 00 00 00 00 FF FF 59 0A FF FF 59 0A D8 3C
2026-07-24T17:51:37.658842+00:00 TX 01 03 00 20 00 02 C5 C1
2026-07-24T17:51:37.666345+00:00 RX 01 03 04 00 00 0C 8C FE 96
2026-07-24T17:51:37.668345+00:00 TX 01 03 01 C4 00 01 C4 0B
2026-07-24T17:51:37.674347+00:00 RX 01 03 02 00 00 B8 44
2026-07-24T17:51:37.726053+00:00 TX 01 03 00 00 00 20 44 12
2026-07-24T17:51:37.770562+00:00 RX 01 03 40 00 00 00 00 00 03 00 00 00 03 00 00 00 00 00 00 00 00 00 00 00 00 00 00 00 01 00 00 01 00 05 0A 00 00 00 00 00 00 00 00 00 00 00 00 00 00 00 00 00 00 00 00 00 00 00 00 FF FF 5A 0B FF FF 5A 0B 24 FF
2026-07-24T17:51:37.772563+00:00 TX 01 03 00 20 00 02 C5 C1
2026-07-24T17:51:37.781565+00:00 RX 01 03 04 00 00 0C 8D 3F 56
2026-07-24T17:51:37.784566+00:00 TX 01 03 01 C4 00 01 C4 0B
2026-07-24T17:51:37.791567+00:00 RX 01 03 02 00 00 B8 44
2026-07-24T17:51:37.842109+00:00 TX 01 03 00 00 00 20 44 12
2026-07-24T17:51:37.887120+00:00 RX 01 03 40 00 00 00 00 00 03 00 00 00 03 00 00 00 00 00 00 00 00 00 00 00 00 00 00 00 01 00 00 01 00 05 0A 00 00 00 00 00 00 00 00 00 00 00 00 00 00 00 00 00 00 00 00 00 00 00 00 FF FF 57 71 FF FF 57 71 79 5B
2026-07-24T17:51:37.889120+00:00 TX 01 03 00 20 00 02 C5 C1
2026-07-24T17:51:37.897123+00:00 RX 01 03 04 00 00 0C 8E 7F 57
2026-07-24T17:51:37.900123+00:00 TX 01 03 01 C4 00 01 C4 0B
2026-07-24T17:51:37.907125+00:00 RX 01 03 02 00 00 B8 44
2026-07-24T17:51:37.957647+00:00 TX 01 03 00 00 00 20 44 12
2026-07-24T17:51:38.002156+00:00 RX 01 03 40 00 00 00 00 00 03 00 00 00 03 00 00 00 00 00 00 00 00 00 00 00 00 00 00 00 01 00 00 01 00 05 0A 00 00 00 00 00 00 00 00 00 00 00 00 00 00 00 00 00 00 00 00 00 00 00 00 FF FF 55 DA FF FF 55 DA 1D BE
2026-07-24T17:51:38.004156+00:00 TX 01 03 00 20 00 02 C5 C1
2026-07-24T17:51:38.012663+00:00 RX 01 03 04 00 00 0C 90 FF 5F
2026-07-24T17:51:38.015658+00:00 TX 01 03 01 C4 00 01 C4 0B
2026-07-24T17:51:38.022659+00:00 RX 01 03 02 00 00 B8 44
2026-07-24T17:51:38.072901+00:00 TX 01 03 00 00 00 20 44 12
2026-07-24T17:51:38.117907+00:00 RX 01 03 40 00 00 00 00 00 03 00 00 00 03 00 00 00 00 00 00 00 00 00 00 00 00 00 00 00 01 00 00 01 00 05 0A 00 00 00 00 00 00 00 00 00 00 00 00 00 00 00 00 00 00 00 00 00 00 00 00 FF FF 56 F3 FF FF 56 F3 81 65
2026-07-24T17:51:38.120908+00:00 TX 01 03 00 20 00 02 C5 C1
2026-07-24T17:51:38.127910+00:00 RX 01 03 04 00 00 0C 91 3E 9F
2026-07-24T17:51:38.130415+00:00 TX 01 03 01 C4 00 01 C4 0B
2026-07-24T17:51:38.136915+00:00 RX 01 03 02 00 00 B8 44
2026-07-24T17:51:38.187654+00:00 TX 01 03 00 00 00 20 44 12
2026-07-24T17:51:38.231966+00:00 RX 01 03 40 00 00 00 00 00 03 00 00 00 03 00 00 00 00 00 00 00 00 00 00 00 00 00 00 00 01 00 00 01 00 05 0A 00 00 00 00 00 00 00 00 00 00 00 00 00 00 00 00 00 00 00 00 00 00 00 00 FF FF 57 FA FF FF 57 FA 9D 23
2026-07-24T17:51:38.233967+00:00 TX 01 03 00 20 00 02 C5 C1
2026-07-24T17:51:38.241969+00:00 RX 01 03 04 00 00 0C 92 7E 9E
2026-07-24T17:51:38.243969+00:00 TX 01 03 01 C4 00 01 C4 0B
2026-07-24T17:51:38.249971+00:00 RX 01 03 02 00 00 B8 44
2026-07-24T17:51:38.299983+00:00 TX 01 03 00 00 00 20 44 12
2026-07-24T17:51:38.344492+00:00 RX 01 03 40 00 00 00 00 00 03 00 00 00 03 00 00 00 00 00 00 00 00 00 00 00 00 00 00 00 01 00 00 01 00 05 0A 00 00 00 00 00 00 00 00 00 00 00 00 00 00 00 00 00 00 00 00 00 00 00 00 FF FF 55 7F FF FF 55 7F 91 DC
2026-07-24T17:51:38.346492+00:00 TX 01 03 00 20 00 02 C5 C1
2026-07-24T17:51:38.354494+00:00 RX 01 03 04 00 00 0C 93 BF 5E
2026-07-24T17:51:38.357492+00:00 TX 01 03 01 C4 00 01 C4 0B
2026-07-24T17:51:38.363493+00:00 RX 01 03 02 00 00 B8 44
2026-07-24T17:51:38.413657+00:00 TX 01 03 00 00 00 20 44 12
2026-07-24T17:51:38.458167+00:00 RX 01 03 40 00 00 00 00 00 03 00 00 00 03 00 00 00 00 00 00 00 00 00 00 00 00 00 00 00 01 00 00 01 00 05 0A 00 00 00 00 00 00 00 00 00 00 00 00 00 00 00 00 00 00 00 00 00 00 00 00 FF FF 56 70 FF FF 56 70 85 1A
2026-07-24T17:51:38.460168+00:00 TX 01 03 00 20 00 02 C5 C1
2026-07-24T17:51:38.468170+00:00 RX 01 03 04 00 00 0C 94 FE 9C
2026-07-24T17:51:38.470171+00:00 TX 01 03 01 C4 00 01 C4 0B
2026-07-24T17:51:38.477172+00:00 RX 01 03 02 00 00 B8 44
2026-07-24T17:51:38.527201+00:00 TX 01 03 00 00 00 20 44 12
2026-07-24T17:51:38.571235+00:00 RX 01 03 40 00 00 00 00 00 03 00 00 00 03 00 00 00 00 00 00 00 00 00 00 00 00 00 00 00 01 00 00 01 00 05 0A 00 00 00 00 00 00 00 00 00 00 00 00 00 00 00 00 00 00 00 00 00 00 00 00 FF FF 56 43 FF FF 56 43 C1 0B
2026-07-24T17:51:38.574233+00:00 TX 01 03 00 20 00 02 C5 C1
2026-07-24T17:51:38.582235+00:00 RX 01 03 04 00 00 0C 95 3F 5C
2026-07-24T17:51:38.585235+00:00 TX 01 03 01 C4 00 01 C4 0B
2026-07-24T17:51:38.591255+00:00 RX 01 03 02 00 00 B8 44
2026-07-24T17:51:38.642774+00:00 TX 01 03 00 00 00 20 44 12
2026-07-24T17:51:38.687784+00:00 RX 01 03 40 00 00 00 00 00 03 00 00 00 03 00 00 00 00 00 00 00 00 00 00 00 00 00 00 00 01 00 00 01 00 05 0A 00 00 00 00 00 00 00 00 00 00 00 00 00 00 00 00 00 00 00 00 00 00 00 00 FF FF 55 8F FF FF 55 8F D1 8D
2026-07-24T17:51:38.689785+00:00 TX 01 03 00 20 00 02 C5 C1
2026-07-24T17:51:38.697787+00:00 RX 01 03 04 00 00 0C 96 7F 5D
2026-07-24T17:51:38.699787+00:00 TX 01 03 01 C4 00 01 C4 0B
2026-07-24T17:51:38.705789+00:00 RX 01 03 02 00 00 B8 44
2026-07-24T17:51:38.757053+00:00 TX 01 03 00 00 00 20 44 12
2026-07-24T17:51:38.802343+00:00 RX 01 03 40 00 00 00 00 00 03 00 00 00 03 00 00 00 00 00 00 00 00 00 00 00 00 00 00 00 01 00 00 01 00 05 0A 00 00 00 00 00 00 00 00 00 00 00 00 00 00 00 00 00 00 00 00 00 00 00 00 FF FF 54 76 FF FF 54 76 8D 9A
2026-07-24T17:51:38.804343+00:00 TX 01 03 00 20 00 02 C5 C1
2026-07-24T17:51:38.812345+00:00 RX 01 03 04 00 00 0C 98 FE 99
2026-07-24T17:51:38.814847+00:00 TX 01 03 01 C4 00 01 C4 0B
2026-07-24T17:51:38.821846+00:00 RX 01 03 02 00 00 B8 44
2026-07-24T17:51:38.872358+00:00 TX 01 03 00 00 00 20 44 12
2026-07-24T17:51:38.916964+00:00 RX 01 03 40 00 00 00 00 00 03 00 00 00 03 00 00 00 00 00 00 00 00 00 00 00 00 00 00 00 01 00 00 01 00 05 0A 00 00 00 00 00 00 00 00 00 00 00 00 00 00 00 00 00 00 00 00 00 00 00 00 FF FF 54 D7 FF FF 54 D7 F1 FB
2026-07-24T17:51:38.920962+00:00 TX 01 03 00 20 00 02 C5 C1
2026-07-24T17:51:38.927964+00:00 RX 01 03 04 00 00 0C 99 3F 59
2026-07-24T17:51:38.930964+00:00 TX 01 03 01 C4 00 01 C4 0B
2026-07-24T17:51:38.937467+00:00 RX 01 03 02 00 00 B8 44
2026-07-24T17:51:38.987977+00:00 TX 01 03 00 00 00 20 44 12
2026-07-24T17:51:39.031867+00:00 RX 01 03 40 00 00 00 00 00 03 00 00 00 03 00 00 00 00 00 00 00 00 00 00 00 00 00 00 00 01 00 00 01 00 05 0A 00 00 00 00 00 00 00 00 00 00 00 00 00 00 00 00 00 00 00 00 00 00 00 00 FF FF 56 87 FF FF 56 87 31 49
2026-07-24T17:51:39.035434+00:00 TX 01 03 00 20 00 02 C5 C1
2026-07-24T17:51:39.043468+00:00 RX 01 03 04 00 00 0C 9A 7F 58
2026-07-24T17:51:39.045468+00:00 TX 01 03 01 C4 00 01 C4 0B
2026-07-24T17:51:39.051469+00:00 RX 01 03 02 00 00 B8 44
2026-07-24T17:51:39.101481+00:00 TX 01 03 00 00 00 20 44 12
2026-07-24T17:51:39.146024+00:00 RX 01 03 40 00 00 00 00 00 03 00 00 00 03 00 00 00 00 00 00 00 00 00 00 00 00 00 00 00 01 00 00 01 00 05 0A 00 00 00 00 00 00 00 00 00 00 00 00 00 00 00 00 00 00 00 00 00 00 00 00 FF FF 57 0B FF FF 57 0B 21 72
2026-07-24T17:51:39.149021+00:00 TX 01 03 00 20 00 02 C5 C1
2026-07-24T17:51:39.156022+00:00 RX 01 03 04 00 00 0C 9B BE 98
2026-07-24T17:51:39.159019+00:00 TX 01 03 01 C4 00 01 C4 0B
2026-07-24T17:51:39.165021+00:00 RX 01 03 02 00 00 B8 44
2026-07-24T17:51:39.215167+00:00 TX 01 03 00 00 00 20 44 12
2026-07-24T17:51:39.259672+00:00 RX 01 03 40 00 00 00 00 00 03 00 00 00 03 00 00 00 00 00 00 00 00 00 00 00 00 00 00 00 01 00 00 01 00 05 0A 00 00 00 00 00 00 00 00 00 00 00 00 00 00 00 00 00 00 00 00 00 00 00 00 FF FF 56 4E FF FF 56 4E 2D 0F
2026-07-24T17:51:39.262673+00:00 TX 01 03 00 20 00 02 C5 C1
2026-07-24T17:51:39.271113+00:00 RX 01 03 04 00 00 0C 9C FF 5A
2026-07-24T17:51:39.274110+00:00 TX 01 03 01 C4 00 01 C4 0B
2026-07-24T17:51:39.281118+00:00 RX 01 03 02 00 00 B8 44
2026-07-24T17:51:39.331613+00:00 TX 01 03 00 00 00 20 44 12
2026-07-24T17:51:39.376623+00:00 RX 01 03 40 00 00 00 00 00 03 00 00 00 03 00 00 00 00 00 00 00 00 00 00 00 00 00 00 00 01 00 00 01 00 05 0A 00 00 00 00 00 00 00 00 00 00 00 00 00 00 00 00 00 00 00 00 00 00 00 00 FF FF 56 FF FF FF 56 FF 91 61
2026-07-24T17:51:39.378623+00:00 TX 01 03 00 20 00 02 C5 C1
2026-07-24T17:51:39.386625+00:00 RX 01 03 04 00 00 0C 9E 7E 9B
2026-07-24T17:51:39.388675+00:00 TX 01 03 01 C4 00 01 C4 0B
2026-07-24T17:51:39.395673+00:00 RX 01 03 02 00 00 B8 44
2026-07-24T17:51:39.445681+00:00 TX 01 03 00 00 00 20 44 12
2026-07-24T17:51:39.490700+00:00 RX 01 03 40 00 00 00 00 00 03 00 00 00 03 00 00 00 00 00 00 00 00 00 00 00 00 00 00 00 01 00 00 01 00 05 0A 00 00 00 00 00 00 00 00 00 00 00 00 00 00 00 00 00 00 00 00 00 00 00 00 FF FF 57 1D FF FF 57 1D E9 7F
2026-07-24T17:51:39.493701+00:00 TX 01 03 00 20 00 02 C5 C1
2026-07-24T17:51:39.501702+00:00 RX 01 03 04 00 00 0C 9F BF 5B
2026-07-24T17:51:39.503736+00:00 TX 01 03 01 C4 00 01 C4 0B
2026-07-24T17:51:39.509734+00:00 RX 01 03 02 00 00 B8 44
2026-07-24T17:51:39.561241+00:00 TX 01 03 00 00 00 20 44 12
2026-07-24T17:51:39.606750+00:00 RX 01 03 40 00 00 00 00 00 03 00 00 00 03 00 00 00 00 00 00 00 00 00 00 00 00 00 00 00 01 00 00 01 00 05 0A 00 00 00 00 00 00 00 00 00 00 00 00 00 00 00 00 00 00 00 00 00 00 00 00 FF FF 57 AE FF FF 57 AE AD 10
2026-07-24T17:51:39.608750+00:00 TX 01 03 00 20 00 02 C5 C1
2026-07-24T17:51:39.616258+00:00 RX 01 03 04 00 00 0C A0 FF 4B
2026-07-24T17:51:39.619255+00:00 TX 01 03 01 C4 00 01 C4 0B
2026-07-24T17:51:39.625782+00:00 RX 01 03 02 00 00 B8 44
2026-07-24T17:51:39.675837+00:00 TX 01 03 00 00 00 20 44 12
2026-07-24T17:51:39.720655+00:00 RX 01 03 40 00 00 00 00 00 03 00 00 00 03 00 00 00 00 00 00 00 00 00 00 00 00 00 00 00 01 00 00 01 00 05 0A 00 00 00 00 00 00 00 00 00 00 00 00 00 00 00 00 00 00 00 00 00 00 00 00 FF FF 54 80 FF FF 54 80 C5 C9
2026-07-24T17:51:39.723652+00:00 TX 01 03 00 20 00 02 C5 C1
2026-07-24T17:51:39.731323+00:00 RX 01 03 04 00 00 0C A1 3E 8B
2026-07-24T17:51:39.734324+00:00 TX 01 03 01 C4 00 01 C4 0B
2026-07-24T17:51:39.740824+00:00 RX 01 03 02 00 00 B8 44
2026-07-24T17:51:39.792371+00:00 TX 01 03 00 00 00 20 44 12
2026-07-24T17:51:39.836902+00:00 RX 01 03 40 00 00 00 00 00 03 00 00 00 03 00 00 00 00 00 00 00 00 00 00 00 00 00 00 00 01 00 00 01 00 05 0A 00 00 00 00 00 00 00 00 00 00 00 00 00 00 00 00 00 00 00 00 00 00 00 00 FF FF 55 1C FF FF 55 1C 15 FD
2026-07-24T17:51:39.839903+00:00 TX 01 03 00 20 00 02 C5 C1
2026-07-24T17:51:39.847905+00:00 RX 01 03 04 00 00 0C A2 7E 8A
2026-07-24T17:51:39.849906+00:00 TX 01 03 01 C4 00 01 C4 0B
2026-07-24T17:51:39.855907+00:00 RX 01 03 02 00 00 B8 44
2026-07-24T17:51:39.906919+00:00 TX 01 03 00 00 00 20 44 12
2026-07-24T17:51:39.950927+00:00 RX 01 03 40 00 00 00 00 00 03 00 00 00 03 00 00 00 00 00 00 00 00 00 00 00 00 00 00 00 01 00 00 01 00 05 0A 00 00 00 00 00 00 00 00 00 00 00 00 00 00 00 00 00 00 00 00 00 00 00 00 FF FF 55 00 FF FF 55 00 C5 F6
2026-07-24T17:51:39.953928+00:00 TX 01 03 00 20 00 02 C5 C1
2026-07-24T17:51:39.961926+00:00 RX 01 03 04 00 00 0C A3 BF 4A
2026-07-24T17:51:39.964927+00:00 TX 01 03 01 C4 00 01 C4 0B
2026-07-24T17:51:39.970928+00:00 RX 01 03 02 00 00 B8 44
2026-07-24T17:51:40.021938+00:00 TX 01 03 00 00 00 20 44 12
2026-07-24T17:51:40.066283+00:00 RX 01 03 40 00 00 00 00 00 03 00 00 00 03 00 00 00 00 00 00 00 00 00 00 00 00 00 00 00 01 00 00 01 00 05 0A 00 00 00 00 00 00 00 00 00 00 00 00 00 00 00 00 00 00 00 00 00 00 00 00 FF FF 55 CD FF FF 55 CD 29 B3
2026-07-24T17:51:40.069283+00:00 TX 01 03 00 20 00 02 C5 C1
2026-07-24T17:51:40.076285+00:00 RX 01 03 04 00 00 0C A5 3F 48
2026-07-24T17:51:40.079286+00:00 TX 01 03 01 C4 00 01 C4 0B
2026-07-24T17:51:40.085287+00:00 RX 01 03 02 00 00 B8 44
2026-07-24T17:51:40.136319+00:00 TX 01 03 00 00 00 20 44 12
2026-07-24T17:51:40.181872+00:00 RX 01 03 40 00 00 00 00 00 03 00 00 00 03 00 00 00 00 00 00 00 00 00 00 00 00 00 00 00 01 00 00 01 00 05 0A 00 00 00 00 00 00 00 00 00 00 00 00 00 00 00 00 00 00 00 00 00 00 00 00 FF FF 55 52 FF FF 55 52 FD C7
2026-07-24T17:51:40.184872+00:00 TX 01 03 00 20 00 02 C5 C1
2026-07-24T17:51:40.192889+00:00 RX 01 03 04 00 00 0C A6 7F 49
2026-07-24T17:51:40.194890+00:00 TX 01 03 01 C4 00 01 C4 0B
2026-07-24T17:51:40.201396+00:00 RX 01 03 02 00 00 B8 44
2026-07-24T17:51:40.251404+00:00 TX 01 03 00 00 00 20 44 12
2026-07-24T17:51:40.296415+00:00 RX 01 03 40 00 00 00 00 00 03 00 00 00 03 00 00 00 00 00 00 00 00 00 00 00 00 00 00 00 01 00 00 01 00 05 0A 00 00 00 00 00 00 00 00 00 00 00 00 00 00 00 00 00 00 00 00 00 00 00 00 FF FF 54 91 FF FF 54 91 F9 C6
2026-07-24T17:51:40.298415+00:00 TX 01 03 00 20 00 02 C5 C1
2026-07-24T17:51:40.305417+00:00 RX 01 03 04 00 00 0C A7 BE 89
2026-07-24T17:51:40.307417+00:00 TX 01 03 01 C4 00 01 C4 0B
2026-07-24T17:51:40.313419+00:00 RX 01 03 02 00 00 B8 44
2026-07-24T17:51:40.363926+00:00 TX 01 03 00 00 00 20 44 12
2026-07-24T17:51:40.407936+00:00 RX 01 03 40 00 00 00 00 00 03 00 00 00 03 00 00 00 00 00 00 00 00 00 00 00 00 00 00 00 01 00 00 01 00 05 0A 00 00 00 00 00 00 00 00 00 00 00 00 00 00 00 00 00 00 00 00 00 00 00 00 FF FF 56 FB FF FF 56 FB 61 62
2026-07-24T17:51:40.409936+00:00 TX 01 03 00 20 00 02 C5 C1
2026-07-24T17:51:40.417443+00:00 RX 01 03 04 00 00 0C A8 FE 8D
2026-07-24T17:51:40.420440+00:00 TX 01 03 01 C4 00 01 C4 0B
2026-07-24T17:51:40.426438+00:00 RX 01 03 02 00 00 B8 44
2026-07-24T17:51:40.476628+00:00 TX 01 03 00 00 00 20 44 12
2026-07-24T17:51:40.521139+00:00 RX 01 03 40 00 00 00 00 00 03 00 00 00 03 00 00 00 00 00 00 00 00 00 00 00 00 00 00 00 01 00 00 01 00 05 0A 00 00 00 00 00 00 00 00 00 00 00 00 00 00 00 00 00 00 00 00 00 00 00 00 FF FF 5A 7D FF FF 5A 7D 6C D2
2026-07-24T17:51:40.524139+00:00 TX 01 03 00 20 00 02 C5 C1
2026-07-24T17:51:40.532137+00:00 RX 01 03 04 00 00 0C A9 3F 4D
2026-07-24T17:51:40.534138+00:00 TX 01 03 01 C4 00 01 C4 0B
2026-07-24T17:51:40.541640+00:00 RX 01 03 02 00 00 B8 44
2026-07-24T17:51:40.591651+00:00 TX 01 03 00 00 00 20 44 12
2026-07-24T17:51:40.636199+00:00 RX 01 03 40 00 00 00 00 00 03 00 00 00 03 00 00 00 00 00 00 00 00 00 00 00 00 00 00 00 01 00 00 01 00 05 0A 00 00 00 00 00 00 00 00 00 00 00 00 00 00 00 00 00 00 00 00 00 00 00 00 FF FF 58 ED FF FF 58 ED AC 21
2026-07-24T17:51:40.638200+00:00 TX 01 03 00 20 00 02 C5 C1
2026-07-24T17:51:40.646699+00:00 RX 01 03 04 00 00 0C AA 7F 4C
2026-07-24T17:51:40.649203+00:00 TX 01 03 01 C4 00 01 C4 0B
2026-07-24T17:51:40.655746+00:00 RX 01 03 02 00 00 B8 44
2026-07-24T17:51:40.706259+00:00 TX 01 03 00 00 00 20 44 12
2026-07-24T17:51:40.750767+00:00 RX 01 03 40 00 00 00 00 00 03 00 00 00 03 00 00 00 00 00 00 00 00 00 00 00 00 00 00 00 01 00 00 01 00 05 0A 00 00 00 00 00 00 00 00 00 00 00 00 00 00 00 00 00 00 00 00 00 00 00 00 FF FF 56 A8 FF FF 56 A8 A5 53
2026-07-24T17:51:40.752797+00:00 TX 01 03 00 20 00 02 C5 C1
2026-07-24T17:51:40.761792+00:00 RX 01 03 04 00 00 0C AB BE 8C
2026-07-24T17:51:40.763792+00:00 TX 01 03 01 C4 00 01 C4 0B
2026-07-24T17:51:40.769794+00:00 RX 01 03 02 00 00 B8 44
2026-07-24T17:51:40.821324+00:00 TX 01 03 00 00 00 20 44 12
2026-07-24T17:51:40.865832+00:00 RX 01 03 40 00 00 00 00 00 03 00 00 00 03 00 00 00 00 00 00 00 00 00 00 00 00 00 00 00 01 00 00 01 00 05 0A 00 00 00 00 00 00 00 00 00 00 00 00 00 00 00 00 00 00 00 00 00 00 00 00 FF FF 55 ED FF FF 55 ED A9 AC
2026-07-24T17:51:40.868833+00:00 TX 01 03 00 20 00 02 C5 C1
2026-07-24T17:51:40.875834+00:00 RX 01 03 04 00 00 0C AD 3E 8E
2026-07-24T17:51:40.878835+00:00 TX 01 03 01 C4 00 01 C4 0B
2026-07-24T17:51:40.884836+00:00 RX 01 03 02 00 00 B8 44
2026-07-24T17:51:40.934845+00:00 TX 01 03 00 00 00 20 44 12
2026-07-24T17:51:40.978871+00:00 RX 01 03 40 00 00 00 00 00 03 00 00 00 03 00 00 00 00 00 00 00 00 00 00 00 00 00 00 00 01 00 00 01 00 05 0A 00 00 00 00 00 00 00 00 00 00 00 00 00 00 00 00 00 00 00 00 00 00 00 00 FF FF 57 50 FF FF 57 50 05 44
2026-07-24T17:51:40.981871+00:00 TX 01 03 00 20 00 02 C5 C1
2026-07-24T17:51:40.988908+00:00 RX 01 03 04 00 00 0C AE 7E 8F
2026-07-24T17:51:40.991905+00:00 TX 01 03 01 C4 00 01 C4 0B
2026-07-24T17:51:40.997906+00:00 RX 01 03 02 00 00 B8 44
2026-07-24T17:51:41.047914+00:00 TX 01 03 00 00 00 20 44 12
2026-07-24T17:51:41.091925+00:00 RX 01 03 40 00 00 00 00 00 03 00 00 00 03 00 00 00 00 00 00 00 00 00 00 00 00 00 00 00 01 00 00 01 00 05 0A 00 00 00 00 00 00 00 00 00 00 00 00 00 00 00 00 00 00 00 00 00 00 00 00 FF FF 54 96 FF FF 54 96 0D C4
2026-07-24T17:51:41.093925+00:00 TX 01 03 00 20 00 02 C5 C1
2026-07-24T17:51:41.101927+00:00 RX 01 03 04 00 00 0C AF BF 4F
2026-07-24T17:51:41.104927+00:00 TX 01 03 01 C4 00 01 C4 0B
2026-07-24T17:51:41.111929+00:00 RX 01 03 02 00 00 B8 44
2026-07-24T17:51:41.161958+00:00 TX 01 03 00 00 00 20 44 12
2026-07-24T17:51:41.206967+00:00 RX 01 03 40 00 00 00 00 00 03 00 00 00 03 00 00 00 00 00 00 00 00 00 00 00 00 00 00 00 01 00 00 01 00 05 0A 00 00 00 00 00 00 00 00 00 00 00 00 00 00 00 00 00 00 00 00 00 00 00 00 FF FF 55 93 FF FF 55 93 01 86
2026-07-24T17:51:41.208968+00:00 TX 01 03 00 20 00 02 C5 C1
2026-07-24T17:51:41.215969+00:00 RX 01 03 04 00 00 0C B0 FE 87
2026-07-24T17:51:41.217970+00:00 TX 01 03 01 C4 00 01 C4 0B
2026-07-24T17:51:41.224473+00:00 RX 01 03 02 00 00 B8 44
2026-07-24T17:51:41.274983+00:00 TX 01 03 00 00 00 20 44 12
2026-07-24T17:51:41.319993+00:00 RX 01 03 40 00 00 00 00 00 03 00 00 00 03 00 00 00 00 00 00 00 00 00 00 00 00 00 00 00 01 00 00 01 00 05 0A 00 00 00 00 00 00 00 00 00 00 00 00 00 00 00 00 00 00 00 00 00 00 00 00 FF FF 54 D5 FF FF 54 D5 09 FA
2026-07-24T17:51:41.322993+00:00 TX 01 03 00 20 00 02 C5 C1
2026-07-24T17:51:41.330993+00:00 RX 01 03 04 00 00 0C B1 3F 47
2026-07-24T17:51:41.333992+00:00 TX 01 03 01 C4 00 01 C4 0B
2026-07-24T17:51:41.341498+00:00 RX 01 03 02 00 00 B8 44
2026-07-24T17:51:41.392001+00:00 TX 01 03 00 00 00 20 44 12
2026-07-24T17:51:41.437006+00:00 RX 01 03 40 00 00 00 00 00 03 00 00 00 03 00 00 00 00 00 00 00 00 00 00 00 00 00 00 00 01 00 00 01 00 05 0A 00 00 00 00 00 00 00 00 00 00 00 00 00 00 00 00 00 00 00 00 00 00 00 00 FF FF 54 58 FF FF 54 58 E5 80
2026-07-24T17:51:41.439007+00:00 TX 01 03 00 20 00 02 C5 C1
2026-07-24T17:51:41.446510+00:00 RX 01 03 04 00 00 0C B2 7F 46
2026-07-24T17:51:41.448510+00:00 TX 01 03 01 C4 00 01 C4 0B
2026-07-24T17:51:41.454512+00:00 RX 01 03 02 00 00 B8 44
2026-07-24T17:51:41.505022+00:00 TX 01 03 00 00 00 20 44 12
2026-07-24T17:51:41.550315+00:00 RX 01 03 40 00 00 00 00 00 03 00 00 00 03 00 00 00 00 00 00 00 00 00 00 00 00 00 00 00 01 00 00 01 00 05 0A 00 00 00 00 00 00 00 00 00 00 00 00 00 00 00 00 00 00 00 00 00 00 00 00 FF FF 54 1D FF FF 54 1D E9 BC
2026-07-24T17:51:41.552315+00:00 TX 01 03 00 20 00 02 C5 C1
2026-07-24T17:51:41.560315+00:00 RX 01 03 04 00 00 0C B4 FF 44
2026-07-24T17:51:41.562315+00:00 TX 01 03 01 C4 00 01 C4 0B
2026-07-24T17:51:41.568317+00:00 RX 01 03 02 00 00 B8 44
2026-07-24T17:51:41.618828+00:00 TX 01 03 00 00 00 20 44 12
2026-07-24T17:51:41.663884+00:00 RX 01 03 40 00 00 00 00 00 03 00 00 00 03 00 00 00 00 00 00 00 00 00 00 00 00 00 00 00 01 00 00 01 00 05 0A 00 00 00 00 00 00 00 00 00 00 00 00 00 00 00 00 00 00 00 00 00 00 00 00 FF FF 54 59 FF FF 54 59 19 80
2026-07-24T17:51:41.666533+00:00 TX 01 03 00 20 00 02 C5 C1
2026-07-24T17:51:41.674534+00:00 RX 01 03 04 00 00 0C B5 3E 84
2026-07-24T17:51:41.676535+00:00 TX 01 03 01 C4 00 01 C4 0B
2026-07-24T17:51:41.683536+00:00 RX 01 03 02 00 00 B8 44
2026-07-24T17:51:41.733545+00:00 TX 01 03 00 00 00 20 44 12
2026-07-24T17:51:41.778050+00:00 RX 01 03 40 00 00 00 00 00 03 00 00 00 03 00 00 00 00 00 00 00 00 00 00 00 00 00 00 00 01 00 00 01 00 05 0A 00 00 00 00 00 00 00 00 00 00 00 00 00 00 00 00 00 00 00 00 00 00 00 00 FF FF 53 90 FF FF 53 90 06 41
2026-07-24T17:51:41.780050+00:00 TX 01 03 00 20 00 02 C5 C1
2026-07-24T17:51:41.788052+00:00 RX 01 03 04 00 00 0C B6 7E 85
2026-07-24T17:51:41.790052+00:00 TX 01 03 01 C4 00 01 C4 0B
2026-07-24T17:51:41.795967+00:00 RX 01 03 02 00 00 B8 44
2026-07-24T17:51:41.846638+00:00 TX 01 03 00 00 00 20 44 12
2026-07-24T17:51:41.891648+00:00 RX 01 03 40 00 00 00 00 00 03 00 00 00 03 00 00 00 00 00 00 00 00 00 00 00 00 00 00 00 01 00 00 01 00 05 0A 00 00 00 00 00 00 00 00 00 00 00 00 00 00 00 00 00 00 00 00 00 00 00 00 FF FF 54 E1 FF FF 54 E1 B9 E9
2026-07-24T17:51:41.893649+00:00 TX 01 03 00 20 00 02 C5 C1
2026-07-24T17:51:41.901650+00:00 RX 01 03 04 00 00 0C B7 BF 45
2026-07-24T17:51:41.904651+00:00 TX 01 03 01 C4 00 01 C4 0B
2026-07-24T17:51:41.910652+00:00 RX 01 03 02 00 00 B8 44
2026-07-24T17:51:41.962159+00:00 TX 01 03 00 00 00 20 44 12
2026-07-24T17:51:42.007258+00:00 RX 01 03 40 00 00 00 00 00 03 00 00 00 03 00 00 00 00 00 00 00 00 00 00 00 00 00 00 00 01 00 00 01 00 05 0A 00 00 00 00 00 00 00 00 00 00 00 00 00 00 00 00 00 00 00 00 00 00 00 00 FF FF 57 75 FF FF 57 75 89 58
2026-07-24T17:51:42.009267+00:00 TX 01 03 00 20 00 02 C5 C1
2026-07-24T17:51:42.017274+00:00 RX 01 03 04 00 00 0C B8 FF 41
2026-07-24T17:51:42.019274+00:00 TX 01 03 01 C4 00 01 C4 0B
2026-07-24T17:51:42.025776+00:00 RX 01 03 02 00 00 B8 44
2026-07-24T17:51:42.076287+00:00 TX 01 03 00 00 00 20 44 12
2026-07-24T17:51:42.121298+00:00 RX 01 03 40 00 00 00 00 00 03 00 00 00 03 00 00 00 00 00 00 00 00 00 00 00 00 00 00 00 01 00 00 01 00 05 0A 00 00 00 00 00 00 00 00 00 00 00 00 00 00 00 00 00 00 00 00 00 00 00 00 FF FF 56 58 FF FF 56 58 E5 02
2026-07-24T17:51:42.123298+00:00 TX 01 03 00 20 00 02 C5 C1
2026-07-24T17:51:42.131401+00:00 RX 01 03 04 00 00 0C B9 3E 81
2026-07-24T17:51:42.133401+00:00 TX 01 03 01 C4 00 01 C4 0B
2026-07-24T17:51:42.139402+00:00 RX 01 03 02 00 00 B8 44
2026-07-24T17:51:42.189601+00:00 TX 01 03 00 00 00 20 44 12
2026-07-24T17:51:42.234105+00:00 RX 01 03 40 00 00 00 00 00 03 00 00 00 03 00 00 00 00 00 00 00 00 00 00 00 00 00 00 00 01 00 00 01 00 05 0A 00 00 00 00 00 00 00 00 00 00 00 00 00 00 00 00 00 00 00 00 00 00 00 00 FF FF 56 E3 FF FF 56 E3 41 6A
2026-07-24T17:51:42.236106+00:00 TX 01 03 00 20 00 02 C5 C1
2026-07-24T17:51:42.244108+00:00 RX 01 03 04 00 00 0C BB BF 40
2026-07-24T17:51:42.247610+00:00 TX 01 03 01 C4 00 01 C4 0B
2026-07-24T17:51:42.253611+00:00 RX 01 03 02 00 00 B8 44
2026-07-24T17:51:42.304843+00:00 TX 01 03 00 00 00 20 44 12
2026-07-24T17:51:42.349352+00:00 RX 01 03 40 00 00 00 00 00 03 00 00 00 03 00 00 00 00 00 00 00 00 00 00 00 00 00 00 00 01 00 00 01 00 05 0A 00 00 00 00 00 00 00 00 00 00 00 00 00 00 00 00 00 00 00 00 00 00 00 00 FF FF 56 2B FF FF 56 2B A1 2C
2026-07-24T17:51:42.351353+00:00 TX 01 03 00 20 00 02 C5 C1
2026-07-24T17:51:42.359355+00:00 RX 01 03 04 00 00 0C BC FE 82
2026-07-24T17:51:42.362352+00:00 TX 01 03 01 C4 00 01 C4 0B
2026-07-24T17:51:42.368353+00:00 RX 01 03 02 00 00 B8 44
2026-07-24T17:51:42.419863+00:00 TX 01 03 00 00 00 20 44 12
2026-07-24T17:51:42.464873+00:00 RX 01 03 40 00 00 00 00 00 03 00 00 00 03 00 00 00 00 00 00 00 00 00 00 00 00 00 00 00 01 00 00 01 00 05 0A 00 00 00 00 00 00 00 00 00 00 00 00 00 00 00 00 00 00 00 00 00 00 00 00 FF FF 54 71 FF FF 54 71 79 98
2026-07-24T17:51:42.466874+00:00 TX 01 03 00 20 00 02 C5 C1
2026-07-24T17:51:42.473875+00:00 RX 01 03 04 00 00 0C BD 3F 42
2026-07-24T17:51:42.475876+00:00 TX 01 03 01 C4 00 01 C4 0B
2026-07-24T17:51:42.481877+00:00 RX 01 03 02 00 00 B8 44
2026-07-24T17:51:42.531898+00:00 TX 01 03 00 00 00 20 44 12
2026-07-24T17:51:42.576000+00:00 RX 01 03 40 00 00 00 00 00 03 00 00 00 03 00 00 00 00 00 00 00 00 00 00 00 00 00 00 00 01 00 00 01 00 05 0A 00 00 00 00 00 00 00 00 00 00 00 00 00 00 00 00 00 00 00 00 00 00 00 00 FF FF 55 17 FF FF 55 17 F1 FB
2026-07-24T17:51:42.578998+00:00 TX 01 03 00 20 00 02 C5 C1
2026-07-24T17:51:42.586501+00:00 RX 01 03 04 00 00 0C BE 7F 43
2026-07-24T17:51:42.588501+00:00 TX 01 03 01 C4 00 01 C4 0B
2026-07-24T17:51:42.594503+00:00 RX 01 03 02 00 00 B8 44
2026-07-24T17:51:42.645541+00:00 TX 01 03 00 00 00 20 44 12
2026-07-24T17:51:42.690548+00:00 RX 01 03 40 00 00 00 00 00 03 00 00 00 03 00 00 00 00 00 00 00 00 00 00 00 00 00 00 00 01 00 00 01 00 05 0A 00 00 00 00 00 00 00 00 00 00 00 00 00 00 00 00 00 00 00 00 00 00 00 00 FF FF 54 ED FF FF 54 ED A9 ED
2026-07-24T17:51:42.693549+00:00 TX 01 03 00 20 00 02 C5 C1
2026-07-24T17:51:42.702594+00:00 RX 01 03 04 00 00 0C BF BE 83
2026-07-24T17:51:42.704708+00:00 TX 01 03 01 C4 00 01 C4 0B
2026-07-24T17:51:42.711404+00:00 RX 01 03 02 00 00 B8 44
2026-07-24T17:51:42.762065+00:00 TX 01 03 00 00 00 20 44 12
2026-07-24T17:51:42.807092+00:00 RX 01 03 40 00 00 00 00 00 03 00 00 00 03 00 00 00 00 00 00 00 00 00 00 00 00 00 00 00 01 00 00 01 00 05 0A 00 00 00 00 00 00 00 00 00 00 00 00 00 00 00 00 00 00 00 00 00 00 00 00 FF FF 55 64 FF FF 55 64 B5 D5
2026-07-24T17:51:42.809093+00:00 TX 01 03 00 20 00 02 C5 C1
2026-07-24T17:51:42.817094+00:00 RX 01 03 04 00 00 0C C0 FF 63
2026-07-24T17:51:42.819095+00:00 TX 01 03 01 C4 00 01 C4 0B
2026-07-24T17:51:42.824598+00:00 RX 01 03 02 00 00 B8 44
2026-07-24T17:51:42.876107+00:00 TX 01 03 00 00 00 20 44 12
2026-07-24T17:51:42.920827+00:00 RX 01 03 40 00 00 00 00 00 03 00 00 00 03 00 00 00 00 00 00 00 00 00 00 00 00 00 00 00 01 00 00 01 00 05 0A 00 00 00 00 00 00 00 00 00 00 00 00 00 00 00 00 00 00 00 00 00 00 00 00 FF FF 56 01 FF FF 56 01 39 35
2026-07-24T17:51:42.923827+00:00 TX 01 03 00 20 00 02 C5 C1
2026-07-24T17:51:42.931826+00:00 RX 01 03 04 00 00 0C C2 7E A2
2026-07-24T17:51:42.933826+00:00 TX 01 03 01 C4 00 01 C4 0B
2026-07-24T17:51:42.940828+00:00 RX 01 03 02 00 00 B8 44
2026-07-24T17:51:42.990837+00:00 TX 01 03 00 00 00 20 44 12
2026-07-24T17:51:43.035343+00:00 RX 01 03 40 00 00 00 00 00 03 00 00 00 03 00 00 00 00 00 00 00 00 00 00 00 00 00 00 00 01 00 00 01 00 05 0A 00 00 00 00 00 00 00 00 00 00 00 00 00 00 00 00 00 00 00 00 00 00 00 00 FF FF 58 20 FF FF 58 20 40 64
2026-07-24T17:51:43.037344+00:00 TX 01 03 00 20 00 02 C5 C1
2026-07-24T17:51:43.045345+00:00 RX 01 03 04 00 00 0C C3 BF 62
2026-07-24T17:51:43.047848+00:00 TX 01 03 01 C4 00 01 C4 0B
2026-07-24T17:51:43.053849+00:00 RX 01 03 02 00 00 B8 44
2026-07-24T17:51:43.103857+00:00 TX 01 03 00 00 00 20 44 12
2026-07-24T17:51:43.148433+00:00 RX 01 03 40 00 00 00 00 00 03 00 00 00 03 00 00 00 00 00 00 00 00 00 00 00 00 00 00 00 01 00 00 01 00 05 0A 00 00 00 00 00 00 00 00 00 00 00 00 00 00 00 00 00 00 00 00 00 00 00 00 FF FF 59 07 FF FF 59 07 34 38
2026-07-24T17:51:43.150433+00:00 TX 01 03 00 20 00 02 C5 C1
2026-07-24T17:51:43.158435+00:00 RX 01 03 04 00 00 0C C4 FE A0
2026-07-24T17:51:43.160435+00:00 TX 01 03 01 C4 00 01 C4 0B
2026-07-24T17:51:43.166434+00:00 RX 01 03 02 00 00 B8 44
2026-07-24T17:51:43.216984+00:00 TX 01 03 00 00 00 20 44 12
2026-07-24T17:51:43.261993+00:00 RX 01 03 40 00 00 00 00 00 03 00 00 00 03 00 00 00 00 00 00 00 00 00 00 00 00 00 00 00 01 00 00 01 00 05 0A 00 00 00 00 00 00 00 00 00 00 00 00 00 00 00 00 00 00 00 00 00 00 00 00 FF FF 56 80 FF FF 56 80 C5 4B
2026-07-24T17:51:43.263994+00:00 TX 01 03 00 20 00 02 C5 C1
2026-07-24T17:51:43.271996+00:00 RX 01 03 04 00 00 0C C5 3F 60
2026-07-24T17:51:43.273996+00:00 TX 01 03 01 C4 00 01 C4 0B
2026-07-24T17:51:43.280998+00:00 RX 01 03 02 00 00 B8 44
2026-07-24T17:51:43.331011+00:00 TX 01 03 00 00 00 20 44 12
2026-07-24T17:51:43.376019+00:00 RX 01 03 40 00 00 00 00 00 03 00 00 00 03 00 00 00 00 00 00 00 00 00 00 00 00 00 00 00 01 00 00 01 00 05 0A 00 00 00 00 00 00 00 00 00 00 00 00 00 00 00 00 00 00 00 00 00 00 00 00 FF FF 58 8B FF FF 58 8B 24 03
2026-07-24T17:51:43.379017+00:00 TX 01 03 00 20 00 02 C5 C1
2026-07-24T17:51:43.386521+00:00 RX 01 03 04 00 00 0C C6 7F 61
2026-07-24T17:51:43.388521+00:00 TX 01 03 01 C4 00 01 C4 0B
2026-07-24T17:51:43.395523+00:00 RX 01 03 02 00 00 B8 44
2026-07-24T17:51:43.446030+00:00 TX 01 03 00 00 00 20 44 12
2026-07-24T17:51:43.491539+00:00 RX 01 03 40 00 00 00 00 00 03 00 00 00 03 00 00 00 00 00 00 00 00 00 00 00 00 00 00 00 01 00 00 01 00 05 0A 00 00 00 00 00 00 00 00 00 00 00 00 00 00 00 00 00 00 00 00 00 00 00 00 FF FF 58 5E FF FF 58 5E E8 4E
2026-07-24T17:51:43.493541+00:00 TX 01 03 00 20 00 02 C5 C1
2026-07-24T17:51:43.502542+00:00 RX 01 03 04 00 00 0C C7 BE A1
2026-07-24T17:51:43.505043+00:00 TX 01 03 01 C4 00 01 C4 0B
2026-07-24T17:51:43.511045+00:00 RX 01 03 02 00 00 B8 44
2026-07-24T17:51:43.562049+00:00 TX 01 03 00 00 00 20 44 12
2026-07-24T17:51:43.606376+00:00 RX 01 03 40 00 00 00 00 00 03 00 00 00 03 00 00 00 00 00 00 00 00 00 00 00 00 00 00 00 01 00 00 01 00 05 0A 00 00 00 00 00 00 00 00 00 00 00 00 00 00 00 00 00 00 00 00 00 00 00 00 FF FF 57 F3 FF FF 57 F3 81 24
2026-07-24T17:51:43.608376+00:00 TX 01 03 00 20 00 02 C5 C1
2026-07-24T17:51:43.615375+00:00 RX 01 03 04 00 00 0C C9 3F 65
2026-07-24T17:51:43.618375+00:00 TX 01 03 01 C4 00 01 C4 0B
2026-07-24T17:51:43.624877+00:00 RX 01 03 02 00 00 B8 44
2026-07-24T17:51:43.675391+00:00 TX 01 03 00 00 00 20 44 12
2026-07-24T17:51:43.720369+00:00 RX 01 03 40 00 00 00 00 00 03 00 00 00 03 00 00 00 00 00 00 00 00 00 00 00 00 00 00 00 01 00 00 01 00 05 0A 00 00 00 00 00 00 00 00 00 00 00 00 00 00 00 00 00 00 00 00 00 00 00 00 FF FF 55 EB FF FF 55 EB A1 AE
2026-07-24T17:51:43.722370+00:00 TX 01 03 00 20 00 02 C5 C1
2026-07-24T17:51:43.730372+00:00 RX 01 03 04 00 00 0C CA 7F 64
2026-07-24T17:51:43.732372+00:00 TX 01 03 01 C4 00 01 C4 0B
2026-07-24T17:51:43.738372+00:00 RX 01 03 02 00 00 B8 44
2026-07-24T17:51:43.788501+00:00 TX 01 03 00 00 00 20 44 12
2026-07-24T17:51:43.833524+00:00 RX 01 03 40 00 00 00 00 00 03 00 00 00 03 00 00 00 00 00 00 00 00 00 00 00 00 00 00 00 01 00 00 01 00 05 0A 00 00 00 00 00 00 00 00 00 00 00 00 00 00 00 00 00 00 00 00 00 00 00 00 FF FF 53 C9 FF FF 53 C9 DA 76
2026-07-24T17:51:43.836522+00:00 TX 01 03 00 20 00 02 C5 C1
2026-07-24T17:51:43.844524+00:00 RX 01 03 04 00 00 0C CB BE A4
2026-07-24T17:51:43.846524+00:00 TX 01 03 01 C4 00 01 C4 0B
2026-07-24T17:51:43.853028+00:00 RX 01 03 02 00 00 B8 44
2026-07-24T17:51:43.903039+00:00 TX 01 03 00 00 00 20 44 12
2026-07-24T17:51:43.947901+00:00 RX 01 03 40 00 00 00 00 00 03 00 00 00 03 00 00 00 00 00 00 00 00 00 00 00 00 00 00 00 01 00 00 01 00 05 0A 00 00 00 00 00 00 00 00 00 00 00 00 00 00 00 00 00 00 00 00 00 00 00 00 FF FF 58 CA FF FF 58 CA D8 3C
2026-07-24T17:51:43.950407+00:00 TX 01 03 00 20 00 02 C5 C1
2026-07-24T17:51:43.958405+00:00 RX 01 03 04 00 00 0C CC FF 66
2026-07-24T17:51:43.960405+00:00 TX 01 03 01 C4 00 01 C4 0B
2026-07-24T17:51:43.966404+00:00 RX 01 03 02 00 00 B8 44
2026-07-24T17:51:44.016914+00:00 TX 01 03 00 00 00 20 44 12
2026-07-24T17:51:44.061923+00:00 RX 01 03 40 00 00 00 00 00 03 00 00 00 03 00 00 00 00 00 00 00 00 00 00 00 00 00 00 00 01 00 00 01 00 05 0A 00 00 00 00 00 00 00 00 00 00 00 00 00 00 00 00 00 00 00 00 00 00 00 00 FF FF 57 3F FF FF 57 3F 91 61
2026-07-24T17:51:44.063924+00:00 TX 01 03 00 20 00 02 C5 C1
2026-07-24T17:51:44.071926+00:00 RX 01 03 04 00 00 0C CD 3E A6
2026-07-24T17:51:44.073926+00:00 TX 01 03 01 C4 00 01 C4 0B
2026-07-24T17:51:44.080928+00:00 RX 01 03 02 00 00 B8 44
2026-07-24T17:51:44.130940+00:00 TX 01 03 00 00 00 20 44 12
2026-07-24T17:51:44.176069+00:00 RX 01 03 40 00 00 00 00 00 03 00 00 00 03 00 00 00 00 00 00 00 00 00 00 00 00 00 00 00 01 00 00 01 00 05 0A 00 00 00 00 00 00 00 00 00 00 00 00 00 00 00 00 00 00 00 00 00 00 00 00 FF FF 57 E1 FF FF 57 E1 B9 2A
2026-07-24T17:51:44.178570+00:00 TX 01 03 00 20 00 02 C5 C1
2026-07-24T17:51:44.186572+00:00 RX 01 03 04 00 00 0C CE 7E A7
2026-07-24T17:51:44.188573+00:00 TX 01 03 01 C4 00 01 C4 0B
2026-07-24T17:51:44.195574+00:00 RX 01 03 02 00 00 B8 44
2026-07-24T17:51:44.245802+00:00 TX 01 03 00 00 00 20 44 12
2026-07-24T17:51:44.290316+00:00 RX 01 03 40 00 00 00 00 00 03 00 00 00 03 00 00 00 00 00 00 00 00 00 00 00 00 00 00 00 01 00 00 01 00 05 0A 00 00 00 00 00 00 00 00 00 00 00 00 00 00 00 00 00 00 00 00 00 00 00 00 FF FF 58 4B FF FF 58 4B 24 42
2026-07-24T17:51:44.293316+00:00 TX 01 03 00 20 00 02 C5 C1
2026-07-24T17:51:44.302318+00:00 RX 01 03 04 00 00 0C D0 FE AF
2026-07-24T17:51:44.304319+00:00 TX 01 03 01 C4 00 01 C4 0B
2026-07-24T17:51:44.311320+00:00 RX 01 03 02 00 00 B8 44
2026-07-24T17:51:44.361830+00:00 TX 01 03 00 00 00 20 44 12
2026-07-24T17:51:44.407357+00:00 RX 01 03 40 00 00 00 00 00 03 00 00 00 03 00 00 00 00 00 00 00 00 00 00 00 00 00 00 00 01 00 00 01 00 05 0A 00 00 00 00 00 00 00 00 00 00 00 00 00 00 00 00 00 00 00 00 00 00 00 00 FF FF 56 E8 FF FF 56 E8 A5 6C
2026-07-24T17:51:44.409358+00:00 TX 01 03 00 20 00 02 C5 C1
2026-07-24T17:51:44.417356+00:00 RX 01 03 04 00 00 0C D1 3F 6F
2026-07-24T17:51:44.419356+00:00 TX 01 03 01 C4 00 01 C4 0B
2026-07-24T17:51:44.425860+00:00 RX 01 03 02 00 00 B8 44
2026-07-24T17:51:44.476371+00:00 TX 01 03 00 00 00 20 44 12
2026-07-24T17:51:44.521880+00:00 RX 01 03 40 00 00 00 00 00 03 00 00 00 03 00 00 00 00 00 00 00 00 00 00 00 00 00 00 00 01 00 00 01 00 05 0A 00 00 00 00 00 00 00 00 00 00 00 00 00 00 00 00 00 00 00 00 00 00 00 00 FF FF 53 B7 FF FF 53 B7 72 5C
2026-07-24T17:51:44.523880+00:00 TX 01 03 00 20 00 02 C5 C1
2026-07-24T17:51:44.531882+00:00 RX 01 03 04 00 00 0C D2 7F 6E
2026-07-24T17:51:44.533883+00:00 TX 01 03 01 C4 00 01 C4 0B
2026-07-24T17:51:44.540881+00:00 RX 01 03 02 00 00 B8 44
2026-07-24T17:51:44.591439+00:00 TX 01 03 00 00 00 20 44 12
2026-07-24T17:51:44.636000+00:00 RX 01 03 40 00 00 00 00 00 03 00 00 00 03 00 00 00 00 00 00 00 00 00 00 00 00 00 00 00 01 00 00 01 00 05 0A 00 00 00 00 00 00 00 00 00 00 00 00 00 00 00 00 00 00 00 00 00 00 00 00 FF FF 55 74 FF FF 55 74 75 DA
2026-07-24T17:51:44.638001+00:00 TX 01 03 00 20 00 02 C5 C1
2026-07-24T17:51:44.646000+00:00 RX 01 03 04 00 00 0C D3 BE AE
2026-07-24T17:51:44.649000+00:00 TX 01 03 01 C4 00 01 C4 0B
2026-07-24T17:51:44.655504+00:00 RX 01 03 02 00 00 B8 44
2026-07-24T17:51:44.705516+00:00 TX 01 03 00 00 00 20 44 12
2026-07-24T17:51:44.750524+00:00 RX 01 03 40 00 00 00 00 00 03 00 00 00 03 00 00 00 00 00 00 00 00 00 00 00 00 00 00 00 01 00 00 01 00 05 0A 00 00 00 00 00 00 00 00 00 00 00 00 00 00 00 00 00 00 00 00 00 00 00 00 FF FF 55 59 FF FF 55 59 19 C1
2026-07-24T17:51:44.752524+00:00 TX 01 03 00 20 00 02 C5 C1
2026-07-24T17:51:44.761569+00:00 RX 01 03 04 00 00 0C D4 FF 6C
2026-07-24T17:51:44.764566+00:00 TX 01 03 01 C4 00 01 C4 0B
2026-07-24T17:51:44.771568+00:00 RX 01 03 02 00 00 B8 44
2026-07-24T17:51:44.821598+00:00 TX 01 03 00 00 00 20 44 12
2026-07-24T17:51:44.866606+00:00 RX 01 03 40 00 00 00 00 00 03 00 00 00 03 00 00 00 00 00 00 00 00 00 00 00 00 00 00 00 01 00 00 01 00 05 0A 00 00 00 00 00 00 00 00 00 00 00 00 00 00 00 00 00 00 00 00 00 00 00 00 FF FF 56 44 FF FF 56 44 35 09
2026-07-24T17:51:44.868607+00:00 TX 01 03 00 20 00 02 C5 C1
2026-07-24T17:51:44.875609+00:00 RX 01 03 04 00 00 0C D5 3E AC
2026-07-24T17:51:44.878609+00:00 TX 01 03 01 C4 00 01 C4 0B
2026-07-24T17:51:44.884611+00:00 RX 01 03 02 00 00 B8 44
2026-07-24T17:51:44.935623+00:00 TX 01 03 00 00 00 20 44 12
2026-07-24T17:51:44.979631+00:00 RX 01 03 40 00 00 00 00 00 03 00 00 00 03 00 00 00 00 00 00 00 00 00 00 00 00 00 00 00 01 00 00 01 00 05 0A 00 00 00 00 00 00 00 00 00 00 00 00 00 00 00 00 00 00 00 00 00 00 00 00 FF FF 55 AB FF FF 55 AB A1 91
2026-07-24T17:51:44.982632+00:00 TX 01 03 00 20 00 02 C5 C1
2026-07-24T17:51:44.990634+00:00 RX 01 03 04 00 00 0C D7 BF 6D
2026-07-24T17:51:44.992634+00:00 TX 01 03 01 C4 00 01 C4 0B
2026-07-24T17:51:44.999637+00:00 RX 01 03 02 00 00 B8 44
2026-07-24T17:51:45.050143+00:00 TX 01 03 00 00 00 20 44 12
2026-07-24T17:51:45.094654+00:00 RX 01 03 40 00 00 00 00 00 03 00 00 00 03 00 00 00 00 00 00 00 00 00 00 00 00 00 00 00 01 00 00 01 00 05 0A 00 00 00 00 00 00 00 00 00 00 00 00 00 00 00 00 00 00 00 00 00 00 00 00 FF FF 55 92 FF FF 55 92 FD 86
2026-07-24T17:51:45.097655+00:00 TX 01 03 00 20 00 02 C5 C1
2026-07-24T17:51:45.104656+00:00 RX 01 03 04 00 00 0C D8 FF 69
2026-07-24T17:51:45.107657+00:00 TX 01 03 01 C4 00 01 C4 0B
2026-07-24T17:51:45.113658+00:00 RX 01 03 02 00 00 B8 44
2026-07-24T17:51:45.165242+00:00 TX 01 03 00 00 00 20 44 12
2026-07-24T17:51:45.209946+00:00 RX 01 03 40 00 00 00 00 00 03 00 00 00 03 00 00 00 00 00 00 00 00 00 00 00 00 00 00 00 01 00 00 01 00 05 0A 00 00 00 00 00 00 00 00 00 00 00 00 00 00 00 00 00 00 00 00 00 00 00 00 FF FF 56 33 FF FF 56 33 81 24
2026-07-24T17:51:45.212943+00:00 TX 01 03 00 20 00 02 C5 C1
2026-07-24T17:51:45.220945+00:00 RX 01 03 04 00 00 0C D9 3E A9
2026-07-24T17:51:45.222946+00:00 TX 01 03 01 C4 00 01 C4 0B
2026-07-24T17:51:45.229447+00:00 RX 01 03 02 00 00 B8 44
2026-07-24T17:51:45.279957+00:00 TX 01 03 00 00 00 20 44 12
2026-07-24T17:51:45.324968+00:00 RX 01 03 40 00 00 00 00 00 03 00 00 00 03 00 00 00 00 00 00 00 00 00 00 00 00 00 00 00 01 00 00 01 00 05 0A 00 00 00 00 00 00 00 00 00 00 00 00 00 00 00 00 00 00 00 00 00 00 00 00 FF FF 55 D9 FF FF 55 D9 19 BF
2026-07-24T17:51:45.326968+00:00 TX 01 03 00 20 00 02 C5 C1
2026-07-24T17:51:45.333971+00:00 RX 01 03 04 00 00 0C DA 7E A8
2026-07-24T17:51:45.336972+00:00 TX 01 03 01 C4 00 01 C4 0B
2026-07-24T17:51:45.343969+00:00 RX 01 03 02 00 00 B8 44
2026-07-24T17:51:45.394481+00:00 TX 01 03 00 00 00 20 44 12
2026-07-24T17:51:45.439989+00:00 RX 01 03 40 00 00 00 00 00 03 00 00 00 03 00 00 00 00 00 00 00 00 00 00 00 00 00 00 00 01 00 00 01 00 05 0A 00 00 00 00 00 00 00 00 00 00 00 00 00 00 00 00 00 00 00 00 00 00 00 00 FF FF 54 80 FF FF 54 80 C5 C9
2026-07-24T17:51:45.442986+00:00 TX 01 03 00 20 00 02 C5 C1
2026-07-24T17:51:45.450988+00:00 RX 01 03 04 00 00 0C DB BF 68
2026-07-24T17:51:45.452988+00:00 TX 01 03 01 C4 00 01 C4 0B
2026-07-24T17:51:45.459492+00:00 RX 01 03 02 00 00 B8 44
2026-07-24T17:51:45.510003+00:00 TX 01 03 00 00 00 20 44 12
2026-07-24T17:51:45.555011+00:00 RX 01 03 40 00 00 00 00 00 03 00 00 00 03 00 00 00 00 00 00 00 00 00 00 00 00 00 00 00 01 00 00 01 00 05 0A 00 00 00 00 00 00 00 00 00 00 00 00 00 00 00 00 00 00 00 00 00 00 00 00 FF FF 54 0F FF FF 54 0F D1 B2
2026-07-24T17:51:45.557513+00:00 TX 01 03 00 20 00 02 C5 C1
2026-07-24T17:51:45.565512+00:00 RX 01 03 04 00 00 0C DC FE AA
2026-07-24T17:51:45.567512+00:00 TX 01 03 01 C4 00 01 C4 0B
2026-07-24T17:51:45.574514+00:00 RX 01 03 02 00 00 B8 44
2026-07-24T17:51:45.625223+00:00 TX 01 03 00 00 00 20 44 12
2026-07-24T17:51:45.670772+00:00 RX 01 03 40 00 00 00 00 00 03 00 00 00 03 00 00 00 00 00 00 00 00 00 00 00 00 00 00 00 01 00 00 01 00 05 0A 00 00 00 00 00 00 00 00 00 00 00 00 00 00 00 00 00 00 00 00 00 00 00 00 FF FF 52 F5 FF FF 52 F5 8A 23
2026-07-24T17:51:45.672773+00:00 TX 01 03 00 20 00 02 C5 C1
2026-07-24T17:51:45.680775+00:00 RX 01 03 04 00 00 0C DE 7F 6B
2026-07-24T17:51:45.683775+00:00 TX 01 03 01 C4 00 01 C4 0B
2026-07-24T17:51:45.690777+00:00 RX 01 03 02 00 00 B8 44
2026-07-24T17:51:45.741600+00:00 TX 01 03 00 00 00 20 44 12
2026-07-24T17:51:45.786117+00:00 RX 01 03 40 00 00 00 00 00 03 00 00 00 03 00 00 00 00 00 00 00 00 00 00 00 00 00 00 00 01 00 00 01 00 05 0A 00 00 00 00 00 00 00 00 00 00 00 00 00 00 00 00 00 00 00 00 00 00 00 00 FF FF 52 BB FF FF 52 BB 62 19
2026-07-24T17:51:45.788118+00:00 TX 01 03 00 20 00 02 C5 C1
2026-07-24T17:51:45.796120+00:00 RX 01 03 04 00 00 0C DF BE AB
2026-07-24T17:51:45.798120+00:00 TX 01 03 01 C4 00 01 C4 0B
2026-07-24T17:51:45.804121+00:00 RX 01 03 02 00 00 B8 44
2026-07-24T17:51:45.854171+00:00 TX 01 03 00 00 00 20 44 12
2026-07-24T17:51:45.898683+00:00 RX 01 03 40 00 00 00 00 00 03 00 00 00 03 00 00 00 00 00 00 00 00 00 00 00 00 00 00 00 01 00 00 01 00 05 0A 00 00 00 00 00 00 00 00 00 00 00 00 00 00 00 00 00 00 00 00 00 00 00 00 FF FF 54 F2 FF FF 54 F2 7D E7
2026-07-24T17:51:45.901683+00:00 TX 01 03 00 20 00 02 C5 C1
2026-07-24T17:51:45.908685+00:00 RX 01 03 04 00 00 0C E0 FE BB
2026-07-24T17:51:45.911686+00:00 TX 01 03 01 C4 00 01 C4 0B
2026-07-24T17:51:45.917687+00:00 RX 01 03 02 00 00 B8 44
2026-07-24T17:51:45.969194+00:00 TX 01 03 00 00 00 20 44 12
2026-07-24T17:51:46.013703+00:00 RX 01 03 40 00 00 00 00 00 03 00 00 00 03 00 00 00 00 00 00 00 00 00 00 00 00 00 00 00 01 00 00 01 00 05 0A 00 00 00 00 00 00 00 00 00 00 00 00 00 00 00 00 00 00 00 00 00 00 00 00 FF FF 56 08 FF FF 56 08 25 32
2026-07-24T17:51:46.015703+00:00 TX 01 03 00 20 00 02 C5 C1
2026-07-24T17:51:46.022705+00:00 RX 01 03 04 00 00 0C E1 3F 7B
2026-07-24T17:51:46.024706+00:00 TX 01 03 01 C4 00 01 C4 0B
2026-07-24T17:51:46.031210+00:00 RX 01 03 02 00 00 B8 44
2026-07-24T17:51:46.081721+00:00 TX 01 03 00 00 00 20 44 12
2026-07-24T17:51:46.126240+00:00 RX 01 03 40 00 00 00 00 00 03 00 00 00 03 00 00 00 00 00 00 00 00 00 00 00 00 00 00 00 01 00 00 01 00 05 0A 00 00 00 00 00 00 00 00 00 00 00 00 00 00 00 00 00 00 00 00 00 00 00 00 FF FF 55 47 FF FF 55 47 31 CB
2026-07-24T17:51:46.128241+00:00 TX 01 03 00 20 00 02 C5 C1
2026-07-24T17:51:46.136243+00:00 RX 01 03 04 00 00 0C E2 7F 7A
2026-07-24T17:51:46.138243+00:00 TX 01 03 01 C4 00 01 C4 0B
2026-07-24T17:51:46.144314+00:00 RX 01 03 02 00 00 B8 44
2026-07-24T17:51:46.194855+00:00 TX 01 03 00 00 00 20 44 12
2026-07-24T17:51:46.239867+00:00 RX 01 03 40 00 00 00 00 00 03 00 00 00 03 00 00 00 00 00 00 00 00 00 00 00 00 00 00 00 01 00 00 01 00 05 0A 00 00 00 00 00 00 00 00 00 00 00 00 00 00 00 00 00 00 00 00 00 00 00 00 FF FF 52 8F FF FF 52 8F D2 0A
2026-07-24T17:51:46.241868+00:00 TX 01 03 00 20 00 02 C5 C1
2026-07-24T17:51:46.248866+00:00 RX 01 03 04 00 00 0C E3 BE BA
2026-07-24T17:51:46.251867+00:00 TX 01 03 01 C4 00 01 C4 0B
2026-07-24T17:51:46.258373+00:00 RX 01 03 02 00 00 B8 44
2026-07-24T17:51:46.308381+00:00 TX 01 03 00 00 00 20 44 12
2026-07-24T17:51:46.353390+00:00 RX 01 03 40 00 00 00 00 00 03 00 00 00 03 00 00 00 00 00 00 00 00 00 00 00 00 00 00 00 01 00 00 01 00 05 0A 00 00 00 00 00 00 00 00 00 00 00 00 00 00 00 00 00 00 00 00 00 00 00 00 FF FF 51 77 FF FF 51 77 72 9F
2026-07-24T17:51:46.355390+00:00 TX 01 03 00 20 00 02 C5 C1
2026-07-24T17:51:46.362895+00:00 RX 01 03 04 00 00 0C E5 3E B8
2026-07-24T17:51:46.365893+00:00 TX 01 03 01 C4 00 01 C4 0B
2026-07-24T17:51:46.371894+00:00 RX 01 03 02 00 00 B8 44
2026-07-24T17:51:46.421905+00:00 TX 01 03 00 00 00 20 44 12
2026-07-24T17:51:46.466915+00:00 RX 01 03 40 00 00 00 00 00 03 00 00 00 03 00 00 00 00 00 00 00 00 00 00 00 00 00 00 00 01 00 00 01 00 05 0A 00 00 00 00 00 00 00 00 00 00 00 00 00 00 00 00 00 00 00 00 00 00 00 00 FF FF 52 84 FF FF 52 84 36 0C
2026-07-24T17:51:46.468916+00:00 TX 01 03 00 20 00 02 C5 C1
2026-07-24T17:51:46.476917+00:00 RX 01 03 04 00 00 0C E6 7E B9
2026-07-24T17:51:46.478918+00:00 TX 01 03 01 C4 00 01 C4 0B
2026-07-24T17:51:46.484919+00:00 RX 01 03 02 00 00 B8 44
2026-07-24T17:51:46.534962+00:00 TX 01 03 00 00 00 20 44 12
2026-07-24T17:51:46.580069+00:00 RX 01 03 40 00 00 00 00 00 03 00 00 00 03 00 00 00 00 00 00 00 00 00 00 00 00 00 00 00 01 00 00 01 00 05 0A 00 00 00 00 00 00 00 00 00 00 00 00 00 00 00 00 00 00 00 00 00 00 00 00 FF FF 52 CE FF FF 52 CE 2E 35
2026-07-24T17:51:46.582070+00:00 TX 01 03 00 20 00 02 C5 C1
2026-07-24T17:51:46.590072+00:00 RX 01 03 04 00 00 0C E7 BF 79
2026-07-24T17:51:46.594073+00:00 TX 01 03 01 C4 00 01 C4 0B
2026-07-24T17:51:46.601074+00:00 RX 01 03 02 00 00 B8 44
2026-07-24T17:51:46.651112+00:00 TX 01 03 00 00 00 20 44 12
2026-07-24T17:51:46.696301+00:00 RX 01 03 40 00 00 00 00 00 03 00 00 00 03 00 00 00 00 00 00 00 00 00 00 00 00 00 00 00 01 00 00 01 00 05 0A 00 00 00 00 00 00 00 00 00 00 00 00 00 00 00 00 00 00 00 00 00 00 00 00 FF FF 52 53 FF FF 52 53 02 40
2026-07-24T17:51:46.698302+00:00 TX 01 03 00 20 00 02 C5 C1
2026-07-24T17:51:46.705303+00:00 RX 01 03 04 00 00 0C E8 FF 7D
2026-07-24T17:51:46.707304+00:00 TX 01 03 01 C4 00 01 C4 0B
2026-07-24T17:51:46.713305+00:00 RX 01 03 02 00 00 B8 44
2026-07-24T17:51:46.763325+00:00 TX 01 03 00 00 00 20 44 12
2026-07-24T17:51:46.808351+00:00 RX 01 03 40 00 00 00 00 00 03 00 00 00 03 00 00 00 00 00 00 00 00 00 00 00 00 00 00 00 01 00 00 01 00 05 0A 00 00 00 00 00 00 00 00 00 00 00 00 00 00 00 00 00 00 00 00 00 00 00 00 FF FF 53 51 FF FF 53 51 FA 00
2026-07-24T17:51:46.810352+00:00 TX 01 03 00 20 00 02 C5 C1
2026-07-24T17:51:46.818350+00:00 RX 01 03 04 00 00 0C E9 3E BD
2026-07-24T17:51:46.820350+00:00 TX 01 03 01 C4 00 01 C4 0B
2026-07-24T17:51:46.826352+00:00 RX 01 03 02 00 00 B8 44
2026-07-24T17:51:46.876362+00:00 TX 01 03 00 00 00 20 44 12
2026-07-24T17:51:46.921373+00:00 RX 01 03 40 00 00 00 00 00 03 00 00 00 03 00 00 00 00 00 00 00 00 00 00 00 00 00 00 00 01 00 00 01 00 05 0A 00 00 00 00 00 00 00 00 00 00 00 00 00 00 00 00 00 00 00 00 00 00 00 00 FF FF 53 9A FF FF 53 9A 1E 47
2026-07-24T17:51:46.924373+00:00 TX 01 03 00 20 00 02 C5 C1
2026-07-24T17:51:46.932375+00:00 RX 01 03 04 00 00 0C EA 7E BC
2026-07-24T17:51:46.934375+00:00 TX 01 03 01 C4 00 01 C4 0B
2026-07-24T17:51:46.941377+00:00 RX 01 03 02 00 00 B8 44
2026-07-24T17:51:46.991385+00:00 TX 01 03 00 00 00 20 44 12
2026-07-24T17:51:47.035673+00:00 RX 01 03 40 00 00 00 00 00 03 00 00 00 03 00 00 00 00 00 00 00 00 00 00 00 00 00 00 00 01 00 00 01 00 05 0A 00 00 00 00 00 00 00 00 00 00 00 00 00 00 00 00 00 00 00 00 00 00 00 00 FF FF 53 D9 FF FF 53 D9 1A 79
2026-07-24T17:51:47.038674+00:00 TX 01 03 00 20 00 02 C5 C1
2026-07-24T17:51:47.046676+00:00 RX 01 03 04 00 00 0C EB BF 7C
2026-07-24T17:51:47.049675+00:00 TX 01 03 01 C4 00 01 C4 0B
2026-07-24T17:51:47.056676+00:00 RX 01 03 02 00 00 B8 44
2026-07-24T17:51:47.107190+00:00 TX 01 03 00 00 00 20 44 12
2026-07-24T17:51:47.152328+00:00 RX 01 03 40 00 00 00 00 00 03 00 00 00 03 00 00 00 00 00 00 00 00 00 00 00 00 00 00 00 01 00 00 01 00 05 0A 00 00 00 00 00 00 00 00 00 00 00 00 00 00 00 00 00 00 00 00 00 00 00 00 FF FF 55 C2 FF FF 55 C2 3D B6
2026-07-24T17:51:47.154329+00:00 TX 01 03 00 20 00 02 C5 C1
2026-07-24T17:51:47.162831+00:00 RX 01 03 04 00 00 0C ED 3F 7E
2026-07-24T17:51:47.164832+00:00 TX 01 03 01 C4 00 01 C4 0B
2026-07-24T17:51:47.171346+00:00 RX 01 03 02 00 00 B8 44
2026-07-24T17:51:47.221861+00:00 TX 01 03 00 00 00 20 44 12
2026-07-24T17:51:47.266885+00:00 RX 01 03 40 00 00 00 00 00 03 00 00 00 03 00 00 00 00 00 00 00 00 00 00 00 00 00 00 00 01 00 00 01 00 05 0A 00 00 00 00 00 00 00 00 00 00 00 00 00 00 00 00 00 00 00 00 00 00 00 00 FF FF 56 C3 FF FF 56 C3 C1 75
2026-07-24T17:51:47.269886+00:00 TX 01 03 00 20 00 02 C5 C1
2026-07-24T17:51:47.277888+00:00 RX 01 03 04 00 00 0C EE 7F 7F
2026-07-24T17:51:47.280889+00:00 TX 01 03 01 C4 00 01 C4 0B
2026-07-24T17:51:47.287890+00:00 RX 01 03 02 00 00 B8 44
2026-07-24T17:51:47.337901+00:00 TX 01 03 00 00 00 20 44 12
2026-07-24T17:51:47.382910+00:00 RX 01 03 40 00 00 00 00 00 03 00 00 00 03 00 00 00 00 00 00 00 00 00 00 00 00 00 00 00 01 00 00 01 00 05 0A 00 00 00 00 00 00 00 00 00 00 00 00 00 00 00 00 00 00 00 00 00 00 00 00 FF FF 54 B9 FF FF 54 B9 99 DE
2026-07-24T17:51:47.384910+00:00 TX 01 03 00 20 00 02 C5 C1
2026-07-24T17:51:47.392912+00:00 RX 01 03 04 00 00 0C EF BE BF
2026-07-24T17:51:47.394913+00:00 TX 01 03 01 C4 00 01 C4 0B
2026-07-24T17:51:47.401914+00:00 RX 01 03 02 00 00 B8 44
2026-07-24T17:51:47.452421+00:00 TX 01 03 00 00 00 20 44 12
2026-07-24T17:51:47.496605+00:00 RX 01 03 40 00 00 00 00 00 03 00 00 00 03 00 00 00 00 00 00 00 00 00 00 00 00 00 00 00 01 00 00 01 00 05 0A 00 00 00 00 00 00 00 00 00 00 00 00 00 00 00 00 00 00 00 00 00 00 00 00 FF FF 54 AB FF FF 54 AB A1 D0
2026-07-24T17:51:47.499606+00:00 TX 01 03 00 20 00 02 C5 C1
2026-07-24T17:51:47.507108+00:00 RX 01 03 04 00 00 0C F0 FF 77
2026-07-24T17:51:47.509108+00:00 TX 01 03 01 C4 00 01 C4 0B
2026-07-24T17:51:47.515111+00:00 RX 01 03 02 00 00 B8 44
2026-07-24T17:51:47.565620+00:00 TX 01 03 00 00 00 20 44 12
2026-07-24T17:51:47.609698+00:00 RX 01 03 40 00 00 00 00 00 03 00 00 00 03 00 00 00 00 00 00 00 00 00 00 00 00 00 00 00 01 00 00 01 00 05 0A 00 00 00 00 00 00 00 00 00 00 00 00 00 00 00 00 00 00 00 00 00 00 00 00 FF FF 54 3B FF FF 54 3B 61 A1
2026-07-24T17:51:47.612698+00:00 TX 01 03 00 20 00 02 C5 C1
2026-07-24T17:51:47.620697+00:00 RX 01 03 04 00 00 0C F1 3E B7
2026-07-24T17:51:47.623697+00:00 TX 01 03 01 C4 00 01 C4 0B
2026-07-24T17:51:47.630200+00:00 RX 01 03 02 00 00 B8 44
2026-07-24T17:51:47.681212+00:00 TX 01 03 00 00 00 20 44 12
2026-07-24T17:51:47.726227+00:00 RX 01 03 40 00 00 00 00 00 03 00 00 00 03 00 00 00 00 00 00 00 00 00 00 00 00 00 00 00 01 00 00 01 00 05 0A 00 00 00 00 00 00 00 00 00 00 00 00 00 00 00 00 00 00 00 00 00 00 00 00 FF FF 52 4C FF FF 52 4C D6 4A
2026-07-24T17:51:47.728228+00:00 TX 01 03 00 20 00 02 C5 C1
2026-07-24T17:51:47.736229+00:00 RX 01 03 04 00 00 0C F3 BF 76
2026-07-24T17:51:47.739228+00:00 TX 01 03 01 C4 00 01 C4 0B
2026-07-24T17:51:47.745230+00:00 RX 01 03 02 00 00 B8 44
2026-07-24T17:51:47.795750+00:00 TX 01 03 00 00 00 20 44 12
2026-07-24T17:51:47.840774+00:00 RX 01 03 40 00 00 00 00 00 03 00 00 00 03 00 00 00 00 00 00 00 00 00 00 00 00 00 00 00 01 00 00 01 00 05 0A 00 00 00 00 00 00 00 00 00 00 00 00 00 00 00 00 00 00 00 00 00 00 00 00 FF FF 52 FB FF FF 52 FB 62 26
2026-07-24T17:51:47.842774+00:00 TX 01 03 00 20 00 02 C5 C1
2026-07-24T17:51:47.850773+00:00 RX 01 03 04 00 00 0C F4 FE B4
2026-07-24T17:51:47.852774+00:00 TX 01 03 01 C4 00 01 C4 0B
2026-07-24T17:51:47.858775+00:00 RX 01 03 02 00 00 B8 44
2026-07-24T17:51:47.909288+00:00 TX 01 03 00 00 00 20 44 12
2026-07-24T17:51:47.954295+00:00 RX 01 03 40 00 00 00 00 00 03 00 00 00 03 00 00 00 00 00 00 00 00 00 00 00 00 00 00 00 01 00 00 01 00 05 0A 00 00 00 00 00 00 00 00 00 00 00 00 00 00 00 00 00 00 00 00 00 00 00 00 FF FF 52 C2 FF FF 52 C2 3E 31
2026-07-24T17:51:47.956295+00:00 TX 01 03 00 20 00 02 C5 C1
2026-07-24T17:51:47.964297+00:00 RX 01 03 04 00 00 0C F5 3F 74
2026-07-24T17:51:47.966800+00:00 TX 01 03 01 C4 00 01 C4 0B
2026-07-24T17:51:47.972801+00:00 RX 01 03 02 00 00 B8 44
2026-07-24T17:51:48.023311+00:00 TX 01 03 00 00 00 20 44 12
2026-07-24T17:51:48.068321+00:00 RX 01 03 40 00 00 00 00 00 03 00 00 00 03 00 00 00 00 00 00 00 00 00 00 00 00 00 00 00 01 00 00 01 00 05 0A 00 00 00 00 00 00 00 00 00 00 00 00 00 00 00 00 00 00 00 00 00 00 00 00 FF FF 52 CC FF FF 52 CC D6 34
2026-07-24T17:51:48.070321+00:00 TX 01 03 00 20 00 02 C5 C1
2026-07-24T17:51:48.077323+00:00 RX 01 03 04 00 00 0C F6 7F 75
2026-07-24T17:51:48.079324+00:00 TX 01 03 01 C4 00 01 C4 0B
2026-07-24T17:51:48.086325+00:00 RX 01 03 02 00 00 B8 44
2026-07-24T17:51:48.136643+00:00 TX 01 03 00 00 00 20 44 12
2026-07-24T17:51:48.182253+00:00 RX 01 03 40 00 00 00 00 00 03 00 00 00 03 00 00 00 00 00 00 00 00 00 00 00 00 00 00 00 01 00 00 01 00 05 0A 00 00 00 00 00 00 00 00 00 00 00 00 00 00 00 00 00 00 00 00 00 00 00 00 FF FF 52 FF FF FF 52 FF 92 25
2026-07-24T17:51:48.184754+00:00 TX 01 03 00 20 00 02 C5 C1
2026-07-24T17:51:48.192756+00:00 RX 01 03 04 00 00 0C F7 BE B5
2026-07-24T17:51:48.194756+00:00 TX 01 03 01 C4 00 01 C4 0B
2026-07-24T17:51:48.201758+00:00 RX 01 03 02 00 00 B8 44
2026-07-24T17:51:48.252266+00:00 TX 01 03 00 00 00 20 44 12
2026-07-24T17:51:48.296778+00:00 RX 01 03 40 00 00 00 00 00 03 00 00 00 03 00 00 00 00 00 00 00 00 00 00 00 00 00 00 00 01 00 00 01 00 05 0A 00 00 00 00 00 00 00 00 00 00 00 00 00 00 00 00 00 00 00 00 00 00 00 00 FF FF 53 57 FF FF 53 57 F2 02
2026-07-24T17:51:48.299779+00:00 TX 01 03 00 20 00 02 C5 C1
2026-07-24T17:51:48.307780+00:00 RX 01 03 04 00 00 0C F8 FE B1
2026-07-24T17:51:48.309781+00:00 TX 01 03 01 C4 00 01 C4 0B
2026-07-24T17:51:48.315782+00:00 RX 01 03 02 00 00 B8 44
2026-07-24T17:51:48.366541+00:00 TX 01 03 00 00 00 20 44 12
2026-07-24T17:51:48.410555+00:00 RX 01 03 40 00 00 00 00 00 03 00 00 00 03 00 00 00 00 00 00 00 00 00 00 00 00 00 00 00 01 00 00 01 00 05 0A 00 00 00 00 00 00 00 00 00 00 00 00 00 00 00 00 00 00 00 00 00 00 00 00 FF FF 52 1F FF FF 52 1F 12 7B
2026-07-24T17:51:48.413556+00:00 TX 01 03 00 20 00 02 C5 C1
2026-07-24T17:51:48.422554+00:00 RX 01 03 04 00 00 0C F9 3F 71
2026-07-24T17:51:48.424555+00:00 TX 01 03 01 C4 00 01 C4 0B
2026-07-24T17:51:48.430557+00:00 RX 01 03 02 00 00 B8 44
2026-07-24T17:51:48.480568+00:00 TX 01 03 00 00 00 20 44 12
2026-07-24T17:51:48.526076+00:00 RX 01 03 40 00 00 00 00 00 03 00 00 00 03 00 00 00 00 00 00 00 00 00 00 00 00 00 00 00 01 00 00 01 00 05 0A 00 00 00 00 00 00 00 00 00 00 00 00 00 00 00 00 00 00 00 00 00 00 00 00 FF FF 52 4E FF FF 52 4E 2E 4B
2026-07-24T17:51:48.528077+00:00 TX 01 03 00 20 00 02 C5 C1
2026-07-24T17:51:48.536079+00:00 RX 01 03 04 00 00 0C FB BE B0
2026-07-24T17:51:48.539076+00:00 TX 01 03 01 C4 00 01 C4 0B
2026-07-24T17:51:48.545078+00:00 RX 01 03 02 00 00 B8 44
2026-07-24T17:51:48.595650+00:00 TX 01 03 00 00 00 20 44 12
2026-07-24T17:51:48.640902+00:00 RX 01 03 40 00 00 00 00 00 03 00 00 00 03 00 00 00 00 00 00 00 00 00 00 00 00 00 00 00 01 00 00 01 00 05 0A 00 00 00 00 00 00 00 00 00 00 00 00 00 00 00 00 00 00 00 00 00 00 00 00 FF FF 51 C9 FF FF 51 C9 DA F4
2026-07-24T17:51:48.642902+00:00 TX 01 03 00 20 00 02 C5 C1
2026-07-24T17:51:48.650904+00:00 RX 01 03 04 00 00 0C FC FF 72
2026-07-24T17:51:48.653901+00:00 TX 01 03 01 C4 00 01 C4 0B
2026-07-24T17:51:48.660903+00:00 RX 01 03 02 00 00 B8 44
2026-07-24T17:51:48.711416+00:00 TX 01 03 00 00 00 20 44 12
2026-07-24T17:51:48.756019+00:00 RX 01 03 40 00 00 00 00 00 03 00 00 00 03 00 00 00 00 00 00 00 00 00 00 00 00 00 00 00 01 00 00 01 00 05 0A 00 00 00 00 00 00 00 00 00 00 00 00 00 00 00 00 00 00 00 00 00 00 00 00 FF FF 51 FF FF FF 51 FF 92 E6
2026-07-24T17:51:48.758019+00:00 TX 01 03 00 20 00 02 C5 C1
2026-07-24T17:51:48.766021+00:00 RX 01 03 04 00 00 0C FD 3E B2
2026-07-24T17:51:48.768562+00:00 TX 01 03 01 C4 00 01 C4 0B
2026-07-24T17:51:48.774563+00:00 RX 01 03 02 00 00 B8 44
2026-07-24T17:51:48.825593+00:00 TX 01 03 00 00 00 20 44 12
2026-07-24T17:51:48.870120+00:00 RX 01 03 40 00 00 00 00 00 03 00 00 00 03 00 00 00 00 00 00 00 00 00 00 00 00 00 00 00 01 00 00 01 00 05 0A 00 00 00 00 00 00 00 00 00 00 00 00 00 00 00 00 00 00 00 00 00 00 00 00 FF FF 52 CF FF FF 52 CF D2 35
2026-07-24T17:51:48.873121+00:00 TX 01 03 00 20 00 02 C5 C1
2026-07-24T17:51:48.881122+00:00 RX 01 03 04 00 00 0C FE 7E B3
2026-07-24T17:51:48.883123+00:00 TX 01 03 01 C4 00 01 C4 0B
2026-07-24T17:51:48.890125+00:00 RX 01 03 02 00 00 B8 44
2026-07-24T17:51:48.940137+00:00 TX 01 03 00 00 00 20 44 12
2026-07-24T17:51:48.985148+00:00 RX 01 03 40 00 00 00 00 00 03 00 00 00 03 00 00 00 00 00 00 00 00 00 00 00 00 00 00 00 01 00 00 01 00 05 0A 00 00 00 00 00 00 00 00 00 00 00 00 00 00 00 00 00 00 00 00 00 00 00 00 FF FF 52 D4 FF FF 52 D4 F6 3C
2026-07-24T17:51:48.987148+00:00 TX 01 03 00 20 00 02 C5 C1
2026-07-24T17:51:48.995150+00:00 RX 01 03 04 00 00 0C FF BF 73
2026-07-24T17:51:48.997151+00:00 TX 01 03 01 C4 00 01 C4 0B
2026-07-24T17:51:49.003152+00:00 RX 01 03 02 00 00 B8 44
2026-07-24T17:51:49.053659+00:00 TX 01 03 00 00 00 20 44 12
2026-07-24T17:51:49.098169+00:00 RX 01 03 40 00 00 00 00 00 03 00 00 00 03 00 00 00 00 00 00 00 00 00 00 00 00 00 00 00 01 00 00 01 00 05 0A 00 00 00 00 00 00 00 00 00 00 00 00 00 00 00 00 00 00 00 00 00 00 00 00 FF FF 53 26 FF FF 53 26 4E 2D
2026-07-24T17:51:49.100169+00:00 TX 01 03 00 20 00 02 C5 C1
2026-07-24T17:51:49.108171+00:00 RX 01 03 04 00 00 0D 00 FE A3
2026-07-24T17:51:49.110202+00:00 TX 01 03 01 C4 00 01 C4 0B
2026-07-24T17:51:49.116200+00:00 RX 01 03 02 00 00 B8 44
2026-07-24T17:51:49.166288+00:00 TX 01 03 00 00 00 20 44 12
2026-07-24T17:51:49.211388+00:00 RX 01 03 40 00 00 00 00 00 03 00 00 00 03 00 00 00 00 00 00 00 00 00 00 00 00 00 00 00 01 00 00 01 00 05 0A 00 00 00 00 00 00 00 00 00 00 00 00 00 00 00 00 00 00 00 00 00 00 00 00 FF FF 53 9D FF FF 53 9D EA 45
2026-07-24T17:51:49.213389+00:00 TX 01 03 00 20 00 02 C5 C1
2026-07-24T17:51:49.222387+00:00 RX 01 03 04 00 00 0D 02 7F 62
2026-07-24T17:51:49.224388+00:00 TX 01 03 01 C4 00 01 C4 0B
2026-07-24T17:51:49.231389+00:00 RX 01 03 02 00 00 B8 44
2026-07-24T17:51:49.281401+00:00 TX 01 03 00 00 00 20 44 12
2026-07-24T17:51:49.326411+00:00 RX 01 03 40 00 00 00 00 00 03 00 00 00 03 00 00 00 00 00 00 00 00 00 00 00 00 00 00 00 01 00 00 01 00 05 0A 00 00 00 00 00 00 00 00 00 00 00 00 00 00 00 00 00 00 00 00 00 00 00 00 FF FF 52 68 FF FF 52 68 A6 56
2026-07-24T17:51:49.328411+00:00 TX 01 03 00 20 00 02 C5 C1
2026-07-24T17:51:49.336413+00:00 RX 01 03 04 00 00 0D 03 BE A2
2026-07-24T17:51:49.338414+00:00 TX 01 03 01 C4 00 01 C4 0B
2026-07-24T17:51:49.345415+00:00 RX 01 03 02 00 00 B8 44
2026-07-24T17:51:49.395425+00:00 TX 01 03 00 00 00 20 44 12
2026-07-24T17:51:49.440935+00:00 RX 01 03 40 00 00 00 00 00 03 00 00 00 03 00 00 00 00 00 00 00 00 00 00 00 00 00 00 00 01 00 00 01 00 05 0A 00 00 00 00 00 00 00 00 00 00 00 00 00 00 00 00 00 00 00 00 00 00 00 00 FF FF 51 39 FF FF 51 39 9A A5
2026-07-24T17:51:49.442935+00:00 TX 01 03 00 20 00 02 C5 C1
2026-07-24T17:51:49.450937+00:00 RX 01 03 04 00 00 0D 04 FF 60
2026-07-24T17:51:49.452937+00:00 TX 01 03 01 C4 00 01 C4 0B
2026-07-24T17:51:49.458936+00:00 RX 01 03 02 00 00 B8 44
2026-07-24T17:51:49.509158+00:00 TX 01 03 00 00 00 20 44 12
2026-07-24T17:51:49.554169+00:00 RX 01 03 40 00 00 00 00 00 03 00 00 00 03 00 00 00 00 00 00 00 00 00 00 00 00 00 00 00 01 00 00 01 00 05 0A 00 00 00 00 00 00 00 00 00 00 00 00 00 00 00 00 00 00 00 00 00 00 00 00 FF FF 51 A6 FF FF 51 A6 4E D1
2026-07-24T17:51:49.557165+00:00 TX 01 03 00 20 00 02 C5 C1
2026-07-24T17:51:49.565168+00:00 RX 01 03 04 00 00 0D 05 3E A0
2026-07-24T17:51:49.568168+00:00 TX 01 03 01 C4 00 01 C4 0B
2026-07-24T17:51:49.574670+00:00 RX 01 03 02 00 00 B8 44
2026-07-24T17:51:49.624730+00:00 TX 01 03 00 00 00 20 44 12
2026-07-24T17:51:49.669269+00:00 RX 01 03 40 00 00 00 00 00 03 00 00 00 03 00 00 00 00 00 00 00 00 00 00 00 00 00 00 00 01 00 00 01 00 05 0A 00 00 00 00 00 00 00 00 00 00 00 00 00 00 00 00 00 00 00 00 00 00 00 00 FF FF 52 84 FF FF 52 84 36 0C
2026-07-24T17:51:49.671770+00:00 TX 01 03 00 20 00 02 C5 C1
2026-07-24T17:51:49.678772+00:00 RX 01 03 04 00 00 0D 06 7E A1
2026-07-24T17:51:49.680773+00:00 TX 01 03 01 C4 00 01 C4 0B
2026-07-24T17:51:49.686775+00:00 RX 01 03 02 00 00 B8 44
2026-07-24T17:51:49.737520+00:00 TX 01 03 00 00 00 20 44 12
2026-07-24T17:51:49.781554+00:00 RX 01 03 40 00 00 00 00 00 03 00 00 00 03 00 00 00 00 00 00 00 00 00 00 00 00 00 00 00 01 00 00 01 00 05 0A 00 00 00 00 00 00 00 00 00 00 00 00 00 00 00 00 00 00 00 00 00 00 00 00 FF FF 52 D6 FF FF 52 D6 0E 3D
2026-07-24T17:51:49.785055+00:00 TX 01 03 00 20 00 02 C5 C1
2026-07-24T17:51:49.793058+00:00 RX 01 03 04 00 00 0D 07 BF 61
2026-07-24T17:51:49.796058+00:00 TX 01 03 01 C4 00 01 C4 0B
2026-07-24T17:51:49.802059+00:00 RX 01 03 02 00 00 B8 44
2026-07-24T17:51:49.853092+00:00 TX 01 03 00 00 00 20 44 12
2026-07-24T17:51:49.897599+00:00 RX 01 03 40 00 00 00 00 00 03 00 00 00 03 00 00 00 00 00 00 00 00 00 00 00 00 00 00 00 01 00 00 01 00 05 0A 00 00 00 00 00 00 00 00 00 00 00 00 00 00 00 00 00 00 00 00 00 00 00 00 FF FF 52 6F FF FF 52 6F 52 54
2026-07-24T17:51:49.899599+00:00 TX 01 03 00 20 00 02 C5 C1
2026-07-24T17:51:49.906601+00:00 RX 01 03 04 00 00 0D 09 3E A5
2026-07-24T17:51:49.908602+00:00 TX 01 03 01 C4 00 01 C4 0B
2026-07-24T17:51:49.914603+00:00 RX 01 03 02 00 00 B8 44
2026-07-24T17:51:49.965113+00:00 TX 01 03 00 00 00 20 44 12
2026-07-24T17:51:50.010127+00:00 RX 01 03 40 00 00 00 00 00 03 00 00 00 03 00 00 00 00 00 00 00 00 00 00 00 00 00 00 00 01 00 00 01 00 05 0A 00 00 00 00 00 00 00 00 00 00 00 00 00 00 00 00 00 00 00 00 00 00 00 00 FF FF 53 F7 FF FF 53 F7 72 63
2026-07-24T17:51:50.012128+00:00 TX 01 03 00 20 00 02 C5 C1
2026-07-24T17:51:50.020126+00:00 RX 01 03 04 00 00 0D 0A 7E A4
2026-07-24T17:51:50.022127+00:00 TX 01 03 01 C4 00 01 C4 0B
2026-07-24T17:51:50.028128+00:00 RX 01 03 02 00 00 B8 44
2026-07-24T17:51:50.078140+00:00 TX 01 03 00 00 00 20 44 12
2026-07-24T17:51:50.123151+00:00 RX 01 03 40 00 00 00 00 00 03 00 00 00 03 00 00 00 00 00 00 00 00 00 00 00 00 00 00 00 01 00 00 01 00 05 0A 00 00 00 00 00 00 00 00 00 00 00 00 00 00 00 00 00 00 00 00 00 00 00 00 FF FF 53 D1 FF FF 53 D1 FA 7E
2026-07-24T17:51:50.125151+00:00 TX 01 03 00 20 00 02 C5 C1
2026-07-24T17:51:50.133153+00:00 RX 01 03 04 00 00 0D 0B BF 64
2026-07-24T17:51:50.135153+00:00 TX 01 03 01 C4 00 01 C4 0B
2026-07-24T17:51:50.141155+00:00 RX 01 03 02 00 00 B8 44
2026-07-24T17:51:50.191843+00:00 TX 01 03 00 00 00 20 44 12
2026-07-24T17:51:50.236352+00:00 RX 01 03 40 00 00 00 00 00 03 00 00 00 03 00 00 00 00 00 00 00 00 00 00 00 00 00 00 00 01 00 00 01 00 05 0A 00 00 00 00 00 00 00 00 00 00 00 00 00 00 00 00 00 00 00 00 00 00 00 00 FF FF 55 6A FF FF 55 6A 5D D0
2026-07-24T17:51:50.238352+00:00 TX 01 03 00 20 00 02 C5 C1
2026-07-24T17:51:50.246354+00:00 RX 01 03 04 00 00 0D 0C FE A6
2026-07-24T17:51:50.248355+00:00 TX 01 03 01 C4 00 01 C4 0B
2026-07-24T17:51:50.255356+00:00 RX 01 03 02 00 00 B8 44
2026-07-24T17:51:50.305866+00:00 TX 01 03 00 00 00 20 44 12
2026-07-24T17:51:50.349876+00:00 RX 01 03 40 00 00 00 00 00 03 00 00 00 03 00 00 00 00 00 00 00 00 00 00 00 00 00 00 00 01 00 00 01 00 05 0A 00 00 00 00 00 00 00 00 00 00 00 00 00 00 00 00 00 00 00 00 00 00 00 00 FF FF 56 F4 FF FF 56 F4 75 67
2026-07-24T17:51:50.352877+00:00 TX 01 03 00 20 00 02 C5 C1
2026-07-24T17:51:50.360875+00:00 RX 01 03 04 00 00 0D 0D 3F 66
2026-07-24T17:51:50.362875+00:00 TX 01 03 01 C4 00 01 C4 0B
2026-07-24T17:51:50.368877+00:00 RX 01 03 02 00 00 B8 44
2026-07-24T17:51:50.419680+00:00 TX 01 03 00 00 00 20 44 12
2026-07-24T17:51:50.464184+00:00 RX 01 03 40 00 00 00 00 00 03 00 00 00 03 00 00 00 00 00 00 00 00 00 00 00 00 00 00 00 01 00 00 01 00 05 0A 00 00 00 00 00 00 00 00 00 00 00 00 00 00 00 00 00 00 00 00 00 00 00 00 FF FF 56 A7 FF FF 56 A7 B1 56
2026-07-24T17:51:50.466184+00:00 TX 01 03 00 20 00 02 C5 C1
2026-07-24T17:51:50.473688+00:00 RX 01 03 04 00 00 0D 0E 7F 67
2026-07-24T17:51:50.475689+00:00 TX 01 03 01 C4 00 01 C4 0B
2026-07-24T17:51:50.482691+00:00 RX 01 03 02 00 00 B8 44
2026-07-24T17:51:50.533200+00:00 TX 01 03 00 00 00 20 44 12
2026-07-24T17:51:50.577737+00:00 RX 01 03 40 00 00 00 00 00 03 00 00 00 03 00 00 00 00 00 00 00 00 00 00 00 00 00 00 00 01 00 00 01 00 05 0A 00 00 00 00 00 00 00 00 00 00 00 00 00 00 00 00 00 00 00 00 00 00 00 00 FF FF 58 75 FF FF 58 75 8C 57
2026-07-24T17:51:50.580737+00:00 TX 01 03 00 20 00 02 C5 C1
2026-07-24T17:51:50.588240+00:00 RX 01 03 04 00 00 0D 10 FF 6F
2026-07-24T17:51:50.590241+00:00 TX 01 03 01 C4 00 01 C4 0B
2026-07-24T17:51:50.596248+00:00 RX 01 03 02 00 00 B8 44
2026-07-24T17:51:50.646801+00:00 TX 01 03 00 00 00 20 44 12
2026-07-24T17:51:50.691309+00:00 RX 01 03 40 00 00 00 00 00 03 00 00 00 03 00 00 00 00 00 00 00 00 00 00 00 00 00 00 00 01 00 00 01 00 05 0A 00 00 00 00 00 00 00 00 00 00 00 00 00 00 00 00 00 00 00 00 00 00 00 00 FF FF 57 3E FF FF 57 3E 6D 61
2026-07-24T17:51:50.694309+00:00 TX 01 03 00 20 00 02 C5 C1
2026-07-24T17:51:50.702312+00:00 RX 01 03 04 00 00 0D 11 3E AF
2026-07-24T17:51:50.704312+00:00 TX 01 03 01 C4 00 01 C4 0B
2026-07-24T17:51:50.711313+00:00 RX 01 03 02 00 00 B8 44
2026-07-24T17:51:50.761824+00:00 TX 01 03 00 00 00 20 44 12
2026-07-24T17:51:50.806836+00:00 RX 01 03 40 00 00 00 00 00 03 00 00 00 03 00 00 00 00 00 00 00 00 00 00 00 00 00 00 00 01 00 00 01 00 05 0A 00 00 00 00 00 00 00 00 00 00 00 00 00 00 00 00 00 00 00 00 00 00 00 00 FF FF 56 03 FF FF 56 03 C1 34
2026-07-24T17:51:50.808837+00:00 TX 01 03 00 20 00 02 C5 C1
2026-07-24T17:51:50.816360+00:00 RX 01 03 04 00 00 0D 12 7E AE
2026-07-24T17:51:50.818360+00:00 TX 01 03 01 C4 00 01 C4 0B
2026-07-24T17:51:50.825358+00:00 RX 01 03 02 00 00 B8 44
2026-07-24T17:51:50.875372+00:00 TX 01 03 00 00 00 20 44 12
2026-07-24T17:51:50.920383+00:00 RX 01 03 40 00 00 00 00 00 03 00 00 00 03 00 00 00 00 00 00 00 00 00 00 00 00 00 00 00 01 00 00 01 00 05 0A 00 00 00 00 00 00 00 00 00 00 00 00 00 00 00 00 00 00 00 00 00 00 00 00 FF FF 52 F5 FF FF 52 F5 8A 23
2026-07-24T17:51:50.922383+00:00 TX 01 03 00 20 00 02 C5 C1
2026-07-24T17:51:50.930385+00:00 RX 01 03 04 00 00 0D 13 BF 6E
2026-07-24T17:51:50.932385+00:00 TX 01 03 01 C4 00 01 C4 0B
2026-07-24T17:51:50.939387+00:00 RX 01 03 02 00 00 B8 44
2026-07-24T17:51:50.989398+00:00 TX 01 03 00 00 00 20 44 12
2026-07-24T17:51:51.034406+00:00 RX 01 03 40 00 00 00 00 00 03 00 00 00 03 00 00 00 00 00 00 00 00 00 00 00 00 00 00 00 01 00 00 01 00 05 0A 00 00 00 00 00 00 00 00 00 00 00 00 00 00 00 00 00 00 00 00 00 00 00 00 FF FF 53 B3 FF FF 53 B3 82 5F
2026-07-24T17:51:51.036911+00:00 TX 01 03 00 20 00 02 C5 C1
2026-07-24T17:51:51.044909+00:00 RX 01 03 04 00 00 0D 14 FE AC
2026-07-24T17:51:51.046910+00:00 TX 01 03 01 C4 00 01 C4 0B
2026-07-24T17:51:51.052912+00:00 RX 01 03 02 00 00 B8 44
2026-07-24T17:51:51.103130+00:00 TX 01 03 00 00 00 20 44 12
2026-07-24T17:51:51.148176+00:00 RX 01 03 40 00 00 00 00 00 03 00 00 00 03 00 00 00 00 00 00 00 00 00 00 00 00 00 00 00 01 00 00 01 00 05 0A 00 00 00 00 00 00 00 00 00 00 00 00 00 00 00 00 00 00 00 00 00 00 00 00 FF FF 55 5E FF FF 55 5E ED C3
2026-07-24T17:51:51.150177+00:00 TX 01 03 00 20 00 02 C5 C1
2026-07-24T17:51:51.158178+00:00 RX 01 03 04 00 00 0D 15 3F 6C
2026-07-24T17:51:51.160179+00:00 TX 01 03 01 C4 00 01 C4 0B
2026-07-24T17:51:51.166177+00:00 RX 01 03 02 00 00 B8 44
2026-07-24T17:51:51.216817+00:00 TX 01 03 00 00 00 20 44 12
2026-07-24T17:51:51.262321+00:00 RX 01 03 40 00 00 00 00 00 03 00 00 00 03 00 00 00 00 00 00 00 00 00 00 00 00 00 00 00 01 00 00 01 00 05 0A 00 00 00 00 00 00 00 00 00 00 00 00 00 00 00 00 00 00 00 00 00 00 00 00 FF FF 57 B4 FF FF 57 B4 75 19
2026-07-24T17:51:51.264322+00:00 TX 01 03 00 20 00 02 C5 C1
2026-07-24T17:51:51.272323+00:00 RX 01 03 04 00 00 0D 17 BE AD
2026-07-24T17:51:51.274325+00:00 TX 01 03 01 C4 00 01 C4 0B
2026-07-24T17:51:51.280827+00:00 RX 01 03 02 00 00 B8 44
2026-07-24T17:51:51.331846+00:00 TX 01 03 00 00 00 20 44 12
2026-07-24T17:51:51.377354+00:00 RX 01 03 40 00 00 00 00 00 03 00 00 00 03 00 00 00 00 00 00 00 00 00 00 00 00 00 00 00 01 00 00 01 00 05 0A 00 00 00 00 00 00 00 00 00 00 00 00 00 00 00 00 00 00 00 00 00 00 00 00 FF FF 56 A3 FF FF 56 A3 41 55
2026-07-24T17:51:51.379354+00:00 TX 01 03 00 20 00 02 C5 C1
2026-07-24T17:51:51.386858+00:00 RX 01 03 04 00 00 0D 18 FE A9
2026-07-24T17:51:51.389859+00:00 TX 01 03 01 C4 00 01 C4 0B
2026-07-24T17:51:51.395859+00:00 RX 01 03 02 00 00 B8 44
2026-07-24T17:51:51.447370+00:00 TX 01 03 00 00 00 20 44 12
2026-07-24T17:51:51.491875+00:00 RX 01 03 40 00 00 00 00 00 03 00 00 00 03 00 00 00 00 00 00 00 00 00 00 00 00 00 00 00 01 00 00 01 00 05 0A 00 00 00 00 00 00 00 00 00 00 00 00 00 00 00 00 00 00 00 00 00 00 00 00 FF FF 57 59 FF FF 57 59 19 43
2026-07-24T17:51:51.493876+00:00 TX 01 03 00 20 00 02 C5 C1
2026-07-24T17:51:51.501877+00:00 RX 01 03 04 00 00 0D 19 3F 69
2026-07-24T17:51:51.503928+00:00 TX 01 03 01 C4 00 01 C4 0B
2026-07-24T17:51:51.509925+00:00 RX 01 03 02 00 00 B8 44
2026-07-24T17:51:51.560937+00:00 TX 01 03 00 00 00 20 44 12
2026-07-24T17:51:51.604973+00:00 RX 01 03 40 00 00 00 00 00 03 00 00 00 03 00 00 00 00 00 00 00 00 00 00 00 00 00 00 00 01 00 00 01 00 05 0A 00 00 00 00 00 00 00 00 00 00 00 00 00 00 00 00 00 00 00 00 00 00 00 00 FF FF 54 A7 FF FF 54 A7 B1 D4
2026-07-24T17:51:51.607974+00:00 TX 01 03 00 20 00 02 C5 C1
2026-07-24T17:51:51.615973+00:00 RX 01 03 04 00 00 0D 1A 7F 68
2026-07-24T17:51:51.617973+00:00 TX 01 03 01 C4 00 01 C4 0B
2026-07-24T17:51:51.623974+00:00 RX 01 03 02 00 00 B8 44
2026-07-24T17:51:51.674211+00:00 TX 01 03 00 00 00 20 44 12
