2026-07-24T19:06:50.619540+00:00 TX 01 03 00 00 00 20 44 12
2026-07-24T19:06:50.663559+00:00 RX 01 03 40 00 00 00 00 00 03 00 00 00 03 00 00 00 00 00 00 00 00 00 00 00 00 00 00 00 01 00 00 01 00 05 0A 00 00 00 00 00 00 00 00 00 00 00 00 00 00 00 00 00 00 00 00 00 00 00 00 FF FF 5D 9A FF FF 5D 9A 1B 09
2026-07-24T19:06:50.666560+00:00 TX 01 03 00 20 00 1B 04 0B
2026-07-24T19:06:50.704566+00:00 RX 01 03 36 00 00 00 FD 00 00 62 DF 00 00 00 00 00 00 00 00 00 00 00 00 00 03 00 04 00 00 00 00 00 00 00 00 00 00 00 01 00 00 00 00 00 00 00 00 00 00 00 00 00 00 00 00 00 00 55 36
2026-07-24T19:06:50.707566+00:00 TX 01 03 01 C0 00 05 84 09
2026-07-24T19:06:50.719070+00:00 RX 01 03 0A 00 02 00 00 00 00 00 00 00 00 3D D6
2026-07-24T19:06:50.721070+00:00 TX 01 03 01 03 00 01 75 F6
2026-07-24T19:06:50.728069+00:00 RX 01 03 02 00 00 B8 44
2026-07-24T19:06:50.730069+00:00 TX 01 03 00 20 00 02 C5 C1
2026-07-24T19:06:50.738071+00:00 RX 01 03 04 00 00 00 FE 7B B3
2026-07-24T19:06:50.788126+00:00 TX 01 03 00 20 00 02 C5 C1
2026-07-24T19:06:50.796128+00:00 RX 01 03 04 00 00 00 FF BA 73
2026-07-24T19:06:50.846638+00:00 TX 01 03 00 20 00 02 C5 C1
2026-07-24T19:06:50.853639+00:00 RX 01 03 04 00 00 00 FF BA 73
2026-07-24T19:06:50.903648+00:00 TX 01 03 00 20 00 02 C5 C1
2026-07-24T19:06:50.911650+00:00 RX 01 03 04 00 00 01 00 FB A3
2026-07-24T19:06:50.962776+00:00 TX 01 03 00 20 00 02 C5 C1
2026-07-24T19:06:50.970778+00:00 RX 01 03 04 00 00 01 00 FB A3
2026-07-24T19:06:51.020790+00:00 TX 01 03 00 20 00 02 C5 C1
2026-07-24T19:06:51.029659+00:00 RX 01 03 04 00 00 01 01 3A 63
2026-07-24T19:06:51.079911+00:00 TX 01 03 00 20 00 02 C5 C1
2026-07-24T19:06:51.088913+00:00 RX 01 03 04 00 00 01 02 7A 62
2026-07-24T19:06:51.139157+00:00 TX 01 03 00 20 00 02 C5 C1
2026-07-24T19:06:51.148347+00:00 RX 01 03 04 00 00 01 02 7A 62
2026-07-24T19:06:51.199136+00:00 TX 01 03 00 20 00 02 C5 C1
2026-07-24T19:06:51.207138+00:00 RX 01 03 04 00 00 01 03 BB A2
2026-07-24T19:06:51.257176+00:00 TX 01 03 00 20 00 02 C5 C1
2026-07-24T19:06:51.265177+00:00 RX 01 03 04 00 00 01 03 BB A2
2026-07-24T19:06:51.315207+00:00 TX 01 03 00 20 00 02 C5 C1
2026-07-24T19:06:51.323206+00:00 RX 01 03 04 00 00 01 04 FA 60
2026-07-24T19:06:51.373250+00:00 TX 01 03 00 20 00 02 C5 C1
2026-07-24T19:06:51.381251+00:00 RX 01 03 04 00 00 01 04 FA 60
2026-07-24T19:06:51.431759+00:00 TX 01 03 00 20 00 02 C5 C1
2026-07-24T19:06:51.439760+00:00 RX 01 03 04 00 00 01 05 3B A0
2026-07-24T19:06:51.489776+00:00 TX 01 03 00 20 00 02 C5 C1
2026-07-24T19:06:51.497777+00:00 RX 01 03 04 00 00 01 06 7B A1
2026-07-24T19:06:51.548356+00:00 TX 01 03 00 20 00 02 C5 C1
2026-07-24T19:06:51.556358+00:00 RX 01 03 04 00 00 01 06 7B A1
2026-07-24T19:06:51.606680+00:00 TX 01 03 00 20 00 02 C5 C1
2026-07-24T19:06:51.613681+00:00 RX 01 03 04 00 00 01 07 BA 61
2026-07-24T19:06:51.665206+00:00 TX 01 03 00 20 00 02 C5 C1
2026-07-24T19:06:51.673208+00:00 RX 01 03 04 00 00 01 07 BA 61
2026-07-24T19:06:51.723717+00:00 TX 01 03 00 20 00 02 C5 C1
2026-07-24T19:06:51.731716+00:00 RX 01 03 04 00 00 01 08 FA 65
2026-07-24T19:06:51.781791+00:00 TX 01 03 00 20 00 02 C5 C1
2026-07-24T19:06:51.790794+00:00 RX 01 03 04 00 00 01 09 3B A5
2026-07-24T19:06:51.840802+00:00 TX 01 03 00 20 00 02 C5 C1
2026-07-24T19:06:51.849808+00:00 RX 01 03 04 00 00 01 09 3B A5
2026-07-24T19:06:51.899820+00:00 TX 01 03 00 20 00 02 C5 C1
2026-07-24T19:06:51.908819+00:00 RX 01 03 04 00 00 01 0A 7B A4
2026-07-24T19:06:51.959356+00:00 TX 01 03 00 20 00 02 C5 C1
2026-07-24T19:06:51.968359+00:00 RX 01 03 04 00 00 01 0A 7B A4
2026-07-24T19:06:52.018485+00:00 TX 01 03 00 20 00 02 C5 C1
2026-07-24T19:06:52.026487+00:00 RX 01 03 04 00 00 01 0B BA 64
2026-07-24T19:06:52.076508+00:00 TX 01 03 00 20 00 02 C5 C1
2026-07-24T19:06:52.084510+00:00 RX 01 03 04 00 00 01 0C FB A6
2026-07-24T19:06:52.135128+00:00 TX 01 03 00 20 00 02 C5 C1
2026-07-24T19:06:52.142130+00:00 RX 01 03 04 00 00 01 0C FB A6
2026-07-24T19:06:52.192587+00:00 TX 01 03 00 20 00 02 C5 C1
2026-07-24T19:06:52.200589+00:00 RX 01 03 04 00 00 01 0D 3A 66
2026-07-24T19:06:52.250599+00:00 TX 01 03 00 20 00 02 C5 C1
2026-07-24T19:06:52.258601+00:00 RX 01 03 04 00 00 01 0D 3A 66
2026-07-24T19:06:52.309265+00:00 TX 01 03 00 20 00 02 C5 C1
2026-07-24T19:06:52.317767+00:00 RX 01 03 04 00 00 01 0E 7A 67
2026-07-24T19:06:52.368285+00:00 TX 01 03 00 20 00 02 C5 C1
2026-07-24T19:06:52.376287+00:00 RX 01 03 04 00 00 01 0F BB A7
2026-07-24T19:06:52.426671+00:00 TX 01 03 00 20 00 02 C5 C1
2026-07-24T19:06:52.434669+00:00 RX 01 03 04 00 00 01 0F BB A7
2026-07-24T19:06:52.485360+00:00 TX 01 03 00 20 00 02 C5 C1
2026-07-24T19:06:52.493358+00:00 RX 01 03 04 00 00 01 10 FA 6F
2026-07-24T19:06:52.544402+00:00 TX 01 03 00 20 00 02 C5 C1
2026-07-24T19:06:52.551419+00:00 RX 01 03 04 00 00 01 10 FA 6F
2026-07-24T19:06:52.602430+00:00 TX 01 03 00 20 00 02 C5 C1
2026-07-24T19:06:52.609432+00:00 RX 01 03 04 00 00 01 11 3B AF
2026-07-24T19:06:52.660907+00:00 TX 01 03 00 20 00 02 C5 C1
2026-07-24T19:06:52.668909+00:00 RX 01 03 04 00 00 01 12 7B AE
2026-07-24T19:06:52.720419+00:00 TX 01 03 00 20 00 02 C5 C1
2026-07-24T19:06:52.728421+00:00 RX 01 03 04 00 00 01 12 7B AE
2026-07-24T19:06:52.779993+00:00 TX 01 03 00 20 00 02 C5 C1
2026-07-24T19:06:52.788995+00:00 RX 01 03 04 00 00 01 13 BA 6E
2026-07-24T19:06:52.839003+00:00 TX 01 03 00 20 00 02 C5 C1
2026-07-24T19:06:52.847005+00:00 RX 01 03 04 00 00 01 13 BA 6E
2026-07-24T19:06:52.898023+00:00 TX 01 03 00 20 00 02 C5 C1
2026-07-24T19:06:52.906021+00:00 RX 01 03 04 00 00 01 14 FB AC
2026-07-24T19:06:52.956059+00:00 TX 01 03 00 20 00 02 C5 C1
2026-07-24T19:06:52.964060+00:00 RX 01 03 04 00 00 01 15 3A 6C
2026-07-24T19:06:53.014096+00:00 TX 01 03 00 20 00 02 C5 C1
2026-07-24T19:06:53.022098+00:00 RX 01 03 04 00 00 01 15 3A 6C
2026-07-24T19:06:53.072110+00:00 TX 01 03 00 20 00 02 C5 C1
2026-07-24T19:06:53.080112+00:00 RX 01 03 04 00 00 01 16 7A 6D
2026-07-24T19:06:53.130134+00:00 TX 01 03 00 20 00 02 C5 C1
2026-07-24T19:06:53.138666+00:00 RX 01 03 04 00 00 01 16 7A 6D
2026-07-24T19:06:53.189253+00:00 TX 01 03 00 20 00 02 C5 C1
2026-07-24T19:06:53.197255+00:00 RX 01 03 04 00 00 01 17 BB AD
2026-07-24T19:06:53.247263+00:00 TX 01 03 00 20 00 02 C5 C1
2026-07-24T19:06:53.255270+00:00 RX 01 03 04 00 00 01 18 FB A9
2026-07-24T19:06:53.305279+00:00 TX 01 03 00 20 00 02 C5 C1
2026-07-24T19:06:53.313280+00:00 RX 01 03 04 00 00 01 18 FB A9
2026-07-24T19:06:53.363303+00:00 TX 01 03 00 20 00 02 C5 C1
2026-07-24T19:06:53.372304+00:00 RX 01 03 04 00 00 01 19 3A 69
2026-07-24T19:06:53.422370+00:00 TX 01 03 00 20 00 02 C5 C1
2026-07-24T19:06:53.430372+00:00 RX 01 03 04 00 00 01 19 3A 69
2026-07-24T19:06:53.480382+00:00 TX 01 03 00 20 00 02 C5 C1
2026-07-24T19:06:53.488384+00:00 RX 01 03 04 00 00 01 1A 7A 68
2026-07-24T19:06:53.539913+00:00 TX 01 03 00 20 00 02 C5 C1
2026-07-24T19:06:53.548433+00:00 RX 01 03 04 00 00 01 1B BB A8
2026-07-24T19:06:53.598947+00:00 TX 01 03 00 20 00 02 C5 C1
2026-07-24T19:06:53.606948+00:00 RX 01 03 04 00 00 01 1B BB A8
2026-07-24T19:06:53.657475+00:00 TX 01 03 00 20 00 02 C5 C1
2026-07-24T19:06:53.664476+00:00 RX 01 03 04 00 00 01 1C FA 6A
2026-07-24T19:06:53.715515+00:00 TX 01 03 00 20 00 02 C5 C1
2026-07-24T19:06:53.723018+00:00 RX 01 03 04 00 00 01 1C FA 6A
2026-07-24T19:06:53.773077+00:00 TX 01 03 00 20 00 02 C5 C1
2026-07-24T19:06:53.781079+00:00 RX 01 03 04 00 00 01 1D 3B AA
2026-07-24T19:06:53.832091+00:00 TX 01 03 00 20 00 02 C5 C1
2026-07-24T19:06:53.840089+00:00 RX 01 03 04 00 00 01 1E 7B AB
2026-07-24T19:06:53.890602+00:00 TX 01 03 00 20 00 02 C5 C1
2026-07-24T19:06:53.898604+00:00 RX 01 03 04 00 00 01 1E 7B AB
2026-07-24T19:06:53.948616+00:00 TX 01 03 00 20 00 02 C5 C1
2026-07-24T19:06:53.955633+00:00 RX 01 03 04 00 00 01 1F BA 6B
2026-07-24T19:06:54.005645+00:00 TX 01 03 00 20 00 02 C5 C1
2026-07-24T19:06:54.013647+00:00 RX 01 03 04 00 00 01 1F BA 6B
2026-07-24T19:06:54.063662+00:00 TX 01 03 00 20 00 02 C5 C1
2026-07-24T19:06:54.071664+00:00 RX 01 03 04 00 00 01 20 FA 7B
2026-07-24T19:06:54.122172+00:00 TX 01 03 00 20 00 02 C5 C1
2026-07-24T19:06:54.130174+00:00 RX 01 03 04 00 00 01 20 FA 7B
2026-07-24T19:06:54.181122+00:00 TX 01 03 00 20 00 02 C5 C1
2026-07-24T19:06:54.190124+00:00 RX 01 03 04 00 00 01 21 3B BB
2026-07-24T19:06:54.240132+00:00 TX 01 03 00 20 00 02 C5 C1
2026-07-24T19:06:54.249134+00:00 RX 01 03 04 00 00 01 22 7B BA
2026-07-24T19:06:54.299646+00:00 TX 01 03 00 20 00 02 C5 C1
2026-07-24T19:06:54.308645+00:00 RX 01 03 04 00 00 01 22 7B BA
2026-07-24T19:06:54.359156+00:00 TX 01 03 00 20 00 02 C5 C1
2026-07-24T19:06:54.368158+00:00 RX 01 03 04 00 00 01 23 BA 7A
2026-07-24T19:06:54.418170+00:00 TX 01 03 00 20 00 02 C5 C1
2026-07-24T19:06:54.426172+00:00 RX 01 03 04 00 00 01 23 BA 7A
2026-07-24T19:06:54.476681+00:00 TX 01 03 00 20 00 02 C5 C1
2026-07-24T19:06:54.484683+00:00 RX 01 03 04 00 00 01 24 FB B8
2026-07-24T19:06:54.535221+00:00 TX 01 03 00 20 00 02 C5 C1
2026-07-24T19:06:54.543223+00:00 RX 01 03 04 00 00 01 25 3A 78
2026-07-24T19:06:54.593271+00:00 TX 01 03 00 20 00 02 C5 C1
2026-07-24T19:06:54.601644+00:00 RX 01 03 04 00 00 01 25 3A 78
2026-07-24T19:06:54.652496+00:00 TX 01 03 00 20 00 02 C5 C1
2026-07-24T19:06:54.659999+00:00 RX 01 03 04 00 00 01 26 7A 79
2026-07-24T19:06:54.710007+00:00 TX 01 03 00 20 00 02 C5 C1
2026-07-24T19:06:54.718008+00:00 RX 01 03 04 00 00 01 26 7A 79
2026-07-24T19:06:54.768136+00:00 TX 01 03 00 20 00 02 C5 C1
2026-07-24T19:06:54.776138+00:00 RX 01 03 04 00 00 01 27 BB B9
2026-07-24T19:06:54.826581+00:00 TX 01 03 00 20 00 02 C5 C1
2026-07-24T19:06:54.834584+00:00 RX 01 03 04 00 00 01 28 FB BD
2026-07-24T19:06:54.885132+00:00 TX 01 03 00 20 00 02 C5 C1
2026-07-24T19:06:54.893134+00:00 RX 01 03 04 00 00 01 28 FB BD
2026-07-24T19:06:54.943640+00:00 TX 01 03 00 20 00 02 C5 C1
2026-07-24T19:06:54.952142+00:00 RX 01 03 04 00 00 01 29 3A 7D
2026-07-24T19:06:55.002753+00:00 TX 01 03 00 20 00 02 C5 C1
2026-07-24T19:06:55.010755+00:00 RX 01 03 04 00 00 01 29 3A 7D
2026-07-24T19:06:55.060764+00:00 TX 01 03 00 20 00 02 C5 C1
2026-07-24T19:06:55.069767+00:00 RX 01 03 04 00 00 01 2A 7A 7C
2026-07-24T19:06:55.120284+00:00 TX 01 03 00 20 00 02 C5 C1
2026-07-24T19:06:55.128788+00:00 RX 01 03 04 00 00 01 2B BB BC
2026-07-24T19:06:55.179384+00:00 TX 01 03 00 20 00 02 C5 C1
2026-07-24T19:06:55.188214+00:00 RX 01 03 04 00 00 01 2B BB BC
2026-07-24T19:06:55.238371+00:00 TX 01 03 00 20 00 02 C5 C1
2026-07-24T19:06:55.245369+00:00 RX 01 03 04 00 00 01 2C FA 7E
2026-07-24T19:06:55.296383+00:00 TX 01 03 00 20 00 02 C5 C1
2026-07-24T19:06:55.304384+00:00 RX 01 03 04 00 00 01 2C FA 7E
2026-07-24T19:06:55.355051+00:00 TX 01 03 00 20 00 02 C5 C1
2026-07-24T19:06:55.363058+00:00 RX 01 03 04 00 00 01 2D 3B BE
2026-07-24T19:06:55.414039+00:00 TX 01 03 00 20 00 02 C5 C1
2026-07-24T19:06:55.421542+00:00 RX 01 03 04 00 00 01 2E 7B BF
2026-07-24T19:06:55.471558+00:00 TX 01 03 00 20 00 02 C5 C1
2026-07-24T19:06:55.479561+00:00 RX 01 03 04 00 00 01 2E 7B BF
2026-07-24T19:06:55.530416+00:00 TX 01 03 00 20 00 02 C5 C1
2026-07-24T19:06:55.538414+00:00 RX 01 03 04 00 00 01 2F BA 7F
2026-07-24T19:06:55.588932+00:00 TX 01 03 00 20 00 02 C5 C1
2026-07-24T19:06:55.596934+00:00 RX 01 03 04 00 00 01 2F BA 7F
2026-07-24T19:06:55.647579+00:00 TX 01 03 00 20 00 02 C5 C1
2026-07-24T19:06:55.656111+00:00 RX 01 03 04 00 00 01 30 FB B7
2026-07-24T19:06:55.706161+00:00 TX 01 03 00 20 00 02 C5 C1
2026-07-24T19:06:55.714160+00:00 RX 01 03 04 00 00 01 31 3A 77
2026-07-24T19:06:55.764213+00:00 TX 01 03 00 20 00 02 C5 C1
2026-07-24T19:06:55.772214+00:00 RX 01 03 04 00 00 01 31 3A 77
2026-07-24T19:06:55.822979+00:00 TX 01 03 00 20 00 02 C5 C1
2026-07-24T19:06:55.831977+00:00 RX 01 03 04 00 00 01 32 7A 76
2026-07-24T19:06:55.882423+00:00 TX 01 03 00 20 00 02 C5 C1
2026-07-24T19:06:55.889424+00:00 RX 01 03 04 00 00 01 32 7A 76
2026-07-24T19:06:55.940930+00:00 TX 01 03 00 20 00 02 C5 C1
2026-07-24T19:06:55.949433+00:00 RX 01 03 04 00 00 01 33 BB B6
2026-07-24T19:06:55.999471+00:00 TX 01 03 00 20 00 02 C5 C1
2026-07-24T19:06:56.007473+00:00 RX 01 03 04 00 00 01 34 FA 74
2026-07-24T19:06:56.057480+00:00 TX 01 03 00 20 00 02 C5 C1
2026-07-24T19:06:56.064983+00:00 RX 01 03 04 00 00 01 34 FA 74
2026-07-24T19:06:56.115492+00:00 TX 01 03 00 20 00 02 C5 C1
2026-07-24T19:06:56.122994+00:00 RX 01 03 04 00 00 01 35 3B B4
2026-07-24T19:06:56.173102+00:00 TX 01 03 00 20 00 02 C5 C1
2026-07-24T19:06:56.181104+00:00 RX 01 03 04 00 00 01 35 3B B4
2026-07-24T19:06:56.231115+00:00 TX 01 03 00 20 00 02 C5 C1
2026-07-24T19:06:56.239117+00:00 RX 01 03 04 00 00 01 36 7B B5
2026-07-24T19:06:56.289422+00:00 TX 01 03 00 20 00 02 C5 C1
2026-07-24T19:06:56.297424+00:00 RX 01 03 04 00 00 01 37 BA 75
2026-07-24T19:06:56.348434+00:00 TX 01 03 00 20 00 02 C5 C1
2026-07-24T19:06:56.355463+00:00 RX 01 03 04 00 00 01 37 BA 75
2026-07-24T19:06:56.405564+00:00 TX 01 03 00 20 00 02 C5 C1
2026-07-24T19:06:56.412566+00:00 RX 01 03 04 00 00 01 38 FA 71
2026-07-24T19:06:56.462589+00:00 TX 01 03 00 20 00 02 C5 C1
2026-07-24T19:06:56.470290+00:00 RX 01 03 04 00 00 01 38 FA 71
2026-07-24T19:06:56.520429+00:00 TX 01 03 00 20 00 02 C5 C1
2026-07-24T19:06:56.528932+00:00 RX 01 03 04 00 00 01 39 3B B1
