2026-07-24T18:50:28.783755+00:00 TX 01 03 00 00 00 20 44 12
2026-07-24T18:50:28.828655+00:00 RX 01 03 40 00 00 00 00 00 03 00 00 00 03 00 00 00 00 00 00 00 00 00 00 00 00 00 00 00 01 00 00 01 00 05 0A 00 00 00 00 00 00 00 00 00 00 00 00 00 00 00 00 00 00 00 00 00 00 00 00 FF FF 5B CD FF FF 5B CD 2C FD
2026-07-24T18:50:28.830656+00:00 TX 01 03 00 20 00 02 C5 C1
2026-07-24T18:50:28.838658+00:00 RX 01 03 04 00 00 01 B9 3A 11
2026-07-24T18:50:28.840658+00:00 TX 01 03 01 C4 00 01 C4 0B
2026-07-24T18:50:28.847657+00:00 RX 01 03 02 00 00 B8 44
2026-07-24T18:50:28.897690+00:00 TX 01 03 00 00 00 20 44 12
2026-07-24T18:50:28.942782+00:00 RX 01 03 40 00 00 00 00 00 03 00 00 00 03 00 00 00 00 00 00 00 00 00 00 00 00 00 00 00 01 00 00 01 00 05 0A 00 00 00 00 00 00 00 00 00 00 00 00 00 00 00 00 00 00 00 00 00 00 00 00 FF FF 59 BC FF FF 59 BC 90 50
2026-07-24T18:50:28.944782+00:00 TX 01 03 00 20 00 02 C5 C1
2026-07-24T18:50:28.951784+00:00 RX 01 03 04 00 00 01 BA 7A 10
2026-07-24T18:50:28.955302+00:00 TX 01 03 01 C4 00 01 C4 0B
2026-07-24T18:50:28.961806+00:00 RX 01 03 02 00 00 B8 44
2026-07-24T18:50:29.012820+00:00 TX 01 03 00 00 00 20 44 12
2026-07-24T18:50:29.057952+00:00 RX 01 03 40 00 00 00 00 00 03 00 00 00 03 00 00 00 00 00 00 00 00 00 00 00 00 00 00 00 01 00 00 01 00 05 0A 00 00 00 00 00 00 00 00 00 00 00 00 00 00 00 00 00 00 00 00 00 00 00 00 FF FF 58 7D FF FF 58 7D 6C 50
2026-07-24T18:50:29.060950+00:00 TX 01 03 00 20 00 02 C5 C1
2026-07-24T18:50:29.068454+00:00 RX 01 03 04 00 00 01 BB BB D0
2026-07-24T18:50:29.070455+00:00 TX 01 03 01 C4 00 01 C4 0B
2026-07-24T18:50:29.077456+00:00 RX 01 03 02 00 00 B8 44
2026-07-24T18:50:29.128418+00:00 TX 01 03 00 00 00 20 44 12
2026-07-24T18:50:29.173221+00:00 RX 01 03 40 00 00 00 00 00 03 00 00 00 03 00 00 00 00 00 00 00 00 00 00 00 00 00 00 00 01 00 00 01 00 05 0A 00 00 00 00 00 00 00 00 00 00 00 00 00 00 00 00 00 00 00 00 00 00 00 00 FF FF 5A 14 FF FF 5A 14 F0 F5
2026-07-24T18:50:29.175221+00:00 TX 01 03 00 20 00 02 C5 C1
2026-07-24T18:50:29.183223+00:00 RX 01 03 04 00 00 01 BC FA 12
2026-07-24T18:50:29.185224+00:00 TX 01 03 01 C4 00 01 C4 0B
2026-07-24T18:50:29.192225+00:00 RX 01 03 02 00 00 B8 44
2026-07-24T18:50:29.242233+00:00 TX 01 03 00 00 00 20 44 12
2026-07-24T18:50:29.287445+00:00 RX 01 03 40 00 00 00 00 00 03 00 00 00 03 00 00 00 00 00 00 00 00 00 00 00 00 00 00 00 01 00 00 01 00 05 0A 00 00 00 00 00 00 00 00 00 00 00 00 00 00 00 00 00 00 00 00 00 00 00 00 FF FF 5A AF FF FF 5A AF 54 9D
2026-07-24T18:50:29.289511+00:00 TX 01 03 00 20 00 02 C5 C1
2026-07-24T18:50:29.297148+00:00 RX 01 03 04 00 00 01 BD 3B D2
2026-07-24T18:50:29.299148+00:00 TX 01 03 01 C4 00 01 C4 0B
2026-07-24T18:50:29.305651+00:00 RX 01 03 02 00 00 B8 44
2026-07-24T18:50:29.356171+00:00 TX 01 03 00 00 00 20 44 12
2026-07-24T18:50:29.401431+00:00 RX 01 03 40 00 00 00 00 00 03 00 00 00 03 00 00 00 00 00 00 00 00 00 00 00 00 00 00 00 01 00 00 01 00 05 0A 00 00 00 00 00 00 00 00 00 00 00 00 00 00 00 00 00 00 00 00 00 00 00 00 FF FF 59 89 FF FF 59 89 DC 43
2026-07-24T18:50:29.403431+00:00 TX 01 03 00 20 00 02 C5 C1
2026-07-24T18:50:29.411433+00:00 RX 01 03 04 00 00 01 BE 7B D3
2026-07-24T18:50:29.413434+00:00 TX 01 03 01 C4 00 01 C4 0B
2026-07-24T18:50:29.420462+00:00 RX 01 03 02 00 00 B8 44
2026-07-24T18:50:29.470771+00:00 TX 01 03 00 00 00 20 44 12
2026-07-24T18:50:29.515086+00:00 RX 01 03 40 00 00 00 00 00 03 00 00 00 03 00 00 00 00 00 00 00 00 00 00 00 00 00 00 00 01 00 00 01 00 05 0A 00 00 00 00 00 00 00 00 00 00 00 00 00 00 00 00 00 00 00 00 00 00 00 00 FF FF 59 38 FF FF 59 38 60 2D
2026-07-24T18:50:29.517605+00:00 TX 01 03 00 20 00 02 C5 C1
2026-07-24T18:50:29.525607+00:00 RX 01 03 04 00 00 01 C0 FB F3
2026-07-24T18:50:29.527607+00:00 TX 01 03 01 C4 00 01 C4 0B
2026-07-24T18:50:29.534609+00:00 RX 01 03 02 00 00 B8 44
2026-07-24T18:50:29.585140+00:00 TX 01 03 00 00 00 20 44 12
2026-07-24T18:50:29.630444+00:00 RX 01 03 40 00 00 00 00 00 03 00 00 00 03 00 00 00 00 00 00 00 00 00 00 00 00 00 00 00 01 00 00 01 00 05 0A 00 00 00 00 00 00 00 00 00 00 00 00 00 00 00 00 00 00 00 00 00 00 00 00 FF FF 59 B0 FF FF 59 B0 80 54
2026-07-24T18:50:29.632444+00:00 TX 01 03 00 20 00 02 C5 C1
2026-07-24T18:50:29.640446+00:00 RX 01 03 04 00 00 01 C1 3A 33
2026-07-24T18:50:29.642447+00:00 TX 01 03 01 C4 00 01 C4 0B
2026-07-24T18:50:29.648444+00:00 RX 01 03 02 00 00 B8 44
2026-07-24T18:50:29.698472+00:00 TX 01 03 00 00 00 20 44 12
2026-07-24T18:50:29.743642+00:00 RX 01 03 40 00 00 00 00 00 03 00 00 00 03 00 00 00 00 00 00 00 00 00 00 00 00 00 00 00 01 00 00 01 00 05 0A 00 00 00 00 00 00 00 00 00 00 00 00 00 00 00 00 00 00 00 00 00 00 00 00 FF FF 5D 15 FF FF 5D 15 0F 72
2026-07-24T18:50:29.745643+00:00 TX 01 03 00 20 00 02 C5 C1
2026-07-24T18:50:29.753149+00:00 RX 01 03 04 00 00 01 C2 7A 32
2026-07-24T18:50:29.755696+00:00 TX 01 03 01 C4 00 01 C4 0B
2026-07-24T18:50:29.763218+00:00 RX 01 03 02 00 00 B8 44
2026-07-24T18:50:29.813888+00:00 TX 01 03 00 00 00 20 44 12
2026-07-24T18:50:29.858419+00:00 RX 01 03 40 00 00 00 00 00 03 00 00 00 03 00 00 00 00 00 00 00 00 00 00 00 00 00 00 00 01 00 00 01 00 05 0A 00 00 00 00 00 00 00 00 00 00 00 00 00 00 00 00 00 00 00 00 00 00 00 00 FF FF 5D 82 FF FF 5D 82 3B 01
2026-07-24T18:50:29.860419+00:00 TX 01 03 00 20 00 02 C5 C1
2026-07-24T18:50:29.867923+00:00 RX 01 03 04 00 00 01 C3 BB F2
2026-07-24T18:50:29.869924+00:00 TX 01 03 01 C4 00 01 C4 0B
2026-07-24T18:50:29.876426+00:00 RX 01 03 02 00 00 B8 44
2026-07-24T18:50:29.926697+00:00 TX 01 03 00 00 00 20 44 12
2026-07-24T18:50:29.971143+00:00 RX 01 03 40 00 00 00 00 00 03 00 00 00 03 00 00 00 00 00 00 00 00 00 00 00 00 00 00 00 01 00 00 01 00 05 0A 00 00 00 00 00 00 00 00 00 00 00 00 00 00 00 00 00 00 00 00 00 00 00 00 FF FF 5E 6B FF FF 5E 6B A7 9B
2026-07-24T18:50:29.973143+00:00 TX 01 03 00 20 00 02 C5 C1
2026-07-24T18:50:29.981145+00:00 RX 01 03 04 00 00 01 C4 FA 30
2026-07-24T18:50:29.983305+00:00 TX 01 03 01 C4 00 01 C4 0B
2026-07-24T18:50:29.989864+00:00 RX 01 03 02 00 00 B8 44
2026-07-24T18:50:30.039990+00:00 TX 01 03 00 00 00 20 44 12
2026-07-24T18:50:30.085001+00:00 RX 01 03 40 00 00 00 00 00 03 00 00 00 03 00 00 00 00 00 00 00 00 00 00 00 00 00 00 00 01 00 00 01 00 05 0A 00 00 00 00 00 00 00 00 00 00 00 00 00 00 00 00 00 00 00 00 00 00 00 00 FF FF 5E 4A FF FF 5E 4A DB 84
2026-07-24T18:50:30.087002+00:00 TX 01 03 00 20 00 02 C5 C1
2026-07-24T18:50:30.094000+00:00 RX 01 03 04 00 00 01 C5 3B F0
2026-07-24T18:50:30.097001+00:00 TX 01 03 01 C4 00 01 C4 0B
2026-07-24T18:50:30.103002+00:00 RX 01 03 02 00 00 B8 44
2026-07-24T18:50:30.155048+00:00 TX 01 03 00 00 00 20 44 12
2026-07-24T18:50:30.199069+00:00 RX 01 03 40 00 00 00 00 00 03 00 00 00 03 00 00 00 00 00 00 00 00 00 00 00 00 00 00 00 01 00 00 01 00 05 0A 00 00 00 00 00 00 00 00 00 00 00 00 00 00 00 00 00 00 00 00 00 00 00 00 FF FF 5B FF FF FF 5B FF 94 EC
2026-07-24T18:50:30.201071+00:00 TX 01 03 00 20 00 02 C5 C1
2026-07-24T18:50:30.209071+00:00 RX 01 03 04 00 00 01 C7 BA 31
2026-07-24T18:50:30.211072+00:00 TX 01 03 01 C4 00 01 C4 0B
2026-07-24T18:50:30.217073+00:00 RX 01 03 02 00 00 B8 44
2026-07-24T18:50:30.267356+00:00 TX 01 03 00 00 00 20 44 12
2026-07-24T18:50:30.312364+00:00 RX 01 03 40 00 00 00 00 00 03 00 00 00 03 00 00 00 00 00 00 00 00 00 00 00 00 00 00 00 01 00 00 01 00 05 0A 00 00 00 00 00 00 00 00 00 00 00 00 00 00 00 00 00 00 00 00 00 00 00 00 FF FF 5C 2C FF FF 5C 2C 53 24
2026-07-24T18:50:30.314365+00:00 TX 01 03 00 20 00 02 C5 C1
2026-07-24T18:50:30.322367+00:00 RX 01 03 04 00 00 01 C8 FA 35
2026-07-24T18:50:30.325367+00:00 TX 01 03 01 C4 00 01 C4 0B
2026-07-24T18:50:30.332369+00:00 RX 01 03 02 00 00 B8 44
2026-07-24T18:50:30.382882+00:00 TX 01 03 00 00 00 20 44 12
2026-07-24T18:50:30.427462+00:00 RX 01 03 40 00 00 00 00 00 03 00 00 00 03 00 00 00 00 00 00 00 00 00 00 00 00 00 00 00 01 00 00 01 00 05 0A 00 00 00 00 00 00 00 00 00 00 00 00 00 00 00 00 00 00 00 00 00 00 00 00 FF FF 5C A2 FF FF 5C A2 BB 5F
2026-07-24T18:50:30.429462+00:00 TX 01 03 00 20 00 02 C5 C1
2026-07-24T18:50:30.436464+00:00 RX 01 03 04 00 00 01 C9 3B F5
2026-07-24T18:50:30.438465+00:00 TX 01 03 01 C4 00 01 C4 0B
2026-07-24T18:50:30.444467+00:00 RX 01 03 02 00 00 B8 44
2026-07-24T18:50:30.495844+00:00 TX 01 03 00 00 00 20 44 12
2026-07-24T18:50:30.539939+00:00 RX 01 03 40 00 00 00 00 00 03 00 00 00 03 00 00 00 00 00 00 00 00 00 00 00 00 00 00 00 01 00 00 01 00 05 0A 00 00 00 00 00 00 00 00 00 00 00 00 00 00 00 00 00 00 00 00 00 00 00 00 FF FF 60 AF FF FF 60 AF 43 67
2026-07-24T18:50:30.542936+00:00 TX 01 03 00 20 00 02 C5 C1
2026-07-24T18:50:30.549938+00:00 RX 01 03 04 00 00 01 CA 7B F4
2026-07-24T18:50:30.552938+00:00 TX 01 03 01 C4 00 01 C4 0B
2026-07-24T18:50:30.559454+00:00 RX 01 03 02 00 00 B8 44
2026-07-24T18:50:30.609967+00:00 TX 01 03 00 00 00 20 44 12
2026-07-24T18:50:30.655001+00:00 RX 01 03 40 00 00 00 00 00 03 00 00 00 03 00 00 00 00 00 00 00 00 00 00 00 00 00 00 00 01 00 00 01 00 05 0A 00 00 00 00 00 00 00 00 00 00 00 00 00 00 00 00 00 00 00 00 00 00 00 00 FF FF 5E 57 FF FF 5E 57 F7 8F
2026-07-24T18:50:30.657002+00:00 TX 01 03 00 20 00 02 C5 C1
2026-07-24T18:50:30.664506+00:00 RX 01 03 04 00 00 01 CB BA 34
2026-07-24T18:50:30.666507+00:00 TX 01 03 01 C4 00 01 C4 0B
2026-07-24T18:50:30.673013+00:00 RX 01 03 02 00 00 B8 44
2026-07-24T18:50:30.723518+00:00 TX 01 03 00 00 00 20 44 12
2026-07-24T18:50:30.768067+00:00 RX 01 03 40 00 00 00 00 00 03 00 00 00 03 00 00 00 00 00 00 00 00 00 00 00 00 00 00 00 01 00 00 01 00 05 0A 00 00 00 00 00 00 00 00 00 00 00 00 00 00 00 00 00 00 00 00 00 00 00 00 FF FF 5D 49 FF FF 5D 49 DF 46
2026-07-24T18:50:30.770068+00:00 TX 01 03 00 20 00 02 C5 C1
2026-07-24T18:50:30.778571+00:00 RX 01 03 04 00 00 01 CC FB F6
2026-07-24T18:50:30.780572+00:00 TX 01 03 01 C4 00 01 C4 0B
2026-07-24T18:50:30.787573+00:00 RX 01 03 02 00 00 B8 44
2026-07-24T18:50:30.837585+00:00 TX 01 03 00 00 00 20 44 12
2026-07-24T18:50:30.882595+00:00 RX 01 03 40 00 00 00 00 00 03 00 00 00 03 00 00 00 00 00 00 00 00 00 00 00 00 00 00 00 01 00 00 01 00 05 0A 00 00 00 00 00 00 00 00 00 00 00 00 00 00 00 00 00 00 00 00 00 00 00 00 FF FF 5C AD FF FF 5C AD AF 5A
2026-07-24T18:50:30.884596+00:00 TX 01 03 00 20 00 02 C5 C1
2026-07-24T18:50:30.892595+00:00 RX 01 03 04 00 00 01 CD 3A 36
2026-07-24T18:50:30.894596+00:00 TX 01 03 01 C4 00 01 C4 0B
2026-07-24T18:50:30.901597+00:00 RX 01 03 02 00 00 B8 44
2026-07-24T18:50:30.952107+00:00 TX 01 03 00 00 00 20 44 12
2026-07-24T18:50:30.997650+00:00 RX 01 03 40 00 00 00 00 00 03 00 00 00 03 00 00 00 00 00 00 00 00 00 00 00 00 00 00 00 01 00 00 01 00 05 0A 00 00 00 00 00 00 00 00 00 00 00 00 00 00 00 00 00 00 00 00 00 00 00 00 FF FF 5D 41 FF FF 5D 41 3F 41
2026-07-24T18:50:31.000651+00:00 TX 01 03 00 20 00 02 C5 C1
2026-07-24T18:50:31.008652+00:00 RX 01 03 04 00 00 01 CF BB F7
2026-07-24T18:50:31.010653+00:00 TX 01 03 01 C4 00 01 C4 0B
2026-07-24T18:50:31.017655+00:00 RX 01 03 02 00 00 B8 44
2026-07-24T18:50:31.068164+00:00 TX 01 03 00 00 00 20 44 12
2026-07-24T18:50:31.113207+00:00 RX 01 03 40 00 00 00 00 00 03 00 00 00 03 00 00 00 00 00 00 00 00 00 00 00 00 00 00 00 01 00 00 01 00 05 0A 00 00 00 00 00 00 00 00 00 00 00 00 00 00 00 00 00 00 00 00 00 00 00 00 FF FF 5E 2B FF FF 5E 2B A7 A4
2026-07-24T18:50:31.115208+00:00 TX 01 03 00 20 00 02 C5 C1
2026-07-24T18:50:31.123210+00:00 RX 01 03 04 00 00 01 D0 FA 3F
2026-07-24T18:50:31.126210+00:00 TX 01 03 01 C4 00 01 C4 0B
2026-07-24T18:50:31.133212+00:00 RX 01 03 02 00 00 B8 44
2026-07-24T18:50:31.183779+00:00 TX 01 03 00 00 00 20 44 12
2026-07-24T18:50:31.228297+00:00 RX 01 03 40 00 00 00 00 00 03 00 00 00 03 00 00 00 00 00 00 00 00 00 00 00 00 00 00 00 01 00 00 01 00 05 0A 00 00 00 00 00 00 00 00 00 00 00 00 00 00 00 00 00 00 00 00 00 00 00 00 FF FF 60 15 FF FF 60 15 1B 0F
2026-07-24T18:50:31.230298+00:00 TX 01 03 00 20 00 02 C5 C1
2026-07-24T18:50:31.238300+00:00 RX 01 03 04 00 00 01 D1 3B FF
2026-07-24T18:50:31.241298+00:00 TX 01 03 01 C4 00 01 C4 0B
2026-07-24T18:50:31.248300+00:00 RX 01 03 02 00 00 B8 44
2026-07-24T18:50:31.298822+00:00 TX 01 03 00 00 00 20 44 12
2026-07-24T18:50:31.343017+00:00 RX 01 03 40 00 00 00 00 00 03 00 00 00 03 00 00 00 00 00 00 00 00 00 00 00 00 00 00 00 01 00 00 01 00 05 0A 00 00 00 00 00 00 00 00 00 00 00 00 00 00 00 00 00 00 00 00 00 00 00 00 FF FF 5F 9D FF FF 5F 9D EF 89
2026-07-24T18:50:31.345017+00:00 TX 01 03 00 20 00 02 C5 C1
2026-07-24T18:50:31.353019+00:00 RX 01 03 04 00 00 01 D2 7B FE
2026-07-24T18:50:31.355020+00:00 TX 01 03 01 C4 00 01 C4 0B
2026-07-24T18:50:31.361522+00:00 RX 01 03 02 00 00 B8 44
2026-07-24T18:50:31.412077+00:00 TX 01 03 00 00 00 20 44 12
2026-07-24T18:50:31.457086+00:00 RX 01 03 40 00 00 00 00 00 03 00 00 00 03 00 00 00 00 00 00 00 00 00 00 00 00 00 00 00 01 00 00 01 00 05 0A 00 00 00 00 00 00 00 00 00 00 00 00 00 00 00 00 00 00 00 00 00 00 00 00 FF FF 5F F9 FF FF 5F F9 9F AA
2026-07-24T18:50:31.460086+00:00 TX 01 03 00 20 00 02 C5 C1
2026-07-24T18:50:31.467589+00:00 RX 01 03 04 00 00 01 D3 BA 3E
2026-07-24T18:50:31.469589+00:00 TX 01 03 01 C4 00 01 C4 0B
2026-07-24T18:50:31.476091+00:00 RX 01 03 02 00 00 B8 44
2026-07-24T18:50:31.526180+00:00 TX 01 03 00 00 00 20 44 12
2026-07-24T18:50:31.571228+00:00 RX 01 03 40 00 00 00 00 00 03 00 00 00 03 00 00 00 00 00 00 00 00 00 00 00 00 00 00 00 01 00 00 01 00 05 0A 00 00 00 00 00 00 00 00 00 00 00 00 00 00 00 00 00 00 00 00 00 00 00 00 FF FF 5D E4 FF FF 5D E4 B3 23
2026-07-24T18:50:31.573229+00:00 TX 01 03 00 20 00 02 C5 C1
2026-07-24T18:50:31.581732+00:00 RX 01 03 04 00 00 01 D4 FB FC
2026-07-24T18:50:31.583732+00:00 TX 01 03 01 C4 00 01 C4 0B
2026-07-24T18:50:31.589733+00:00 RX 01 03 02 00 00 B8 44
2026-07-24T18:50:31.641421+00:00 TX 01 03 00 00 00 20 44 12
2026-07-24T18:50:31.686427+00:00 RX 01 03 40 00 00 00 00 00 03 00 00 00 03 00 00 00 00 00 00 00 00 00 00 00 00 00 00 00 01 00 00 01 00 05 0A 00 00 00 00 00 00 00 00 00 00 00 00 00 00 00 00 00 00 00 00 00 00 00 00 FF FF 5D E6 FF FF 5D E6 4B 22
2026-07-24T18:50:31.688427+00:00 TX 01 03 00 20 00 02 C5 C1
2026-07-24T18:50:31.695425+00:00 RX 01 03 04 00 00 01 D6 7A 3D
2026-07-24T18:50:31.697425+00:00 TX 01 03 01 C4 00 01 C4 0B
2026-07-24T18:50:31.704427+00:00 RX 01 03 02 00 00 B8 44
2026-07-24T18:50:31.755012+00:00 TX 01 03 00 00 00 20 44 12
2026-07-24T18:50:31.799539+00:00 RX 01 03 40 00 00 00 00 00 03 00 00 00 03 00 00 00 00 00 00 00 00 00 00 00 00 00 00 00 01 00 00 01 00 05 0A 00 00 00 00 00 00 00 00 00 00 00 00 00 00 00 00 00 00 00 00 00 00 00 00 FF FF 5E 72 FF FF 5E 72 7B 93
2026-07-24T18:50:31.801540+00:00 TX 01 03 00 20 00 02 C5 C1
2026-07-24T18:50:31.809542+00:00 RX 01 03 04 00 00 01 D7 BB FD
2026-07-24T18:50:31.811542+00:00 TX 01 03 01 C4 00 01 C4 0B
2026-07-24T18:50:31.818544+00:00 RX 01 03 02 00 00 B8 44
2026-07-24T18:50:31.869079+00:00 TX 01 03 00 00 00 20 44 12
2026-07-24T18:50:31.914088+00:00 RX 01 03 40 00 00 00 00 00 03 00 00 00 03 00 00 00 00 00 00 00 00 00 00 00 00 00 00 00 01 00 00 01 00 05 0A 00 00 00 00 00 00 00 00 00 00 00 00 00 00 00 00 00 00 00 00 00 00 00 00 FF FF 5F 1B FF FF 5F 1B E7 F5
2026-07-24T18:50:31.916088+00:00 TX 01 03 00 20 00 02 C5 C1
2026-07-24T18:50:31.924090+00:00 RX 01 03 04 00 00 01 D8 FB F9
2026-07-24T18:50:31.926090+00:00 TX 01 03 01 C4 00 01 C4 0B
2026-07-24T18:50:31.932622+00:00 RX 01 03 02 00 00 B8 44
2026-07-24T18:50:31.983152+00:00 TX 01 03 00 00 00 20 44 12
2026-07-24T18:50:32.027659+00:00 RX 01 03 40 00 00 00 00 00 03 00 00 00 03 00 00 00 00 00 00 00 00 00 00 00 00 00 00 00 01 00 00 01 00 05 0A 00 00 00 00 00 00 00 00 00 00 00 00 00 00 00 00 00 00 00 00 00 00 00 00 FF FF 60 4E FF FF 60 4E 3F 39
2026-07-24T18:50:32.029661+00:00 TX 01 03 00 20 00 02 C5 C1
2026-07-24T18:50:32.037662+00:00 RX 01 03 04 00 00 01 D9 3A 39
2026-07-24T18:50:32.039662+00:00 TX 01 03 01 C4 00 01 C4 0B
2026-07-24T18:50:32.046664+00:00 RX 01 03 02 00 00 B8 44
2026-07-24T18:50:32.096712+00:00 TX 01 03 00 00 00 20 44 12
2026-07-24T18:50:32.141328+00:00 RX 01 03 40 00 00 00 00 00 03 00 00 00 03 00 00 00 00 00 00 00 00 00 00 00 00 00 00 00 01 00 00 01 00 05 0A 00 00 00 00 00 00 00 00 00 00 00 00 00 00 00 00 00 00 00 00 00 00 00 00 FF FF 60 A2 FF FF 60 A2 AF 63
2026-07-24T18:50:32.143847+00:00 TX 01 03 00 20 00 02 C5 C1
2026-07-24T18:50:32.151499+00:00 RX 01 03 04 00 00 01 DA 7A 38
2026-07-24T18:50:32.153499+00:00 TX 01 03 01 C4 00 01 C4 0B
2026-07-24T18:50:32.160059+00:00 RX 01 03 02 00 00 B8 44
2026-07-24T18:50:32.210688+00:00 TX 01 03 00 00 00 20 44 12
2026-07-24T18:50:32.254695+00:00 RX 01 03 40 00 00 00 00 00 03 00 00 00 03 00 00 00 00 00 00 00 00 00 00 00 00 00 00 00 01 00 00 01 00 05 0A 00 00 00 00 00 00 00 00 00 00 00 00 00 00 00 00 00 00 00 00 00 00 00 00 FF FF 61 7E FF FF 61 7E 7F 68
2026-07-24T18:50:32.257696+00:00 TX 01 03 00 20 00 02 C5 C1
2026-07-24T18:50:32.265698+00:00 RX 01 03 04 00 00 01 DB BB F8
2026-07-24T18:50:32.268221+00:00 TX 01 03 01 C4 00 01 C4 0B
2026-07-24T18:50:32.274223+00:00 RX 01 03 02 00 00 B8 44
2026-07-24T18:50:32.325235+00:00 TX 01 03 00 00 00 20 44 12
2026-07-24T18:50:32.370245+00:00 RX 01 03 40 00 00 00 00 00 03 00 00 00 03 00 00 00 00 00 00 00 00 00 00 00 00 00 00 00 01 00 00 01 00 05 0A 00 00 00 00 00 00 00 00 00 00 00 00 00 00 00 00 00 00 00 00 00 00 00 00 FF FF 61 3C FF FF 61 3C 87 56
2026-07-24T18:50:32.373007+00:00 TX 01 03 00 20 00 02 C5 C1
2026-07-24T18:50:32.380510+00:00 RX 01 03 04 00 00 01 DD 3B FA
2026-07-24T18:50:32.382511+00:00 TX 01 03 01 C4 00 01 C4 0B
2026-07-24T18:50:32.389033+00:00 RX 01 03 02 00 00 B8 44
2026-07-24T18:50:32.439044+00:00 TX 01 03 00 00 00 20 44 12
2026-07-24T18:50:32.484052+00:00 RX 01 03 40 00 00 00 00 00 03 00 00 00 03 00 00 00 00 00 00 00 00 00 00 00 00 00 00 00 01 00 00 01 00 05 0A 00 00 00 00 00 00 00 00 00 00 00 00 00 00 00 00 00 00 00 00 00 00 00 00 FF FF 61 26 FF FF 61 26 5F 5F
2026-07-24T18:50:32.487053+00:00 TX 01 03 00 20 00 02 C5 C1
2026-07-24T18:50:32.494052+00:00 RX 01 03 04 00 00 01 DE 7B FB
2026-07-24T18:50:32.496052+00:00 TX 01 03 01 C4 00 01 C4 0B
2026-07-24T18:50:32.502054+00:00 RX 01 03 02 00 00 B8 44
2026-07-24T18:50:32.552143+00:00 TX 01 03 00 00 00 20 44 12
2026-07-24T18:50:32.597682+00:00 RX 01 03 40 00 00 00 00 00 03 00 00 00 03 00 00 00 00 00 00 00 00 00 00 00 00 00 00 00 01 00 00 01 00 05 0A 00 00 00 00 00 00 00 00 00 00 00 00 00 00 00 00 00 00 00 00 00 00 00 00 FF FF 60 1D FF FF 60 1D FB 08
2026-07-24T18:50:32.600683+00:00 TX 01 03 00 20 00 02 C5 C1
2026-07-24T18:50:32.607684+00:00 RX 01 03 04 00 00 01 DF BA 3B
2026-07-24T18:50:32.610685+00:00 TX 01 03 01 C4 00 01 C4 0B
2026-07-24T18:50:32.616683+00:00 RX 01 03 02 00 00 B8 44
2026-07-24T18:50:32.668222+00:00 TX 01 03 00 00 00 20 44 12
2026-07-24T18:50:32.712249+00:00 RX 01 03 40 00 00 00 00 00 03 00 00 00 03 00 00 00 00 00 00 00 00 00 00 00 00 00 00 00 01 00 00 01 00 05 0A 00 00 00 00 00 00 00 00 00 00 00 00 00 00 00 00 00 00 00 00 00 00 00 00 FF FF 5F 8D FF FF 5F 8D 2F 86
2026-07-24T18:50:32.715250+00:00 TX 01 03 00 20 00 02 C5 C1
2026-07-24T18:50:32.723252+00:00 RX 01 03 04 00 00 01 E0 FA 2B
2026-07-24T18:50:32.725253+00:00 TX 01 03 01 C4 00 01 C4 0B
2026-07-24T18:50:32.732254+00:00 RX 01 03 02 00 00 B8 44
2026-07-24T18:50:32.782842+00:00 TX 01 03 00 00 00 20 44 12
2026-07-24T18:50:32.826852+00:00 RX 01 03 40 00 00 00 00 00 03 00 00 00 03 00 00 00 00 00 00 00 00 00 00 00 00 00 00 00 01 00 00 01 00 05 0A 00 00 00 00 00 00 00 00 00 00 00 00 00 00 00 00 00 00 00 00 00 00 00 00 FF FF 5E 2F FF FF 5E 2F 57 A7
2026-07-24T18:50:32.829853+00:00 TX 01 03 00 20 00 02 C5 C1
2026-07-24T18:50:32.836854+00:00 RX 01 03 04 00 00 01 E1 3B EB
2026-07-24T18:50:32.839851+00:00 TX 01 03 01 C4 00 01 C4 0B
2026-07-24T18:50:32.845852+00:00 RX 01 03 02 00 00 B8 44
2026-07-24T18:50:32.896389+00:00 TX 01 03 00 00 00 20 44 12
2026-07-24T18:50:32.940901+00:00 RX 01 03 40 00 00 00 00 00 03 00 00 00 03 00 00 00 00 00 00 00 00 00 00 00 00 00 00 00 01 00 00 01 00 05 0A 00 00 00 00 00 00 00 00 00 00 00 00 00 00 00 00 00 00 00 00 00 00 00 00 FF FF 5D 73 FF FF 5D 73 87 50
2026-07-24T18:50:32.944899+00:00 TX 01 03 00 20 00 02 C5 C1
2026-07-24T18:50:32.952901+00:00 RX 01 03 04 00 00 01 E2 7B EA
2026-07-24T18:50:32.954901+00:00 TX 01 03 01 C4 00 01 C4 0B
2026-07-24T18:50:32.961405+00:00 RX 01 03 02 00 00 B8 44
2026-07-24T18:50:33.011950+00:00 TX 01 03 00 00 00 20 44 12
2026-07-24T18:50:33.056958+00:00 RX 01 03 40 00 00 00 00 00 03 00 00 00 03 00 00 00 00 00 00 00 00 00 00 00 00 00 00 00 01 00 00 01 00 05 0A 00 00 00 00 00 00 00 00 00 00 00 00 00 00 00 00 00 00 00 00 00 00 00 00 FF FF 5C 3B FF FF 5C 3B 67 29
2026-07-24T18:50:33.059959+00:00 TX 01 03 00 20 00 02 C5 C1
2026-07-24T18:50:33.067960+00:00 RX 01 03 04 00 00 01 E4 FB E8
2026-07-24T18:50:33.069961+00:00 TX 01 03 01 C4 00 01 C4 0B
2026-07-24T18:50:33.076464+00:00 RX 01 03 02 00 00 B8 44
2026-07-24T18:50:33.126477+00:00 TX 01 03 00 00 00 20 44 12
2026-07-24T18:50:33.171239+00:00 RX 01 03 40 00 00 00 00 00 03 00 00 00 03 00 00 00 00 00 00 00 00 00 00 00 00 00 00 00 01 00 00 01 00 05 0A 00 00 00 00 00 00 00 00 00 00 00 00 00 00 00 00 00 00 00 00 00 00 00 00 FF FF 5A B7 FF FF 5A B7 74 95
2026-07-24T18:50:33.173241+00:00 TX 01 03 00 20 00 02 C5 C1
2026-07-24T18:50:33.181744+00:00 RX 01 03 04 00 00 01 E5 3A 28
2026-07-24T18:50:33.183744+00:00 TX 01 03 01 C4 00 01 C4 0B
2026-07-24T18:50:33.189745+00:00 RX 01 03 02 00 00 B8 44
2026-07-24T18:50:33.240754+00:00 TX 01 03 00 00 00 20 44 12
2026-07-24T18:50:33.286284+00:00 RX 01 03 40 00 00 00 00 00 03 00 00 00 03 00 00 00 00 00 00 00 00 00 00 00 00 00 00 00 01 00 00 01 00 05 0A 00 00 00 00 00 00 00 00 00 00 00 00 00 00 00 00 00 00 00 00 00 00 00 00 FF FF 5B 57 FF FF 5B 57 F4 8A
2026-07-24T18:50:33.288284+00:00 TX 01 03 00 20 00 02 C5 C1
2026-07-24T18:50:33.296286+00:00 RX 01 03 04 00 00 01 E6 7A 29
2026-07-24T18:50:33.299283+00:00 TX 01 03 01 C4 00 01 C4 0B
2026-07-24T18:50:33.305284+00:00 RX 01 03 02 00 00 B8 44
2026-07-24T18:50:33.357136+00:00 TX 01 03 00 00 00 20 44 12
2026-07-24T18:50:33.402229+00:00 RX 01 03 40 00 00 00 00 00 03 00 00 00 03 00 00 00 00 00 00 00 00 00 00 00 00 00 00 00 01 00 00 01 00 05 0A 00 00 00 00 00 00 00 00 00 00 00 00 00 00 00 00 00 00 00 00 00 00 00 00 FF FF 5C 9E FF FF 5C 9E EB 4B
2026-07-24T18:50:33.404229+00:00 TX 01 03 00 20 00 02 C5 C1
2026-07-24T18:50:33.412231+00:00 RX 01 03 04 00 00 01 E7 BB E9
2026-07-24T18:50:33.414232+00:00 TX 01 03 01 C4 00 01 C4 0B
2026-07-24T18:50:33.420233+00:00 RX 01 03 02 00 00 B8 44
2026-07-24T18:50:33.471241+00:00 TX 01 03 00 00 00 20 44 12
2026-07-24T18:50:33.515260+00:00 RX 01 03 40 00 00 00 00 00 03 00 00 00 03 00 00 00 00 00 00 00 00 00 00 00 00 00 00 00 01 00 00 01 00 05 0A 00 00 00 00 00 00 00 00 00 00 00 00 00 00 00 00 00 00 00 00 00 00 00 00 FF FF 5C 4F FF FF 5C 4F D7 05
2026-07-24T18:50:33.519261+00:00 TX 01 03 00 20 00 02 C5 C1
2026-07-24T18:50:33.526905+00:00 RX 01 03 04 00 00 01 E8 FB ED
2026-07-24T18:50:33.528906+00:00 TX 01 03 01 C4 00 01 C4 0B
2026-07-24T18:50:33.534907+00:00 RX 01 03 02 00 00 B8 44
2026-07-24T18:50:33.584928+00:00 TX 01 03 00 00 00 20 44 12
2026-07-24T18:50:33.630070+00:00 RX 01 03 40 00 00 00 00 00 03 00 00 00 03 00 00 00 00 00 00 00 00 00 00 00 00 00 00 00 01 00 00 01 00 05 0A 00 00 00 00 00 00 00 00 00 00 00 00 00 00 00 00 00 00 00 00 00 00 00 00 FF FF 5C C2 FF FF 5C C2 3B 7F
2026-07-24T18:50:33.632071+00:00 TX 01 03 00 20 00 02 C5 C1
2026-07-24T18:50:33.639577+00:00 RX 01 03 04 00 00 01 E9 3A 2D
2026-07-24T18:50:33.643103+00:00 TX 01 03 01 C4 00 01 C4 0B
2026-07-24T18:50:33.649104+00:00 RX 01 03 02 00 00 B8 44
2026-07-24T18:50:33.699113+00:00 TX 01 03 00 00 00 20 44 12
2026-07-24T18:50:33.743621+00:00 RX 01 03 40 00 00 00 00 00 03 00 00 00 03 00 00 00 00 00 00 00 00 00 00 00 00 00 00 00 01 00 00 01 00 05 0A 00 00 00 00 00 00 00 00 00 00 00 00 00 00 00 00 00 00 00 00 00 00 00 00 FF FF 5B B8 FF FF 5B B8 60 D1
2026-07-24T18:50:33.745622+00:00 TX 01 03 00 20 00 02 C5 C1
2026-07-24T18:50:33.754131+00:00 RX 01 03 04 00 00 01 EB BB EC
2026-07-24T18:50:33.756132+00:00 TX 01 03 01 C4 00 01 C4 0B
2026-07-24T18:50:33.763635+00:00 RX 01 03 02 00 00 B8 44
2026-07-24T18:50:33.813651+00:00 TX 01 03 00 00 00 20 44 12
2026-07-24T18:50:33.857661+00:00 RX 01 03 40 00 00 00 00 00 03 00 00 00 03 00 00 00 00 00 00 00 00 00 00 00 00 00 00 00 01 00 00 01 00 05 0A 00 00 00 00 00 00 00 00 00 00 00 00 00 00 00 00 00 00 00 00 00 00 00 00 FF FF 5E 5A FF FF 5E 5A 1B 8B
2026-07-24T18:50:33.860658+00:00 TX 01 03 00 20 00 02 C5 C1
2026-07-24T18:50:33.867660+00:00 RX 01 03 04 00 00 01 EC FA 2E
2026-07-24T18:50:33.870661+00:00 TX 01 03 01 C4 00 01 C4 0B
2026-07-24T18:50:33.877191+00:00 RX 01 03 02 00 00 B8 44
2026-07-24T18:50:33.927202+00:00 TX 01 03 00 00 00 20 44 12
2026-07-24T18:50:33.971711+00:00 RX 01 03 40 00 00 00 00 00 03 00 00 00 03 00 00 00 00 00 00 00 00 00 00 00 00 00 00 00 01 00 00 01 00 05 0A 00 00 00 00 00 00 00 00 00 00 00 00 00 00 00 00 00 00 00 00 00 00 00 00 FF FF 5C 91 FF FF 5C 91 FF 4E
2026-07-24T18:50:33.975213+00:00 TX 01 03 00 20 00 02 C5 C1
2026-07-24T18:50:33.983717+00:00 RX 01 03 04 00 00 01 ED 3B EE
2026-07-24T18:50:33.986718+00:00 TX 01 03 01 C4 00 01 C4 0B
2026-07-24T18:50:33.992719+00:00 RX 01 03 02 00 00 B8 44
2026-07-24T18:50:34.043731+00:00 TX 01 03 00 00 00 20 44 12
2026-07-24T18:50:34.088760+00:00 RX 01 03 40 00 00 00 00 00 03 00 00 00 03 00 00 00 00 00 00 00 00 00 00 00 00 00 00 00 01 00 00 01 00 05 0A 00 00 00 00 00 00 00 00 00 00 00 00 00 00 00 00 00 00 00 00 00 00 00 00 FF FF 5C A2 FF FF 5C A2 BB 5F
2026-07-24T18:50:34.091760+00:00 TX 01 03 00 20 00 02 C5 C1
2026-07-24T18:50:34.098759+00:00 RX 01 03 04 00 00 01 EE 7B EF
2026-07-24T18:50:34.101760+00:00 TX 01 03 01 C4 00 01 C4 0B
2026-07-24T18:50:34.107761+00:00 RX 01 03 02 00 00 B8 44
2026-07-24T18:50:34.159338+00:00 TX 01 03 00 00 00 20 44 12
2026-07-24T18:50:34.203876+00:00 RX 01 03 40 00 00 00 00 00 03 00 00 00 03 00 00 00 00 00 00 00 00 00 00 00 00 00 00 00 01 00 00 01 00 05 0A 00 00 00 00 00 00 00 00 00 00 00 00 00 00 00 00 00 00 00 00 00 00 00 00 FF FF 5C DE FF FF 5C DE EB 74
2026-07-24T18:50:34.206877+00:00 TX 01 03 00 20 00 02 C5 C1
2026-07-24T18:50:34.214878+00:00 RX 01 03 04 00 00 01 EF BA 2F
2026-07-24T18:50:34.216879+00:00 TX 01 03 01 C4 00 01 C4 0B
2026-07-24T18:50:34.222880+00:00 RX 01 03 02 00 00 B8 44
2026-07-24T18:50:34.273266+00:00 TX 01 03 00 00 00 20 44 12
2026-07-24T18:50:34.317794+00:00 RX 01 03 40 00 00 00 00 00 03 00 00 00 03 00 00 00 00 00 00 00 00 00 00 00 00 00 00 00 01 00 00 01 00 05 0A 00 00 00 00 00 00 00 00 00 00 00 00 00 00 00 00 00 00 00 00 00 00 00 00 FF FF 5D BE FF FF 5D BE 6B 15
2026-07-24T18:50:34.320796+00:00 TX 01 03 00 20 00 02 C5 C1
2026-07-24T18:50:34.327797+00:00 RX 01 03 04 00 00 01 F0 FB E7
2026-07-24T18:50:34.330798+00:00 TX 01 03 01 C4 00 01 C4 0B
2026-07-24T18:50:34.336799+00:00 RX 01 03 02 00 00 B8 44
2026-07-24T18:50:34.387856+00:00 TX 01 03 00 00 00 20 44 12
2026-07-24T18:50:34.432863+00:00 RX 01 03 40 00 00 00 00 00 03 00 00 00 03 00 00 00 00 00 00 00 00 00 00 00 00 00 00 00 01 00 00 01 00 05 0A 00 00 00 00 00 00 00 00 00 00 00 00 00 00 00 00 00 00 00 00 00 00 00 00 FF FF 60 86 FF FF 60 86 DF 7F
2026-07-24T18:50:34.434864+00:00 TX 01 03 00 20 00 02 C5 C1
2026-07-24T18:50:34.443306+00:00 RX 01 03 04 00 00 01 F2 7A 26
2026-07-24T18:50:34.446303+00:00 TX 01 03 01 C4 00 01 C4 0B
2026-07-24T18:50:34.452304+00:00 RX 01 03 02 00 00 B8 44
2026-07-24T18:50:34.503320+00:00 TX 01 03 00 00 00 20 44 12
2026-07-24T18:50:34.547918+00:00 RX 01 03 40 00 00 00 00 00 03 00 00 00 03 00 00 00 00 00 00 00 00 00 00 00 00 00 00 00 01 00 00 01 00 05 0A 00 00 00 00 00 00 00 00 00 00 00 00 00 00 00 00 00 00 00 00 00 00 00 00 FF FF 62 4C FF FF 62 4C C7 BA
2026-07-24T18:50:34.549918+00:00 TX 01 03 00 20 00 02 C5 C1
2026-07-24T18:50:34.556920+00:00 RX 01 03 04 00 00 01 F3 BB E6
2026-07-24T18:50:34.560425+00:00 TX 01 03 01 C4 00 01 C4 0B
2026-07-24T18:50:34.566436+00:00 RX 01 03 02 00 00 B8 44
2026-07-24T18:50:34.616461+00:00 TX 01 03 00 00 00 20 44 12
2026-07-24T18:50:34.661180+00:00 RX 01 03 40 00 00 00 00 00 03 00 00 00 03 00 00 00 00 00 00 00 00 00 00 00 00 00 00 00 01 00 00 01 00 05 0A 00 00 00 00 00 00 00 00 00 00 00 00 00 00 00 00 00 00 00 00 00 00 00 00 FF FF 60 94 FF FF 60 94 E7 71
2026-07-24T18:50:34.664177+00:00 TX 01 03 00 20 00 02 C5 C1
2026-07-24T18:50:34.672179+00:00 RX 01 03 04 00 00 01 F4 FA 24
2026-07-24T18:50:34.674179+00:00 TX 01 03 01 C4 00 01 C4 0B
2026-07-24T18:50:34.680682+00:00 RX 01 03 02 00 00 B8 44
2026-07-24T18:50:34.730694+00:00 TX 01 03 00 00 00 20 44 12
2026-07-24T18:50:34.774749+00:00 RX 01 03 40 00 00 00 00 00 03 00 00 00 03 00 00 00 00 00 00 00 00 00 00 00 00 00 00 00 01 00 00 01 00 05 0A 00 00 00 00 00 00 00 00 00 00 00 00 00 00 00 00 00 00 00 00 00 00 00 00 FF FF 63 C9 FF FF 63 C9 CB 86
2026-07-24T18:50:34.777264+00:00 TX 01 03 00 20 00 02 C5 C1
2026-07-24T18:50:34.784266+00:00 RX 01 03 04 00 00 01 F5 3B E4
2026-07-24T18:50:34.788769+00:00 TX 01 03 01 C4 00 01 C4 0B
2026-07-24T18:50:34.794770+00:00 RX 01 03 02 00 00 B8 44
2026-07-24T18:50:34.844787+00:00 TX 01 03 00 00 00 20 44 12
2026-07-24T18:50:34.888893+00:00 RX 01 03 40 00 00 00 00 00 03 00 00 00 03 00 00 00 00 00 00 00 00 00 00 00 00 00 00 00 01 00 00 01 00 05 0A 00 00 00 00 00 00 00 00 00 00 00 00 00 00 00 00 00 00 00 00 00 00 00 00 FF FF 62 34 FF FF 62 34 67 92
2026-07-24T18:50:34.890893+00:00 TX 01 03 00 20 00 02 C5 C1
2026-07-24T18:50:34.898895+00:00 RX 01 03 04 00 00 01 F6 7B E5
2026-07-24T18:50:34.900895+00:00 TX 01 03 01 C4 00 01 C4 0B
2026-07-24T18:50:34.907403+00:00 RX 01 03 02 00 00 B8 44
2026-07-24T18:50:34.961245+00:00 TX 01 03 00 00 00 20 44 12
2026-07-24T18:50:35.008266+00:00 RX 01 03 40 00 00 00 00 00 03 00 00 00 03 00 00 00 00 00 00 00 00 00 00 00 00 00 00 00 01 00 00 01 00 05 0A 00 00 00 00 00 00 00 00 00 00 00 00 00 00 00 00 00 00 00 00 00 00 00 00 FF FF 5E 98 FF FF 5E 98 E3 CB
2026-07-24T18:50:35.012768+00:00 TX 01 03 00 20 00 02 C5 C1
2026-07-24T18:50:35.020770+00:00 RX 01 03 04 00 00 01 F8 FA 21
2026-07-24T18:50:35.022771+00:00 TX 01 03 01 C4 00 01 C4 0B
2026-07-24T18:50:35.028773+00:00 RX 01 03 02 00 00 B8 44
2026-07-24T18:50:35.079854+00:00 TX 01 03 00 00 00 20 44 12
2026-07-24T18:50:35.125300+00:00 RX 01 03 40 00 00 00 00 00 03 00 00 00 03 00 00 00 00 00 00 00 00 00 00 00 00 00 00 00 01 00 00 01 00 05 0A 00 00 00 00 00 00 00 00 00 00 00 00 00 00 00 00 00 00 00 00 00 00 00 00 FF FF 5F B8 FF FF 5F B8 63 95
2026-07-24T18:50:35.127302+00:00 TX 01 03 00 20 00 02 C5 C1
2026-07-24T18:50:35.135070+00:00 RX 01 03 04 00 00 01 F9 3B E1
2026-07-24T18:50:35.137071+00:00 TX 01 03 01 C4 00 01 C4 0B
2026-07-24T18:50:35.143593+00:00 RX 01 03 02 00 00 B8 44
2026-07-24T18:50:35.194500+00:00 TX 01 03 00 00 00 20 44 12
2026-07-24T18:50:35.239267+00:00 RX 01 03 40 00 00 00 00 00 03 00 00 00 03 00 00 00 00 00 00 00 00 00 00 00 00 00 00 00 01 00 00 01 00 05 0A 00 00 00 00 00 00 00 00 00 00 00 00 00 00 00 00 00 00 00 00 00 00 00 00 FF FF 60 73 FF FF 60 73 93 2D
2026-07-24T18:50:35.242264+00:00 TX 01 03 00 20 00 02 C5 C1
2026-07-24T18:50:35.249265+00:00 RX 01 03 04 00 00 01 FA 7B E0
2026-07-24T18:50:35.252266+00:00 TX 01 03 01 C4 00 01 C4 0B
2026-07-24T18:50:35.258770+00:00 RX 01 03 02 00 00 B8 44
2026-07-24T18:50:35.309497+00:00 TX 01 03 00 00 00 20 44 12
2026-07-24T18:50:35.354005+00:00 RX 01 03 40 00 00 00 00 00 03 00 00 00 03 00 00 00 00 00 00 00 00 00 00 00 00 00 00 00 01 00 00 01 00 05 0A 00 00 00 00 00 00 00 00 00 00 00 00 00 00 00 00 00 00 00 00 00 00 00 00 FF FF 5D CD FF FF 5D CD 2F 3B
2026-07-24T18:50:35.356005+00:00 TX 01 03 00 20 00 02 C5 C1
2026-07-24T18:50:35.364505+00:00 RX 01 03 04 00 00 01 FB BA 20
2026-07-24T18:50:35.366506+00:00 TX 01 03 01 C4 00 01 C4 0B
2026-07-24T18:50:35.373508+00:00 RX 01 03 02 00 00 B8 44
2026-07-24T18:50:35.424176+00:00 TX 01 03 00 00 00 20 44 12
2026-07-24T18:50:35.468398+00:00 RX 01 03 40 00 00 00 00 00 03 00 00 00 03 00 00 00 00 00 00 00 00 00 00 00 00 00 00 00 01 00 00 01 00 05 0A 00 00 00 00 00 00 00 00 00 00 00 00 00 00 00 00 00 00 00 00 00 00 00 00 FF FF 5F B1 FF FF 5F B1 7F 92
2026-07-24T18:50:35.471399+00:00 TX 01 03 00 20 00 02 C5 C1
2026-07-24T18:50:35.479401+00:00 RX 01 03 04 00 00 01 FC FB E2
2026-07-24T18:50:35.481959+00:00 TX 01 03 01 C4 00 01 C4 0B
2026-07-24T18:50:35.488470+00:00 RX 01 03 02 00 00 B8 44
2026-07-24T18:50:35.538954+00:00 TX 01 03 00 00 00 20 44 12
2026-07-24T18:50:35.583979+00:00 RX 01 03 40 00 00 00 00 00 03 00 00 00 03 00 00 00 00 00 00 00 00 00 00 00 00 00 00 00 01 00 00 01 00 05 0A 00 00 00 00 00 00 00 00 00 00 00 00 00 00 00 00 00 00 00 00 00 00 00 00 FF FF 60 3F FF FF 60 3F 83 16
2026-07-24T18:50:35.585980+00:00 TX 01 03 00 20 00 02 C5 C1
2026-07-24T18:50:35.593483+00:00 RX 01 03 04 00 00 01 FD 3A 22
2026-07-24T18:50:35.595483+00:00 TX 01 03 01 C4 00 01 C4 0B
2026-07-24T18:50:35.602484+00:00 RX 01 03 02 00 00 B8 44
2026-07-24T18:50:35.652522+00:00 TX 01 03 00 00 00 20 44 12
2026-07-24T18:50:35.697549+00:00 RX 01 03 40 00 00 00 00 00 03 00 00 00 03 00 00 00 00 00 00 00 00 00 00 00 00 00 00 00 01 00 00 01 00 05 0A 00 00 00 00 00 00 00 00 00 00 00 00 00 00 00 00 00 00 00 00 00 00 00 00 FF FF 5E AB FF FF 5E AB A7 DA
2026-07-24T18:50:35.699548+00:00 TX 01 03 00 20 00 02 C5 C1
2026-07-24T18:50:35.707547+00:00 RX 01 03 04 00 00 01 FE 7A 23
2026-07-24T18:50:35.709548+00:00 TX 01 03 01 C4 00 01 C4 0B
2026-07-24T18:50:35.716591+00:00 RX 01 03 02 00 00 B8 44
2026-07-24T18:50:35.767531+00:00 TX 01 03 00 00 00 20 44 12
2026-07-24T18:50:35.812545+00:00 RX 01 03 40 00 00 00 00 00 03 00 00 00 03 00 00 00 00 00 00 00 00 00 00 00 00 00 00 00 01 00 00 01 00 05 0A 00 00 00 00 00 00 00 00 00 00 00 00 00 00 00 00 00 00 00 00 00 00 00 00 FF FF 5D 4B FF FF 5D 4B 27 47
2026-07-24T18:50:35.815545+00:00 TX 01 03 00 20 00 02 C5 C1
2026-07-24T18:50:35.824548+00:00 RX 01 03 04 00 00 02 00 FB 53
2026-07-24T18:50:35.826548+00:00 TX 01 03 01 C4 00 01 C4 0B
2026-07-24T18:50:35.833550+00:00 RX 01 03 02 00 00 B8 44
2026-07-24T18:50:35.883851+00:00 TX 01 03 00 00 00 20 44 12
2026-07-24T18:50:35.928863+00:00 RX 01 03 40 00 00 00 00 00 03 00 00 00 03 00 00 00 00 00 00 00 00 00 00 00 00 00 00 00 01 00 00 01 00 05 0A 00 00 00 00 00 00 00 00 00 00 00 00 00 00 00 00 00 00 00 00 00 00 00 00 FF FF 5C 7D FF FF 5C 7D 6F 14
2026-07-24T18:50:35.930863+00:00 TX 01 03 00 20 00 02 C5 C1
2026-07-24T18:50:35.938366+00:00 RX 01 03 04 00 00 02 01 3A 93
2026-07-24T18:50:35.940366+00:00 TX 01 03 01 C4 00 01 C4 0B
2026-07-24T18:50:35.946368+00:00 RX 01 03 02 00 00 B8 44
2026-07-24T18:50:35.997898+00:00 TX 01 03 00 00 00 20 44 12
2026-07-24T18:50:36.042909+00:00 RX 01 03 40 00 00 00 00 00 03 00 00 00 03 00 00 00 00 00 00 00 00 00 00 00 00 00 00 00 01 00 00 01 00 05 0A 00 00 00 00 00 00 00 00 00 00 00 00 00 00 00 00 00 00 00 00 00 00 00 00 FF FF 5C D0 FF FF 5C D0 03 71
2026-07-24T18:50:36.044909+00:00 TX 01 03 00 20 00 02 C5 C1
2026-07-24T18:50:36.052911+00:00 RX 01 03 04 00 00 02 02 7A 92
2026-07-24T18:50:36.054911+00:00 TX 01 03 01 C4 00 01 C4 0B
2026-07-24T18:50:36.061913+00:00 RX 01 03 02 00 00 B8 44
2026-07-24T18:50:36.111922+00:00 TX 01 03 00 00 00 20 44 12
2026-07-24T18:50:36.157460+00:00 RX 01 03 40 00 00 00 00 00 03 00 00 00 03 00 00 00 00 00 00 00 00 00 00 00 00 00 00 00 01 00 00 01 00 05 0A 00 00 00 00 00 00 00 00 00 00 00 00 00 00 00 00 00 00 00 00 00 00 00 00 FF FF 5E B0 FF FF 5E B0 83 D3
2026-07-24T18:50:36.159460+00:00 TX 01 03 00 20 00 02 C5 C1
2026-07-24T18:50:36.166965+00:00 RX 01 03 04 00 00 02 03 BB 52
2026-07-24T18:50:36.169962+00:00 TX 01 03 01 C4 00 01 C4 0B
2026-07-24T18:50:36.176964+00:00 RX 01 03 02 00 00 B8 44
2026-07-24T18:50:36.227030+00:00 TX 01 03 00 00 00 20 44 12
2026-07-24T18:50:36.271037+00:00 RX 01 03 40 00 00 00 00 00 03 00 00 00 03 00 00 00 00 00 00 00 00 00 00 00 00 00 00 00 01 00 00 01 00 05 0A 00 00 00 00 00 00 00 00 00 00 00 00 00 00 00 00 00 00 00 00 00 00 00 00 FF FF 61 76 FF FF 61 76 9F 6F
2026-07-24T18:50:36.274038+00:00 TX 01 03 00 20 00 02 C5 C1
2026-07-24T18:50:36.282040+00:00 RX 01 03 04 00 00 02 04 FA 90
2026-07-24T18:50:36.285542+00:00 TX 01 03 01 C4 00 01 C4 0B
2026-07-24T18:50:36.292045+00:00 RX 01 03 02 00 00 B8 44
2026-07-24T18:50:36.342556+00:00 TX 01 03 00 00 00 20 44 12
2026-07-24T18:50:36.387577+00:00 RX 01 03 40 00 00 00 00 00 03 00 00 00 03 00 00 00 00 00 00 00 00 00 00 00 00 00 00 00 01 00 00 01 00 05 0A 00 00 00 00 00 00 00 00 00 00 00 00 00 00 00 00 00 00 00 00 00 00 00 00 FF FF 5F EA FF FF 5F EA 5B A4
2026-07-24T18:50:36.390121+00:00 TX 01 03 00 20 00 02 C5 C1
2026-07-24T18:50:36.397626+00:00 RX 01 03 04 00 00 02 06 7B 51
2026-07-24T18:50:36.400626+00:00 TX 01 03 01 C4 00 01 C4 0B
2026-07-24T18:50:36.406628+00:00 RX 01 03 02 00 00 B8 44
2026-07-24T18:50:36.457640+00:00 TX 01 03 00 00 00 20 44 12
2026-07-24T18:50:36.503764+00:00 RX 01 03 40 00 00 00 00 00 03 00 00 00 03 00 00 00 00 00 00 00 00 00 00 00 00 00 00 00 01 00 00 01 00 05 0A 00 00 00 00 00 00 00 00 00 00 00 00 00 00 00 00 00 00 00 00 00 00 00 00 FF FF 5F FD FF FF 5F FD 6F A9
2026-07-24T18:50:36.505777+00:00 TX 01 03 00 20 00 02 C5 C1
2026-07-24T18:50:36.513779+00:00 RX 01 03 04 00 00 02 07 BA 91
2026-07-24T18:50:36.515780+00:00 TX 01 03 01 C4 00 01 C4 0B
2026-07-24T18:50:36.522796+00:00 RX 01 03 02 00 00 B8 44
2026-07-24T18:50:36.573303+00:00 TX 01 03 00 00 00 20 44 12
2026-07-24T18:50:36.617961+00:00 RX 01 03 40 00 00 00 00 00 03 00 00 00 03 00 00 00 00 00 00 00 00 00 00 00 00 00 00 00 01 00 00 01 00 05 0A 00 00 00 00 00 00 00 00 00 00 00 00 00 00 00 00 00 00 00 00 00 00 00 00 FF FF 5F 30 FF FF 5F 30 83 EC
2026-07-24T18:50:36.619961+00:00 TX 01 03 00 20 00 02 C5 C1
2026-07-24T18:50:36.626963+00:00 RX 01 03 04 00 00 02 08 FA 95
2026-07-24T18:50:36.629127+00:00 TX 01 03 01 C4 00 01 C4 0B
2026-07-24T18:50:36.636126+00:00 RX 01 03 02 00 00 B8 44
2026-07-24T18:50:36.686645+00:00 TX 01 03 00 00 00 20 44 12
2026-07-24T18:50:36.730654+00:00 RX 01 03 40 00 00 00 00 00 03 00 00 00 03 00 00 00 00 00 00 00 00 00 00 00 00 00 00 00 01 00 00 01 00 05 0A 00 00 00 00 00 00 00 00 00 00 00 00 00 00 00 00 00 00 00 00 00 00 00 00 FF FF 5B 2B FF FF 5B 2B A4 A1
2026-07-24T18:50:36.734655+00:00 TX 01 03 00 20 00 02 C5 C1
2026-07-24T18:50:36.742653+00:00 RX 01 03 04 00 00 02 09 3B 55
2026-07-24T18:50:36.745654+00:00 TX 01 03 01 C4 00 01 C4 0B
2026-07-24T18:50:36.751655+00:00 RX 01 03 02 00 00 B8 44
2026-07-24T18:50:36.802689+00:00 TX 01 03 00 00 00 20 44 12
2026-07-24T18:50:36.847474+00:00 RX 01 03 40 00 00 00 00 00 03 00 00 00 03 00 00 00 00 00 00 00 00 00 00 00 00 00 00 00 01 00 00 01 00 05 0A 00 00 00 00 00 00 00 00 00 00 00 00 00 00 00 00 00 00 00 00 00 00 00 00 FF FF 5C 39 FF FF 5C 39 9F 28
2026-07-24T18:50:36.849474+00:00 TX 01 03 00 20 00 02 C5 C1
2026-07-24T18:50:36.857476+00:00 RX 01 03 04 00 00 02 0A 7B 54
2026-07-24T18:50:36.859477+00:00 TX 01 03 01 C4 00 01 C4 0B
2026-07-24T18:50:36.865478+00:00 RX 01 03 02 00 00 B8 44
2026-07-24T18:50:36.916508+00:00 TX 01 03 00 00 00 20 44 12
2026-07-24T18:50:36.961015+00:00 RX 01 03 40 00 00 00 00 00 03 00 00 00 03 00 00 00 00 00 00 00 00 00 00 00 00 00 00 00 01 00 00 01 00 05 0A 00 00 00 00 00 00 00 00 00 00 00 00 00 00 00 00 00 00 00 00 00 00 00 00 FF FF 5A B7 FF FF 5A B7 74 95
2026-07-24T18:50:36.963016+00:00 TX 01 03 00 20 00 02 C5 C1
2026-07-24T18:50:36.971517+00:00 RX 01 03 04 00 00 02 0B BA 94
2026-07-24T18:50:36.973518+00:00 TX 01 03 01 C4 00 01 C4 0B
2026-07-24T18:50:36.980519+00:00 RX 01 03 02 00 00 B8 44
2026-07-24T18:50:37.030533+00:00 TX 01 03 00 00 00 20 44 12
2026-07-24T18:50:37.075546+00:00 RX 01 03 40 00 00 00 00 00 03 00 00 00 03 00 00 00 00 00 00 00 00 00 00 00 00 00 00 00 01 00 00 01 00 05 0A 00 00 00 00 00 00 00 00 00 00 00 00 00 00 00 00 00 00 00 00 00 00 00 00 FF FF 59 62 FF FF 59 62 B8 1B
2026-07-24T18:50:37.077546+00:00 TX 01 03 00 20 00 02 C5 C1
2026-07-24T18:50:37.086052+00:00 RX 01 03 04 00 00 02 0D 3A 96
2026-07-24T18:50:37.088065+00:00 TX 01 03 01 C4 00 01 C4 0B
2026-07-24T18:50:37.094567+00:00 RX 01 03 02 00 00 B8 44
2026-07-24T18:50:37.144721+00:00 TX 01 03 00 00 00 20 44 12
2026-07-24T18:50:37.188788+00:00 RX 01 03 40 00 00 00 00 00 03 00 00 00 03 00 00 00 00 00 00 00 00 00 00 00 00 00 00 00 01 00 00 01 00 05 0A 00 00 00 00 00 00 00 00 00 00 00 00 00 00 00 00 00 00 00 00 00 00 00 00 FF FF 58 48 FF FF 58 48 20 43
2026-07-24T18:50:37.190788+00:00 TX 01 03 00 20 00 02 C5 C1
2026-07-24T18:50:37.198292+00:00 RX 01 03 04 00 00 02 0E 7A 97
2026-07-24T18:50:37.200293+00:00 TX 01 03 01 C4 00 01 C4 0B
2026-07-24T18:50:37.207628+00:00 RX 01 03 02 00 00 B8 44
2026-07-24T18:50:37.258300+00:00 TX 01 03 00 00 00 20 44 12
2026-07-24T18:50:37.302968+00:00 RX 01 03 40 00 00 00 00 00 03 00 00 00 03 00 00 00 00 00 00 00 00 00 00 00 00 00 00 00 01 00 00 01 00 05 0A 00 00 00 00 00 00 00 00 00 00 00 00 00 00 00 00 00 00 00 00 00 00 00 00 FF FF 59 85 FF FF 59 85 CC 47
2026-07-24T18:50:37.305966+00:00 TX 01 03 00 20 00 02 C5 C1
2026-07-24T18:50:37.313968+00:00 RX 01 03 04 00 00 02 0F BB 57
2026-07-24T18:50:37.315969+00:00 TX 01 03 01 C4 00 01 C4 0B
2026-07-24T18:50:37.322471+00:00 RX 01 03 02 00 00 B8 44
2026-07-24T18:50:37.372978+00:00 TX 01 03 00 00 00 20 44 12
2026-07-24T18:50:37.417075+00:00 RX 01 03 40 00 00 00 00 00 03 00 00 00 03 00 00 00 00 00 00 00 00 00 00 00 00 00 00 00 01 00 00 01 00 05 0A 00 00 00 00 00 00 00 00 00 00 00 00 00 00 00 00 00 00 00 00 00 00 00 00 FF FF 59 5B FF FF 59 5B E4 0C
2026-07-24T18:50:37.420076+00:00 TX 01 03 00 20 00 02 C5 C1
2026-07-24T18:50:37.428621+00:00 RX 01 03 04 00 00 02 10 FA 9F
2026-07-24T18:50:37.431621+00:00 TX 01 03 01 C4 00 01 C4 0B
2026-07-24T18:50:37.438623+00:00 RX 01 03 02 00 00 B8 44
2026-07-24T18:50:37.488713+00:00 TX 01 03 00 00 00 20 44 12
2026-07-24T18:50:37.533323+00:00 RX 01 03 40 00 00 00 00 00 03 00 00 00 03 00 00 00 00 00 00 00 00 00 00 00 00 00 00 00 01 00 00 01 00 05 0A 00 00 00 00 00 00 00 00 00 00 00 00 00 00 00 00 00 00 00 00 00 00 00 00 FF FF 59 56 FF FF 59 56 08 08
2026-07-24T18:50:37.535324+00:00 TX 01 03 00 20 00 02 C5 C1
2026-07-24T18:50:37.544326+00:00 RX 01 03 04 00 00 02 11 3B 5F
2026-07-24T18:50:37.547327+00:00 TX 01 03 01 C4 00 01 C4 0B
2026-07-24T18:50:37.554325+00:00 RX 01 03 02 00 00 B8 44
2026-07-24T18:50:37.605028+00:00 TX 01 03 00 00 00 20 44 12
2026-07-24T18:50:37.649626+00:00 RX 01 03 40 00 00 00 00 00 03 00 00 00 03 00 00 00 00 00 00 00 00 00 00 00 00 00 00 00 01 00 00 01 00 05 0A 00 00 00 00 00 00 00 00 00 00 00 00 00 00 00 00 00 00 00 00 00 00 00 00 FF FF 5A 9C FF FF 5A 9C 10 8C
2026-07-24T18:50:37.652238+00:00 TX 01 03 00 20 00 02 C5 C1
2026-07-24T18:50:37.659530+00:00 RX 01 03 04 00 00 02 12 7B 5E
2026-07-24T18:50:37.662527+00:00 TX 01 03 01 C4 00 01 C4 0B
2026-07-24T18:50:37.668859+00:00 RX 01 03 02 00 00 B8 44
2026-07-24T18:50:37.718947+00:00 TX 01 03 00 00 00 20 44 12
2026-07-24T18:50:37.763963+00:00 RX 01 03 40 00 00 00 00 00 03 00 00 00 03 00 00 00 00 00 00 00 00 00 00 00 00 00 00 00 01 00 00 01 00 05 0A 00 00 00 00 00 00 00 00 00 00 00 00 00 00 00 00 00 00 00 00 00 00 00 00 FF FF 59 B6 FF FF 59 B6 88 56
2026-07-24T18:50:37.766465+00:00 TX 01 03 00 20 00 02 C5 C1
2026-07-24T18:50:37.774464+00:00 RX 01 03 04 00 00 02 14 FB 5C
2026-07-24T18:50:37.776465+00:00 TX 01 03 01 C4 00 01 C4 0B
2026-07-24T18:50:37.783466+00:00 RX 01 03 02 00 00 B8 44
2026-07-24T18:50:37.833480+00:00 TX 01 03 00 00 00 20 44 12
2026-07-24T18:50:37.877985+00:00 RX 01 03 40 00 00 00 00 00 03 00 00 00 03 00 00 00 00 00 00 00 00 00 00 00 00 00 00 00 01 00 00 01 00 05 0A 00 00 00 00 00 00 00 00 00 00 00 00 00 00 00 00 00 00 00 00 00 00 00 00 FF FF 59 9E FF FF 59 9E E8 4E
2026-07-24T18:50:37.879986+00:00 TX 01 03 00 20 00 02 C5 C1
2026-07-24T18:50:37.887988+00:00 RX 01 03 04 00 00 02 15 3A 9C
2026-07-24T18:50:37.890489+00:00 TX 01 03 01 C4 00 01 C4 0B
2026-07-24T18:50:37.896995+00:00 RX 01 03 02 00 00 B8 44
2026-07-24T18:50:37.947087+00:00 TX 01 03 00 00 00 20 44 12
2026-07-24T18:50:37.992111+00:00 RX 01 03 40 00 00 00 00 00 03 00 00 00 03 00 00 00 00 00 00 00 00 00 00 00 00 00 00 00 01 00 00 01 00 05 0A 00 00 00 00 00 00 00 00 00 00 00 00 00 00 00 00 00 00 00 00 00 00 00 00 FF FF 59 7A FF FF 59 7A 98 13
2026-07-24T18:50:37.995112+00:00 TX 01 03 00 20 00 02 C5 C1
2026-07-24T18:50:38.003645+00:00 RX 01 03 04 00 00 02 16 7A 9D
2026-07-24T18:50:38.006646+00:00 TX 01 03 01 C4 00 01 C4 0B
2026-07-24T18:50:38.013147+00:00 RX 01 03 02 00 00 B8 44
2026-07-24T18:50:38.063159+00:00 TX 01 03 00 00 00 20 44 12
2026-07-24T18:50:38.107165+00:00 RX 01 03 40 00 00 00 00 00 03 00 00 00 03 00 00 00 00 00 00 00 00 00 00 00 00 00 00 00 01 00 00 01 00 05 0A 00 00 00 00 00 00 00 00 00 00 00 00 00 00 00 00 00 00 00 00 00 00 00 00 FF FF 5C 1F FF FF 5C 1F 17 35
2026-07-24T18:50:38.110166+00:00 TX 01 03 00 20 00 02 C5 C1
2026-07-24T18:50:38.117167+00:00 RX 01 03 04 00 00 02 17 BB 5D
2026-07-24T18:50:38.119168+00:00 TX 01 03 01 C4 00 01 C4 0B
2026-07-24T18:50:38.125671+00:00 RX 01 03 02 00 00 B8 44
2026-07-24T18:50:38.175725+00:00 TX 01 03 00 00 00 20 44 12
2026-07-24T18:50:38.219770+00:00 RX 01 03 40 00 00 00 00 00 03 00 00 00 03 00 00 00 00 00 00 00 00 00 00 00 00 00 00 00 01 00 00 01 00 05 0A 00 00 00 00 00 00 00 00 00 00 00 00 00 00 00 00 00 00 00 00 00 00 00 00 FF FF 5B EA FF FF 5B EA 58 E0
2026-07-24T18:50:38.221771+00:00 TX 01 03 00 20 00 02 C5 C1
2026-07-24T18:50:38.228772+00:00 RX 01 03 04 00 00 02 18 FB 59
2026-07-24T18:50:38.230772+00:00 TX 01 03 01 C4 00 01 C4 0B
2026-07-24T18:50:38.236774+00:00 RX 01 03 02 00 00 B8 44
2026-07-24T18:50:38.286782+00:00 TX 01 03 00 00 00 20 44 12
2026-07-24T18:50:38.331294+00:00 RX 01 03 40 00 00 00 00 00 03 00 00 00 03 00 00 00 00 00 00 00 00 00 00 00 00 00 00 00 01 00 00 01 00 05 0A 00 00 00 00 00 00 00 00 00 00 00 00 00 00 00 00 00 00 00 00 00 00 00 00 FF FF 59 80 FF FF 59 80 C0 44
2026-07-24T18:50:38.333294+00:00 TX 01 03 00 20 00 02 C5 C1
2026-07-24T18:50:38.341296+00:00 RX 01 03 04 00 00 02 19 3A 99
2026-07-24T18:50:38.343297+00:00 TX 01 03 01 C4 00 01 C4 0B
2026-07-24T18:50:38.349298+00:00 RX 01 03 02 00 00 B8 44
2026-07-24T18:50:38.399323+00:00 TX 01 03 00 00 00 20 44 12
2026-07-24T18:50:38.444333+00:00 RX 01 03 40 00 00 00 00 00 03 00 00 00 03 00 00 00 00 00 00 00 00 00 00 00 00 00 00 00 01 00 00 01 00 05 0A 00 00 00 00 00 00 00 00 00 00 00 00 00 00 00 00 00 00 00 00 00 00 00 00 FF FF 59 50 FF FF 59 50 00 0A
2026-07-24T18:50:38.446334+00:00 TX 01 03 00 20 00 02 C5 C1
2026-07-24T18:50:38.453336+00:00 RX 01 03 04 00 00 02 1A 7A 98
2026-07-24T18:50:38.455336+00:00 TX 01 03 01 C4 00 01 C4 0B
2026-07-24T18:50:38.462338+00:00 RX 01 03 02 00 00 B8 44
2026-07-24T18:50:38.512871+00:00 TX 01 03 00 00 00 20 44 12
2026-07-24T18:50:38.557919+00:00 RX 01 03 40 00 00 00 00 00 03 00 00 00 03 00 00 00 00 00 00 00 00 00 00 00 00 00 00 00 01 00 00 01 00 05 0A 00 00 00 00 00 00 00 00 00 00 00 00 00 00 00 00 00 00 00 00 00 00 00 00 FF FF 5B 0F FF FF 5B 0F D4 BD
2026-07-24T18:50:38.559919+00:00 TX 01 03 00 20 00 02 C5 C1
2026-07-24T18:50:38.567421+00:00 RX 01 03 04 00 00 02 1C FA 9A
2026-07-24T18:50:38.569422+00:00 TX 01 03 01 C4 00 01 C4 0B
2026-07-24T18:50:38.576420+00:00 RX 01 03 02 00 00 B8 44
2026-07-24T18:50:38.626431+00:00 TX 01 03 00 00 00 20 44 12
2026-07-24T18:50:38.671468+00:00 RX 01 03 40 00 00 00 00 00 03 00 00 00 03 00 00 00 00 00 00 00 00 00 00 00 00 00 00 00 01 00 00 01 00 05 0A 00 00 00 00 00 00 00 00 00 00 00 00 00 00 00 00 00 00 00 00 00 00 00 00 FF FF 5C 9E FF FF 5C 9E EB 4B
2026-07-24T18:50:38.673469+00:00 TX 01 03 00 20 00 02 C5 C1
2026-07-24T18:50:38.681468+00:00 RX 01 03 04 00 00 02 1D 3B 5A
2026-07-24T18:50:38.684468+00:00 TX 01 03 01 C4 00 01 C4 0B
2026-07-24T18:50:38.690469+00:00 RX 01 03 02 00 00 B8 44
2026-07-24T18:50:38.741113+00:00 TX 01 03 00 00 00 20 44 12
2026-07-24T18:50:38.786667+00:00 RX 01 03 40 00 00 00 00 00 03 00 00 00 03 00 00 00 00 00 00 00 00 00 00 00 00 00 00 00 01 00 00 01 00 05 0A 00 00 00 00 00 00 00 00 00 00 00 00 00 00 00 00 00 00 00 00 00 00 00 00 FF FF 5C 8F FF FF 5C 8F D7 44
2026-07-24T18:50:38.789667+00:00 TX 01 03 00 20 00 02 C5 C1
2026-07-24T18:50:38.797189+00:00 RX 01 03 04 00 00 02 1E 7B 5B
2026-07-24T18:50:38.799691+00:00 TX 01 03 01 C4 00 01 C4 0B
2026-07-24T18:50:38.805692+00:00 RX 01 03 02 00 00 B8 44
2026-07-24T18:50:38.856705+00:00 TX 01 03 00 00 00 20 44 12
2026-07-24T18:50:38.900714+00:00 RX 01 03 40 00 00 00 00 00 03 00 00 00 03 00 00 00 00 00 00 00 00 00 00 00 00 00 00 00 01 00 00 01 00 05 0A 00 00 00 00 00 00 00 00 00 00 00 00 00 00 00 00 00 00 00 00 00 00 00 00 FF FF 5B 2E FF FF 5B 2E A8 A2
2026-07-24T18:50:38.903715+00:00 TX 01 03 00 20 00 02 C5 C1
2026-07-24T18:50:38.911717+00:00 RX 01 03 04 00 00 02 1F BA 9B
2026-07-24T18:50:38.913717+00:00 TX 01 03 01 C4 00 01 C4 0B
2026-07-24T18:50:38.919719+00:00 RX 01 03 02 00 00 B8 44
2026-07-24T18:50:38.969730+00:00 TX 01 03 00 00 00 20 44 12
2026-07-24T18:50:39.014763+00:00 RX 01 03 40 00 00 00 00 00 03 00 00 00 03 00 00 00 00 00 00 00 00 00 00 00 00 00 00 00 01 00 00 01 00 05 0A 00 00 00 00 00 00 00 00 00 00 00 00 00 00 00 00 00 00 00 00 00 00 00 00 FF FF 5C 6E FF FF 5C 6E AB 1A
2026-07-24T18:50:39.016764+00:00 TX 01 03 00 20 00 02 C5 C1
2026-07-24T18:50:39.023765+00:00 RX 01 03 04 00 00 02 20 FA 8B
2026-07-24T18:50:39.025766+00:00 TX 01 03 01 C4 00 01 C4 0B
2026-07-24T18:50:39.032768+00:00 RX 01 03 02 00 00 B8 44
2026-07-24T18:50:39.083481+00:00 TX 01 03 00 00 00 20 44 12
2026-07-24T18:50:39.127994+00:00 RX 01 03 40 00 00 00 00 00 03 00 00 00 03 00 00 00 00 00 00 00 00 00 00 00 00 00 00 00 01 00 00 01 00 05 0A 00 00 00 00 00 00 00 00 00 00 00 00 00 00 00 00 00 00 00 00 00 00 00 00 FF FF 5D 6C FF FF 5D 6C 53 5A
2026-07-24T18:50:39.129995+00:00 TX 01 03 00 20 00 02 C5 C1
2026-07-24T18:50:39.137997+00:00 RX 01 03 04 00 00 02 21 3B 4B
2026-07-24T18:50:39.140998+00:00 TX 01 03 01 C4 00 01 C4 0B
2026-07-24T18:50:39.147025+00:00 RX 01 03 02 00 00 B8 44
2026-07-24T18:50:39.198033+00:00 TX 01 03 00 00 00 20 44 12
2026-07-24T18:50:39.242540+00:00 RX 01 03 40 00 00 00 00 00 03 00 00 00 03 00 00 00 00 00 00 00 00 00 00 00 00 00 00 00 01 00 00 01 00 05 0A 00 00 00 00 00 00 00 00 00 00 00 00 00 00 00 00 00 00 00 00 00 00 00 00 FF FF 5D AC FF FF 5D AC 53 1B
2026-07-24T18:50:39.244541+00:00 TX 01 03 00 20 00 02 C5 C1
2026-07-24T18:50:39.252543+00:00 RX 01 03 04 00 00 02 23 BA 8A
2026-07-24T18:50:39.255549+00:00 TX 01 03 01 C4 00 01 C4 0B
2026-07-24T18:50:39.262069+00:00 RX 01 03 02 00 00 B8 44
2026-07-24T18:50:39.313079+00:00 TX 01 03 00 00 00 20 44 12
2026-07-24T18:50:39.358228+00:00 RX 01 03 40 00 00 00 00 00 03 00 00 00 03 00 00 00 00 00 00 00 00 00 00 00 00 00 00 00 01 00 00 01 00 05 0A 00 00 00 00 00 00 00 00 00 00 00 00 00 00 00 00 00 00 00 00 00 00 00 00 FF FF 5F 13 FF FF 5F 13 07 F2
2026-07-24T18:50:39.360229+00:00 TX 01 03 00 20 00 02 C5 C1
2026-07-24T18:50:39.367735+00:00 RX 01 03 04 00 00 02 24 FB 48
2026-07-24T18:50:39.370733+00:00 TX 01 03 01 C4 00 01 C4 0B
2026-07-24T18:50:39.376734+00:00 RX 01 03 02 00 00 B8 44
2026-07-24T18:50:39.427272+00:00 TX 01 03 00 00 00 20 44 12
2026-07-24T18:50:39.472282+00:00 RX 01 03 40 00 00 00 00 00 03 00 00 00 03 00 00 00 00 00 00 00 00 00 00 00 00 00 00 00 01 00 00 01 00 05 0A 00 00 00 00 00 00 00 00 00 00 00 00 00 00 00 00 00 00 00 00 00 00 00 00 FF FF 60 8C FF FF 60 8C C7 79
2026-07-24T18:50:39.474283+00:00 TX 01 03 00 20 00 02 C5 C1
2026-07-24T18:50:39.482281+00:00 RX 01 03 04 00 00 02 25 3A 88
2026-07-24T18:50:39.484281+00:00 TX 01 03 01 C4 00 01 C4 0B
2026-07-24T18:50:39.490283+00:00 RX 01 03 02 00 00 B8 44
2026-07-24T18:50:39.541214+00:00 TX 01 03 00 00 00 20 44 12
2026-07-24T18:50:39.586718+00:00 RX 01 03 40 00 00 00 00 00 03 00 00 00 03 00 00 00 00 00 00 00 00 00 00 00 00 00 00 00 01 00 00 01 00 05 0A 00 00 00 00 00 00 00 00 00 00 00 00 00 00 00 00 00 00 00 00 00 00 00 00 FF FF 60 00 FF FF 60 00 D7 03
2026-07-24T18:50:39.590719+00:00 TX 01 03 00 20 00 02 C5 C1
2026-07-24T18:50:39.598238+00:00 RX 01 03 04 00 00 02 26 7A 89
2026-07-24T18:50:39.600284+00:00 TX 01 03 01 C4 00 01 C4 0B
2026-07-24T18:50:39.606516+00:00 RX 01 03 02 00 00 B8 44
2026-07-24T18:50:39.657298+00:00 TX 01 03 00 00 00 20 44 12
2026-07-24T18:50:39.702307+00:00 RX 01 03 40 00 00 00 00 00 03 00 00 00 03 00 00 00 00 00 00 00 00 00 00 00 00 00 00 00 01 00 00 01 00 05 0A 00 00 00 00 00 00 00 00 00 00 00 00 00 00 00 00 00 00 00 00 00 00 00 00 FF FF 60 BA FF FF 60 BA 8F 6B
2026-07-24T18:50:39.704308+00:00 TX 01 03 00 20 00 02 C5 C1
2026-07-24T18:50:39.712306+00:00 RX 01 03 04 00 00 02 27 BB 49
2026-07-24T18:50:39.714307+00:00 TX 01 03 01 C4 00 01 C4 0B
2026-07-24T18:50:39.720308+00:00 RX 01 03 02 00 00 B8 44
2026-07-24T18:50:39.770382+00:00 TX 01 03 00 00 00 20 44 12
2026-07-24T18:50:39.815392+00:00 RX 01 03 40 00 00 00 00 00 03 00 00 00 03 00 00 00 00 00 00 00 00 00 00 00 00 00 00 00 01 00 00 01 00 05 0A 00 00 00 00 00 00 00 00 00 00 00 00 00 00 00 00 00 00 00 00 00 00 00 00 FF FF 60 62 FF FF 60 62 AF 22
2026-07-24T18:50:39.817392+00:00 TX 01 03 00 20 00 02 C5 C1
2026-07-24T18:50:39.825394+00:00 RX 01 03 04 00 00 02 28 FB 4D
2026-07-24T18:50:39.828395+00:00 TX 01 03 01 C4 00 01 C4 0B
2026-07-24T18:50:39.835396+00:00 RX 01 03 02 00 00 B8 44
2026-07-24T18:50:39.885405+00:00 TX 01 03 00 00 00 20 44 12
2026-07-24T18:50:39.929552+00:00 RX 01 03 40 00 00 00 00 00 03 00 00 00 03 00 00 00 00 00 00 00 00 00 00 00 00 00 00 00 01 00 00 01 00 05 0A 00 00 00 00 00 00 00 00 00 00 00 00 00 00 00 00 00 00 00 00 00 00 00 00 FF FF 61 E7 FF FF 61 E7 A3 1E
2026-07-24T18:50:39.931553+00:00 TX 01 03 00 20 00 02 C5 C1
2026-07-24T18:50:39.938554+00:00 RX 01 03 04 00 00 02 2A 7A 8C
2026-07-24T18:50:39.941555+00:00 TX 01 03 01 C4 00 01 C4 0B
2026-07-24T18:50:39.947556+00:00 RX 01 03 02 00 00 B8 44
2026-07-24T18:50:39.998564+00:00 TX 01 03 00 00 00 20 44 12
2026-07-24T18:50:40.043075+00:00 RX 01 03 40 00 00 00 00 00 03 00 00 00 03 00 00 00 00 00 00 00 00 00 00 00 00 00 00 00 01 00 00 01 00 05 0A 00 00 00 00 00 00 00 00 00 00 00 00 00 00 00 00 00 00 00 00 00 00 00 00 FF FF 61 FE FF FF 61 FE 7F 16
2026-07-24T18:50:40.045076+00:00 TX 01 03 00 20 00 02 C5 C1
2026-07-24T18:50:40.053077+00:00 RX 01 03 04 00 00 02 2B BB 4C
2026-07-24T18:50:40.055078+00:00 TX 01 03 01 C4 00 01 C4 0B
2026-07-24T18:50:40.062079+00:00 RX 01 03 02 00 00 B8 44
2026-07-24T18:50:40.113179+00:00 TX 01 03 00 00 00 20 44 12
2026-07-24T18:50:40.158320+00:00 RX 01 03 40 00 00 00 00 00 03 00 00 00 03 00 00 00 00 00 00 00 00 00 00 00 00 00 00 00 01 00 00 01 00 05 0A 00 00 00 00 00 00 00 00 00 00 00 00 00 00 00 00 00 00 00 00 00 00 00 00 FF FF 61 95 FF FF 61 95 1B 30
2026-07-24T18:50:40.160321+00:00 TX 01 03 00 20 00 02 C5 C1
2026-07-24T18:50:40.168317+00:00 RX 01 03 04 00 00 02 2C FA 8E
2026-07-24T18:50:40.170526+00:00 TX 01 03 01 C4 00 01 C4 0B
2026-07-24T18:50:40.177029+00:00 RX 01 03 02 00 00 B8 44
2026-07-24T18:50:40.227872+00:00 TX 01 03 00 00 00 20 44 12
2026-07-24T18:50:40.272172+00:00 RX 01 03 40 00 00 00 00 00 03 00 00 00 03 00 00 00 00 00 00 00 00 00 00 00 00 00 00 00 01 00 00 01 00 05 0A 00 00 00 00 00 00 00 00 00 00 00 00 00 00 00 00 00 00 00 00 00 00 00 00 FF FF 62 A6 FF FF 62 A6 5F E2
2026-07-24T18:50:40.275173+00:00 TX 01 03 00 20 00 02 C5 C1
2026-07-24T18:50:40.283172+00:00 RX 01 03 04 00 00 02 2D 3B 4E
2026-07-24T18:50:40.285173+00:00 TX 01 03 01 C4 00 01 C4 0B
2026-07-24T18:50:40.292174+00:00 RX 01 03 02 00 00 B8 44
2026-07-24T18:50:40.342687+00:00 TX 01 03 00 00 00 20 44 12
2026-07-24T18:50:40.387193+00:00 RX 01 03 40 00 00 00 00 00 03 00 00 00 03 00 00 00 00 00 00 00 00 00 00 00 00 00 00 00 01 00 00 01 00 05 0A 00 00 00 00 00 00 00 00 00 00 00 00 00 00 00 00 00 00 00 00 00 00 00 00 FF FF 65 EA FF FF 65 EA 4C 5E
2026-07-24T18:50:40.389193+00:00 TX 01 03 00 20 00 02 C5 C1
2026-07-24T18:50:40.396725+00:00 RX 01 03 04 00 00 02 2E 7B 4F
2026-07-24T18:50:40.399227+00:00 TX 01 03 01 C4 00 01 C4 0B
2026-07-24T18:50:40.405730+00:00 RX 01 03 02 00 00 B8 44
2026-07-24T18:50:40.456130+00:00 TX 01 03 00 00 00 20 44 12
2026-07-24T18:50:40.500639+00:00 RX 01 03 40 00 00 00 00 00 03 00 00 00 03 00 00 00 00 00 00 00 00 00 00 00 00 00 00 00 01 00 00 01 00 05 0A 00 00 00 00 00 00 00 00 00 00 00 00 00 00 00 00 00 00 00 00 00 00 00 00 FF FF 68 D5 FF FF 68 D5 1D C6
2026-07-24T18:50:40.503704+00:00 TX 01 03 00 20 00 02 C5 C1
2026-07-24T18:50:40.511700+00:00 RX 01 03 04 00 00 02 2F BA 8F
2026-07-24T18:50:40.513701+00:00 TX 01 03 01 C4 00 01 C4 0B
2026-07-24T18:50:40.519702+00:00 RX 01 03 02 00 00 B8 44
2026-07-24T18:50:40.570412+00:00 TX 01 03 00 00 00 20 44 12
2026-07-24T18:50:40.615417+00:00 RX 01 03 40 00 00 00 00 00 03 00 00 00 03 00 00 00 00 00 00 00 00 00 00 00 00 00 00 00 01 00 00 01 00 05 0A 00 00 00 00 00 00 00 00 00 00 00 00 00 00 00 00 00 00 00 00 00 00 00 00 FF FF 66 6A FF FF 66 6A 4C E3
2026-07-24T18:50:40.617418+00:00 TX 01 03 00 20 00 02 C5 C1
2026-07-24T18:50:40.625420+00:00 RX 01 03 04 00 00 02 31 3A 87
2026-07-24T18:50:40.627420+00:00 TX 01 03 01 C4 00 01 C4 0B
2026-07-24T18:50:40.633924+00:00 RX 01 03 02 00 00 B8 44
2026-07-24T18:50:40.683932+00:00 TX 01 03 00 00 00 20 44 12
2026-07-24T18:50:40.729443+00:00 RX 01 03 40 00 00 00 00 00 03 00 00 00 03 00 00 00 00 00 00 00 00 00 00 00 00 00 00 00 01 00 00 01 00 05 0A 00 00 00 00 00 00 00 00 00 00 00 00 00 00 00 00 00 00 00 00 00 00 00 00 FF FF 64 77 FF FF 64 77 60 6A
2026-07-24T18:50:40.731444+00:00 TX 01 03 00 20 00 02 C5 C1
2026-07-24T18:50:40.739441+00:00 RX 01 03 04 00 00 02 32 7A 86
2026-07-24T18:50:40.741442+00:00 TX 01 03 01 C4 00 01 C4 0B
2026-07-24T18:50:40.748457+00:00 RX 01 03 02 00 00 B8 44
2026-07-24T18:50:40.799059+00:00 TX 01 03 00 00 00 20 44 12
2026-07-24T18:50:40.844410+00:00 RX 01 03 40 00 00 00 00 00 03 00 00 00 03 00 00 00 00 00 00 00 00 00 00 00 00 00 00 00 01 00 00 01 00 05 0A 00 00 00 00 00 00 00 00 00 00 00 00 00 00 00 00 00 00 00 00 00 00 00 00 FF FF 64 BB FF FF 64 BB 70 2F
2026-07-24T18:50:40.846955+00:00 TX 01 03 00 20 00 02 C5 C1
2026-07-24T18:50:40.854036+00:00 RX 01 03 04 00 00 02 33 BB 46
2026-07-24T18:50:40.857221+00:00 TX 01 03 01 C4 00 01 C4 0B
2026-07-24T18:50:40.863766+00:00 RX 01 03 02 00 00 B8 44
2026-07-24T18:50:40.914316+00:00 TX 01 03 00 00 00 20 44 12
2026-07-24T18:50:40.959342+00:00 RX 01 03 40 00 00 00 00 00 03 00 00 00 03 00 00 00 00 00 00 00 00 00 00 00 00 00 00 00 01 00 00 01 00 05 0A 00 00 00 00 00 00 00 00 00 00 00 00 00 00 00 00 00 00 00 00 00 00 00 00 FF FF 68 BE FF FF 68 BE 79 E0
2026-07-24T18:50:40.961342+00:00 TX 01 03 00 20 00 02 C5 C1
2026-07-24T18:50:40.969344+00:00 RX 01 03 04 00 00 02 34 FA 84
2026-07-24T18:50:40.971846+00:00 TX 01 03 01 C4 00 01 C4 0B
2026-07-24T18:50:40.978848+00:00 RX 01 03 02 00 00 B8 44
2026-07-24T18:50:41.029389+00:00 TX 01 03 00 00 00 20 44 12
2026-07-24T18:50:41.074526+00:00 RX 01 03 40 00 00 00 00 00 03 00 00 00 03 00 00 00 00 00 00 00 00 00 00 00 00 00 00 00 01 00 00 01 00 05 0A 00 00 00 00 00 00 00 00 00 00 00 00 00 00 00 00 00 00 00 00 00 00 00 00 FF FF 67 1D FF FF 67 1D F8 8F
2026-07-24T18:50:41.076526+00:00 TX 01 03 00 20 00 02 C5 C1
2026-07-24T18:50:41.084528+00:00 RX 01 03 04 00 00 02 35 3B 44
2026-07-24T18:50:41.087527+00:00 TX 01 03 01 C4 00 01 C4 0B
2026-07-24T18:50:41.093527+00:00 RX 01 03 02 00 00 B8 44
2026-07-24T18:50:41.144583+00:00 TX 01 03 00 00 00 20 44 12
2026-07-24T18:50:41.188604+00:00 RX 01 03 40 00 00 00 00 00 03 00 00 00 03 00 00 00 00 00 00 00 00 00 00 00 00 00 00 00 01 00 00 01 00 05 0A 00 00 00 00 00 00 00 00 00 00 00 00 00 00 00 00 00 00 00 00 00 00 00 00 FF FF 67 AB FF FF 67 AB B0 E3
2026-07-24T18:50:41.191604+00:00 TX 01 03 00 20 00 02 C5 C1
2026-07-24T18:50:41.198606+00:00 RX 01 03 04 00 00 02 36 7B 45
2026-07-24T18:50:41.200606+00:00 TX 01 03 01 C4 00 01 C4 0B
2026-07-24T18:50:41.206611+00:00 RX 01 03 02 00 00 B8 44
2026-07-24T18:50:41.256649+00:00 TX 01 03 00 00 00 20 44 12
2026-07-24T18:50:41.301157+00:00 RX 01 03 40 00 00 00 00 00 03 00 00 00 03 00 00 00 00 00 00 00 00 00 00 00 00 00 00 00 01 00 00 01 00 05 0A 00 00 00 00 00 00 00 00 00 00 00 00 00 00 00 00 00 00 00 00 00 00 00 00 FF FF 6A 1E FF FF 6A 1E F9 03
2026-07-24T18:50:41.304155+00:00 TX 01 03 00 20 00 02 C5 C1
2026-07-24T18:50:41.311655+00:00 RX 01 03 04 00 00 02 38 FA 81
2026-07-24T18:50:41.315656+00:00 TX 01 03 01 C4 00 01 C4 0B
2026-07-24T18:50:41.322657+00:00 RX 01 03 02 00 00 B8 44
2026-07-24T18:50:41.372674+00:00 TX 01 03 00 00 00 20 44 12
2026-07-24T18:50:41.417289+00:00 RX 01 03 40 00 00 00 00 00 03 00 00 00 03 00 00 00 00 00 00 00 00 00 00 00 00 00 00 00 01 00 00 01 00 05 0A 00 00 00 00 00 00 00 00 00 00 00 00 00 00 00 00 00 00 00 00 00 00 00 00 FF FF 68 7B FF FF 68 7B 75 A2
2026-07-24T18:50:41.419289+00:00 TX 01 03 00 20 00 02 C5 C1
2026-07-24T18:50:41.427291+00:00 RX 01 03 04 00 00 02 39 3B 41
2026-07-24T18:50:41.429292+00:00 TX 01 03 01 C4 00 01 C4 0B
2026-07-24T18:50:41.436293+00:00 RX 01 03 02 00 00 B8 44
2026-07-24T18:50:41.486302+00:00 TX 01 03 00 00 00 20 44 12
2026-07-24T18:50:41.531053+00:00 RX 01 03 40 00 00 00 00 00 03 00 00 00 03 00 00 00 00 00 00 00 00 00 00 00 00 00 00 00 01 00 00 01 00 05 0A 00 00 00 00 00 00 00 00 00 00 00 00 00 00 00 00 00 00 00 00 00 00 00 00 FF FF 68 59 FF FF 68 59 0D BC
2026-07-24T18:50:41.533053+00:00 TX 01 03 00 20 00 02 C5 C1
2026-07-24T18:50:41.541055+00:00 RX 01 03 04 00 00 02 3A 7B 40
2026-07-24T18:50:41.543055+00:00 TX 01 03 01 C4 00 01 C4 0B
2026-07-24T18:50:41.549057+00:00 RX 01 03 02 00 00 B8 44
2026-07-24T18:50:41.600828+00:00 TX 01 03 00 00 00 20 44 12
2026-07-24T18:50:41.645341+00:00 RX 01 03 40 00 00 00 00 00 03 00 00 00 03 00 00 00 00 00 00 00 00 00 00 00 00 00 00 00 01 00 00 01 00 05 0A 00 00 00 00 00 00 00 00 00 00 00 00 00 00 00 00 00 00 00 00 00 00 00 00 FF FF 63 EF FF FF 63 EF 43 9B
2026-07-24T18:50:41.647341+00:00 TX 01 03 00 20 00 02 C5 C1
2026-07-24T18:50:41.655121+00:00 RX 01 03 04 00 00 02 3B BA 80
2026-07-24T18:50:41.657741+00:00 TX 01 03 01 C4 00 01 C4 0B
2026-07-24T18:50:41.664513+00:00 RX 01 03 02 00 00 B8 44
2026-07-24T18:50:41.715874+00:00 TX 01 03 00 00 00 20 44 12
2026-07-24T18:50:41.761245+00:00 RX 01 03 40 00 00 00 00 00 03 00 00 00 03 00 00 00 00 00 00 00 00 00 00 00 00 00 00 00 01 00 00 01 00 05 0A 00 00 00 00 00 00 00 00 00 00 00 00 00 00 00 00 00 00 00 00 00 00 00 00 FF FF 63 53 FF FF 63 53 13 F1
2026-07-24T18:50:41.763246+00:00 TX 01 03 00 20 00 02 C5 C1
2026-07-24T18:50:41.771749+00:00 RX 01 03 04 00 00 02 3C FB 42
2026-07-24T18:50:41.777476+00:00 TX 01 03 01 C4 00 01 C4 0B
2026-07-24T18:50:41.784478+00:00 RX 01 03 02 00 00 B8 44
2026-07-24T18:50:41.834506+00:00 TX 01 03 00 00 00 20 44 12
2026-07-24T18:50:41.879463+00:00 RX 01 03 40 00 00 00 00 00 03 00 00 00 03 00 00 00 00 00 00 00 00 00 00 00 00 00 00 00 01 00 00 01 00 05 0A 00 00 00 00 00 00 00 00 00 00 00 00 00 00 00 00 00 00 00 00 00 00 00 00 FF FF 66 CD FF FF 66 CD 38 80
2026-07-24T18:50:41.881464+00:00 TX 01 03 00 20 00 02 C5 C1
2026-07-24T18:50:41.888461+00:00 RX 01 03 04 00 00 02 3D 3A 82
2026-07-24T18:50:41.891462+00:00 TX 01 03 01 C4 00 01 C4 0B
2026-07-24T18:50:41.897463+00:00 RX 01 03 02 00 00 B8 44
2026-07-24T18:50:41.949109+00:00 TX 01 03 00 00 00 20 44 12
2026-07-24T18:50:41.994265+00:00 RX 01 03 40 00 00 00 00 00 03 00 00 00 03 00 00 00 00 00 00 00 00 00 00 00 00 00 00 00 01 00 00 01 00 05 0A 00 00 00 00 00 00 00 00 00 00 00 00 00 00 00 00 00 00 00 00 00 00 00 00 FF FF 69 50 FF FF 69 50 11 FA
2026-07-24T18:50:41.996271+00:00 TX 01 03 00 20 00 02 C5 C1
2026-07-24T18:50:42.003866+00:00 RX 01 03 04 00 00 02 3F BB 43
2026-07-24T18:50:42.006372+00:00 TX 01 03 01 C4 00 01 C4 0B
2026-07-24T18:50:42.013371+00:00 RX 01 03 02 00 00 B8 44
2026-07-24T18:50:42.063786+00:00 TX 01 03 00 00 00 20 44 12
2026-07-24T18:50:42.109007+00:00 RX 01 03 40 00 00 00 00 00 03 00 00 00 03 00 00 00 00 00 00 00 00 00 00 00 00 00 00 00 01 00 00 01 00 05 0A 00 00 00 00 00 00 00 00 00 00 00 00 00 00 00 00 00 00 00 00 00 00 00 00 FF FF 68 41 FF FF 68 41 2D B4
2026-07-24T18:50:42.112008+00:00 TX 01 03 00 20 00 02 C5 C1
2026-07-24T18:50:42.120008+00:00 RX 01 03 04 00 00 02 40 FA A3
2026-07-24T18:50:42.122009+00:00 TX 01 03 01 C4 00 01 C4 0B
2026-07-24T18:50:42.128560+00:00 RX 01 03 02 00 00 B8 44
2026-07-24T18:50:42.178677+00:00 TX 01 03 00 00 00 20 44 12
2026-07-24T18:50:42.223247+00:00 RX 01 03 40 00 00 00 00 00 03 00 00 00 03 00 00 00 00 00 00 00 00 00 00 00 00 00 00 00 01 00 00 01 00 05 0A 00 00 00 00 00 00 00 00 00 00 00 00 00 00 00 00 00 00 00 00 00 00 00 00 FF FF 67 83 FF FF 67 83 D0 FB
2026-07-24T18:50:42.225248+00:00 TX 01 03 00 20 00 02 C5 C1
2026-07-24T18:50:42.233246+00:00 RX 01 03 04 00 00 02 41 3B 63
2026-07-24T18:50:42.235247+00:00 TX 01 03 01 C4 00 01 C4 0B
2026-07-24T18:50:42.242249+00:00 RX 01 03 02 00 00 B8 44
2026-07-24T18:50:42.292350+00:00 TX 01 03 00 00 00 20 44 12
2026-07-24T18:50:42.336891+00:00 RX 01 03 40 00 00 00 00 00 03 00 00 00 03 00 00 00 00 00 00 00 00 00 00 00 00 00 00 00 01 00 00 01 00 05 0A 00 00 00 00 00 00 00 00 00 00 00 00 00 00 00 00 00 00 00 00 00 00 00 00 FF FF 65 A1 FF FF 65 A1 A8 67
2026-07-24T18:50:42.338891+00:00 TX 01 03 00 20 00 02 C5 C1
2026-07-24T18:50:42.346894+00:00 RX 01 03 04 00 00 02 42 7B 62
2026-07-24T18:50:42.348894+00:00 TX 01 03 01 C4 00 01 C4 0B
2026-07-24T18:50:42.354895+00:00 RX 01 03 02 00 00 B8 44
2026-07-24T18:50:42.405204+00:00 TX 01 03 00 00 00 20 44 12
2026-07-24T18:50:42.449560+00:00 RX 01 03 40 00 00 00 00 00 03 00 00 00 03 00 00 00 00 00 00 00 00 00 00 00 00 00 00 00 01 00 00 01 00 05 0A 00 00 00 00 00 00 00 00 00 00 00 00 00 00 00 00 00 00 00 00 00 00 00 00 FF FF 64 0C FF FF 64 0C C4 43
2026-07-24T18:50:42.452561+00:00 TX 01 03 00 20 00 02 C5 C1
2026-07-24T18:50:42.460563+00:00 RX 01 03 04 00 00 02 43 BA A2
2026-07-24T18:50:42.462564+00:00 TX 01 03 01 C4 00 01 C4 0B
2026-07-24T18:50:42.468564+00:00 RX 01 03 02 00 00 B8 44
2026-07-24T18:50:42.520092+00:00 TX 01 03 00 00 00 20 44 12
2026-07-24T18:50:42.565129+00:00 RX 01 03 40 00 00 00 00 00 03 00 00 00 03 00 00 00 00 00 00 00 00 00 00 00 00 00 00 00 01 00 00 01 00 05 0A 00 00 00 00 00 00 00 00 00 00 00 00 00 00 00 00 00 00 00 00 00 00 00 00 FF FF 65 3F FF FF 65 3F 80 13
2026-07-24T18:50:42.567129+00:00 TX 01 03 00 20 00 02 C5 C1
2026-07-24T18:50:42.574635+00:00 RX 01 03 04 00 00 02 44 FB 60
2026-07-24T18:50:42.576635+00:00 TX 01 03 01 C4 00 01 C4 0B
2026-07-24T18:50:42.582637+00:00 RX 01 03 02 00 00 B8 44
2026-07-24T18:50:42.632638+00:00 TX 01 03 00 00 00 20 44 12
2026-07-24T18:50:42.676668+00:00 RX 01 03 40 00 00 00 00 00 03 00 00 00 03 00 00 00 00 00 00 00 00 00 00 00 00 00 00 00 01 00 00 01 00 05 0A 00 00 00 00 00 00 00 00 00 00 00 00 00 00 00 00 00 00 00 00 00 00 00 00 FF FF 66 0A FF FF 66 0A CC C3
2026-07-24T18:50:42.678669+00:00 TX 01 03 00 20 00 02 C5 C1
2026-07-24T18:50:42.685670+00:00 RX 01 03 04 00 00 02 46 7A A1
2026-07-24T18:50:42.687671+00:00 TX 01 03 01 C4 00 01 C4 0B
2026-07-24T18:50:42.693669+00:00 RX 01 03 02 00 00 B8 44
2026-07-24T18:50:42.744201+00:00 TX 01 03 00 00 00 20 44 12
2026-07-24T18:50:42.788739+00:00 RX 01 03 40 00 00 00 00 00 03 00 00 00 03 00 00 00 00 00 00 00 00 00 00 00 00 00 00 00 01 00 00 01 00 05 0A 00 00 00 00 00 00 00 00 00 00 00 00 00 00 00 00 00 00 00 00 00 00 00 00 FF FF 67 46 FF FF 67 46 DC B9
2026-07-24T18:50:42.791736+00:00 TX 01 03 00 20 00 02 C5 C1
2026-07-24T18:50:42.799738+00:00 RX 01 03 04 00 00 02 47 BB 61
2026-07-24T18:50:42.801738+00:00 TX 01 03 01 C4 00 01 C4 0B
2026-07-24T18:50:42.807259+00:00 RX 01 03 02 00 00 B8 44
2026-07-24T18:50:42.857269+00:00 TX 01 03 00 00 00 20 44 12
2026-07-24T18:50:42.902276+00:00 RX 01 03 40 00 00 00 00 00 03 00 00 00 03 00 00 00 00 00 00 00 00 00 00 00 00 00 00 00 01 00 00 01 00 05 0A 00 00 00 00 00 00 00 00 00 00 00 00 00 00 00 00 00 00 00 00 00 00 00 00 FF FF 67 91 FF FF 67 91 E8 F5
2026-07-24T18:50:42.904277+00:00 TX 01 03 00 20 00 02 C5 C1
2026-07-24T18:50:42.912306+00:00 RX 01 03 04 00 00 02 48 FB 65
2026-07-24T18:50:42.914306+00:00 TX 01 03 01 C4 00 01 C4 0B
2026-07-24T18:50:42.920305+00:00 RX 01 03 02 00 00 B8 44
2026-07-24T18:50:42.970814+00:00 TX 01 03 00 00 00 20 44 12
2026-07-24T18:50:43.015057+00:00 RX 01 03 40 00 00 00 00 00 03 00 00 00 03 00 00 00 00 00 00 00 00 00 00 00 00 00 00 00 01 00 00 01 00 05 0A 00 00 00 00 00 00 00 00 00 00 00 00 00 00 00 00 00 00 00 00 00 00 00 00 FF FF 67 3D FF FF 67 3D 78 90
2026-07-24T18:50:43.018058+00:00 TX 01 03 00 20 00 02 C5 C1
2026-07-24T18:50:43.026060+00:00 RX 01 03 04 00 00 02 49 3A A5
2026-07-24T18:50:43.028061+00:00 TX 01 03 01 C4 00 01 C4 0B
2026-07-24T18:50:43.034062+00:00 RX 01 03 02 00 00 B8 44
2026-07-24T18:50:43.085074+00:00 TX 01 03 00 00 00 20 44 12
2026-07-24T18:50:43.130344+00:00 RX 01 03 40 00 00 00 00 00 03 00 00 00 03 00 00 00 00 00 00 00 00 00 00 00 00 00 00 00 01 00 00 01 00 05 0A 00 00 00 00 00 00 00 00 00 00 00 00 00 00 00 00 00 00 00 00 00 00 00 00 FF FF 68 00 FF FF 68 00 D1 8B
2026-07-24T18:50:43.133014+00:00 TX 01 03 00 20 00 02 C5 C1
2026-07-24T18:50:43.141016+00:00 RX 01 03 04 00 00 02 4A 7A A4
2026-07-24T18:50:43.143017+00:00 TX 01 03 01 C4 00 01 C4 0B
2026-07-24T18:50:43.149132+00:00 RX 01 03 02 00 00 B8 44
2026-07-24T18:50:43.199634+00:00 TX 01 03 00 00 00 20 44 12
2026-07-24T18:50:43.244645+00:00 RX 01 03 40 00 00 00 00 00 03 00 00 00 03 00 00 00 00 00 00 00 00 00 00 00 00 00 00 00 01 00 00 01 00 05 0A 00 00 00 00 00 00 00 00 00 00 00 00 00 00 00 00 00 00 00 00 00 00 00 00 FF FF 66 91 FF FF 66 91 E8 B4
2026-07-24T18:50:43.246645+00:00 TX 01 03 00 20 00 02 C5 C1
2026-07-24T18:50:43.254647+00:00 RX 01 03 04 00 00 02 4B BB 64
2026-07-24T18:50:43.256648+00:00 TX 01 03 01 C4 00 01 C4 0B
2026-07-24T18:50:43.263371+00:00 RX 01 03 02 00 00 B8 44
2026-07-24T18:50:43.313756+00:00 TX 01 03 00 00 00 20 44 12
2026-07-24T18:50:43.358262+00:00 RX 01 03 40 00 00 00 00 00 03 00 00 00 03 00 00 00 00 00 00 00 00 00 00 00 00 00 00 00 01 00 00 01 00 05 0A 00 00 00 00 00 00 00 00 00 00 00 00 00 00 00 00 00 00 00 00 00 00 00 00 FF FF 66 E9 FF FF 66 E9 48 9C
2026-07-24T18:50:43.360262+00:00 TX 01 03 00 20 00 02 C5 C1
2026-07-24T18:50:43.368264+00:00 RX 01 03 04 00 00 02 4C FA A6
2026-07-24T18:50:43.370264+00:00 TX 01 03 01 C4 00 01 C4 0B
2026-07-24T18:50:43.376451+00:00 RX 01 03 02 00 00 B8 44
2026-07-24T18:50:43.427154+00:00 TX 01 03 00 00 00 20 44 12
2026-07-24T18:50:43.471927+00:00 RX 01 03 40 00 00 00 00 00 03 00 00 00 03 00 00 00 00 00 00 00 00 00 00 00 00 00 00 00 01 00 00 01 00 05 0A 00 00 00 00 00 00 00 00 00 00 00 00 00 00 00 00 00 00 00 00 00 00 00 00 FF FF 66 6B FF FF 66 6B B0 E3
2026-07-24T18:50:43.473936+00:00 TX 01 03 00 20 00 02 C5 C1
2026-07-24T18:50:43.481953+00:00 RX 01 03 04 00 00 02 4E 7B 67
2026-07-24T18:50:43.483953+00:00 TX 01 03 01 C4 00 01 C4 0B
2026-07-24T18:50:43.490570+00:00 RX 01 03 02 00 00 B8 44
2026-07-24T18:50:43.541092+00:00 TX 01 03 00 00 00 20 44 12
2026-07-24T18:50:43.586596+00:00 RX 01 03 40 00 00 00 00 00 03 00 00 00 03 00 00 00 00 00 00 00 00 00 00 00 00 00 00 00 01 00 00 01 00 05 0A 00 00 00 00 00 00 00 00 00 00 00 00 00 00 00 00 00 00 00 00 00 00 00 00 FF FF 66 13 FF FF 66 13 10 CB
2026-07-24T18:50:43.590215+00:00 TX 01 03 00 20 00 02 C5 C1
2026-07-24T18:50:43.597747+00:00 RX 01 03 04 00 00 02 4F BA A7
2026-07-24T18:50:43.599747+00:00 TX 01 03 01 C4 00 01 C4 0B
2026-07-24T18:50:43.606756+00:00 RX 01 03 02 00 00 B8 44
2026-07-24T18:50:43.657310+00:00 TX 01 03 00 00 00 20 44 12
2026-07-24T18:50:43.702605+00:00 RX 01 03 40 00 00 00 00 00 03 00 00 00 03 00 00 00 00 00 00 00 00 00 00 00 00 00 00 00 01 00 00 01 00 05 0A 00 00 00 00 00 00 00 00 00 00 00 00 00 00 00 00 00 00 00 00 00 00 00 00 FF FF 65 7B FF FF 65 7B 70 2F
2026-07-24T18:50:43.704840+00:00 TX 01 03 00 20 00 02 C5 C1
2026-07-24T18:50:43.712278+00:00 RX 01 03 04 00 00 02 50 FB 6F
2026-07-24T18:50:43.714279+00:00 TX 01 03 01 C4 00 01 C4 0B
2026-07-24T18:50:43.721634+00:00 RX 01 03 02 00 00 B8 44
2026-07-24T18:50:43.772252+00:00 TX 01 03 00 00 00 20 44 12
2026-07-24T18:50:43.816832+00:00 RX 01 03 40 00 00 00 00 00 03 00 00 00 03 00 00 00 00 00 00 00 00 00 00 00 00 00 00 00 01 00 00 01 00 05 0A 00 00 00 00 00 00 00 00 00 00 00 00 00 00 00 00 00 00 00 00 00 00 00 00 FF FF 65 66 FF FF 65 66 5C 24
2026-07-24T18:50:43.818832+00:00 TX 01 03 00 20 00 02 C5 C1
2026-07-24T18:50:43.825533+00:00 RX 01 03 04 00 00 02 51 3A AF
2026-07-24T18:50:43.827534+00:00 TX 01 03 01 C4 00 01 C4 0B
2026-07-24T18:50:43.833535+00:00 RX 01 03 02 00 00 B8 44
2026-07-24T18:50:43.884220+00:00 TX 01 03 00 00 00 20 44 12
2026-07-24T18:50:43.929245+00:00 RX 01 03 40 00 00 00 00 00 03 00 00 00 03 00 00 00 00 00 00 00 00 00 00 00 00 00 00 00 01 00 00 01 00 05 0A 00 00 00 00 00 00 00 00 00 00 00 00 00 00 00 00 00 00 00 00 00 00 00 00 FF FF 66 06 FF FF 66 06 DC C7
2026-07-24T18:50:43.931275+00:00 TX 01 03 00 20 00 02 C5 C1
2026-07-24T18:50:43.938779+00:00 RX 01 03 04 00 00 02 52 7A AE
2026-07-24T18:50:43.940780+00:00 TX 01 03 01 C4 00 01 C4 0B
2026-07-24T18:50:43.947781+00:00 RX 01 03 02 00 00 B8 44
2026-07-24T18:50:43.998103+00:00 TX 01 03 00 00 00 20 44 12
2026-07-24T18:50:44.043130+00:00 RX 01 03 40 00 00 00 00 00 03 00 00 00 03 00 00 00 00 00 00 00 00 00 00 00 00 00 00 00 01 00 00 01 00 05 0A 00 00 00 00 00 00 00 00 00 00 00 00 00 00 00 00 00 00 00 00 00 00 00 00 FF FF 65 33 FF FF 65 33 90 17
2026-07-24T18:50:44.045131+00:00 TX 01 03 00 20 00 02 C5 C1
2026-07-24T18:50:44.053139+00:00 RX 01 03 04 00 00 02 53 BB 6E
2026-07-24T18:50:44.056140+00:00 TX 01 03 01 C4 00 01 C4 0B
2026-07-24T18:50:44.063141+00:00 RX 01 03 02 00 00 B8 44
2026-07-24T18:50:44.113180+00:00 TX 01 03 00 00 00 20 44 12
2026-07-24T18:50:44.158410+00:00 RX 01 03 40 00 00 00 00 00 03 00 00 00 03 00 00 00 00 00 00 00 00 00 00 00 00 00 00 00 01 00 00 01 00 05 0A 00 00 00 00 00 00 00 00 00 00 00 00 00 00 00 00 00 00 00 00 00 00 00 00 FF FF 64 25 FF FF 64 25 58 5B
2026-07-24T18:50:44.161407+00:00 TX 01 03 00 20 00 02 C5 C1
2026-07-24T18:50:44.169409+00:00 RX 01 03 04 00 00 02 55 3B 6C
2026-07-24T18:50:44.171410+00:00 TX 01 03 01 C4 00 01 C4 0B
2026-07-24T18:50:44.177760+00:00 RX 01 03 02 00 00 B8 44
2026-07-24T18:50:44.227848+00:00 TX 01 03 00 00 00 20 44 12
2026-07-24T18:50:44.272859+00:00 RX 01 03 40 00 00 00 00 00 03 00 00 00 03 00 00 00 00 00 00 00 00 00 00 00 00 00 00 00 01 00 00 01 00 05 0A 00 00 00 00 00 00 00 00 00 00 00 00 00 00 00 00 00 00 00 00 00 00 00 00 FF FF 63 7E FF FF 63 7E 7F EA
2026-07-24T18:50:44.274860+00:00 TX 01 03 00 20 00 02 C5 C1
2026-07-24T18:50:44.282862+00:00 RX 01 03 04 00 00 02 56 7B 6D
2026-07-24T18:50:44.285862+00:00 TX 01 03 01 C4 00 01 C4 0B
2026-07-24T18:50:44.291863+00:00 RX 01 03 02 00 00 B8 44
2026-07-24T18:50:44.342988+00:00 TX 01 03 00 00 00 20 44 12
2026-07-24T18:50:44.387515+00:00 RX 01 03 40 00 00 00 00 00 03 00 00 00 03 00 00 00 00 00 00 00 00 00 00 00 00 00 00 00 01 00 00 01 00 05 0A 00 00 00 00 00 00 00 00 00 00 00 00 00 00 00 00 00 00 00 00 00 00 00 00 FF FF 63 F8 FF FF 63 F8 77 96
2026-07-24T18:50:44.390516+00:00 TX 01 03 00 20 00 02 C5 C1
2026-07-24T18:50:44.398036+00:00 RX 01 03 04 00 00 02 57 BA AD
2026-07-24T18:50:44.400038+00:00 TX 01 03 01 C4 00 01 C4 0B
2026-07-24T18:50:44.406038+00:00 RX 01 03 02 00 00 B8 44
2026-07-24T18:50:44.456084+00:00 TX 01 03 00 00 00 20 44 12
2026-07-24T18:50:44.501091+00:00 RX 01 03 40 00 00 00 00 00 03 00 00 00 03 00 00 00 00 00 00 00 00 00 00 00 00 00 00 00 01 00 00 01 00 05 0A 00 00 00 00 00 00 00 00 00 00 00 00 00 00 00 00 00 00 00 00 00 00 00 00 FF FF 64 8F FF FF 64 8F C0 3C
2026-07-24T18:50:44.503596+00:00 TX 01 03 00 20 00 02 C5 C1
2026-07-24T18:50:44.511660+00:00 RX 01 03 04 00 00 02 58 FA A9
2026-07-24T18:50:44.513880+00:00 TX 01 03 01 C4 00 01 C4 0B
2026-07-24T18:50:44.520379+00:00 RX 01 03 02 00 00 B8 44
2026-07-24T18:50:44.570416+00:00 TX 01 03 00 00 00 20 44 12
2026-07-24T18:50:44.614926+00:00 RX 01 03 40 00 00 00 00 00 03 00 00 00 03 00 00 00 00 00 00 00 00 00 00 00 00 00 00 00 01 00 00 01 00 05 0A 00 00 00 00 00 00 00 00 00 00 00 00 00 00 00 00 00 00 00 00 00 00 00 00 FF FF 63 7E FF FF 63 7E 7F EA
2026-07-24T18:50:44.616927+00:00 TX 01 03 00 20 00 02 C5 C1
2026-07-24T18:50:44.625453+00:00 RX 01 03 04 00 00 02 59 3B 69
2026-07-24T18:50:44.627454+00:00 TX 01 03 01 C4 00 01 C4 0B
2026-07-24T18:50:44.633959+00:00 RX 01 03 02 00 00 B8 44
2026-07-24T18:50:44.683971+00:00 TX 01 03 00 00 00 20 44 12
2026-07-24T18:50:44.729004+00:00 RX 01 03 40 00 00 00 00 00 03 00 00 00 03 00 00 00 00 00 00 00 00 00 00 00 00 00 00 00 01 00 00 01 00 05 0A 00 00 00 00 00 00 00 00 00 00 00 00 00 00 00 00 00 00 00 00 00 00 00 00 FF FF 62 91 FF FF 62 91 EB F0
2026-07-24T18:50:44.731005+00:00 TX 01 03 00 20 00 02 C5 C1
2026-07-24T18:50:44.738506+00:00 RX 01 03 04 00 00 02 5A 7B 68
2026-07-24T18:50:44.741507+00:00 TX 01 03 01 C4 00 01 C4 0B
2026-07-24T18:50:44.747508+00:00 RX 01 03 02 00 00 B8 44
2026-07-24T18:50:44.798518+00:00 TX 01 03 00 00 00 20 44 12
2026-07-24T18:50:44.842566+00:00 RX 01 03 40 00 00 00 00 00 03 00 00 00 03 00 00 00 00 00 00 00 00 00 00 00 00 00 00 00 01 00 00 01 00 05 0A 00 00 00 00 00 00 00 00 00 00 00 00 00 00 00 00 00 00 00 00 00 00 00 00 FF FF 60 33 FF FF 60 33 93 12
2026-07-24T18:50:44.845567+00:00 TX 01 03 00 20 00 02 C5 C1
2026-07-24T18:50:44.853569+00:00 RX 01 03 04 00 00 02 5C FB 6A
2026-07-24T18:50:44.855569+00:00 TX 01 03 01 C4 00 01 C4 0B
2026-07-24T18:50:44.862571+00:00 RX 01 03 02 00 00 B8 44
2026-07-24T18:50:44.912580+00:00 TX 01 03 00 00 00 20 44 12
2026-07-24T18:50:44.957817+00:00 RX 01 03 40 00 00 00 00 00 03 00 00 00 03 00 00 00 00 00 00 00 00 00 00 00 00 00 00 00 01 00 00 01 00 05 0A 00 00 00 00 00 00 00 00 00 00 00 00 00 00 00 00 00 00 00 00 00 00 00 00 FF FF 60 1C FF FF 60 1C 07 08
2026-07-24T18:50:44.959817+00:00 TX 01 03 00 20 00 02 C5 C1
2026-07-24T18:50:44.966816+00:00 RX 01 03 04 00 00 02 5D 3A AA
2026-07-24T18:50:44.969817+00:00 TX 01 03 01 C4 00 01 C4 0B
2026-07-24T18:50:44.976320+00:00 RX 01 03 02 00 00 B8 44
2026-07-24T18:50:45.026411+00:00 TX 01 03 00 00 00 20 44 12
2026-07-24T18:50:45.072422+00:00 RX 01 03 40 00 00 00 00 00 03 00 00 00 03 00 00 00 00 00 00 00 00 00 00 00 00 00 00 00 01 00 00 01 00 05 0A 00 00 00 00 00 00 00 00 00 00 00 00 00 00 00 00 00 00 00 00 00 00 00 00 FF FF 60 37 FF FF 60 37 63 11
2026-07-24T18:50:45.074422+00:00 TX 01 03 00 20 00 02 C5 C1
2026-07-24T18:50:45.082424+00:00 RX 01 03 04 00 00 02 5E 7A AB
2026-07-24T18:50:45.084425+00:00 TX 01 03 01 C4 00 01 C4 0B
2026-07-24T18:50:45.090426+00:00 RX 01 03 02 00 00 B8 44
2026-07-24T18:50:45.141439+00:00 TX 01 03 00 00 00 20 44 12
2026-07-24T18:50:45.186106+00:00 RX 01 03 40 00 00 00 00 00 03 00 00 00 03 00 00 00 00 00 00 00 00 00 00 00 00 00 00 00 01 00 00 01 00 05 0A 00 00 00 00 00 00 00 00 00 00 00 00 00 00 00 00 00 00 00 00 00 00 00 00 FF FF 61 77 FF FF 61 77 63 6F
2026-07-24T18:50:45.188107+00:00 TX 01 03 00 20 00 02 C5 C1
2026-07-24T18:50:45.195108+00:00 RX 01 03 04 00 00 02 5F BB 6B
2026-07-24T18:50:45.197109+00:00 TX 01 03 01 C4 00 01 C4 0B
2026-07-24T18:50:45.204107+00:00 RX 01 03 02 00 00 B8 44
2026-07-24T18:50:45.254149+00:00 TX 01 03 00 00 00 20 44 12
2026-07-24T18:50:45.299290+00:00 RX 01 03 40 00 00 00 00 00 03 00 00 00 03 00 00 00 00 00 00 00 00 00 00 00 00 00 00 00 01 00 00 01 00 05 0A 00 00 00 00 00 00 00 00 00 00 00 00 00 00 00 00 00 00 00 00 00 00 00 00 FF FF 62 BA FF FF 62 BA 8F E9
2026-07-24T18:50:45.301291+00:00 TX 01 03 00 20 00 02 C5 C1
2026-07-24T18:50:45.309293+00:00 RX 01 03 04 00 00 02 60 FB 7B
2026-07-24T18:50:45.312294+00:00 TX 01 03 01 C4 00 01 C4 0B
2026-07-24T18:50:45.318377+00:00 RX 01 03 02 00 00 B8 44
2026-07-24T18:50:45.369901+00:00 TX 01 03 00 00 00 20 44 12
2026-07-24T18:50:45.414478+00:00 RX 01 03 40 00 00 00 00 00 03 00 00 00 03 00 00 00 00 00 00 00 00 00 00 00 00 00 00 00 01 00 00 01 00 05 0A 00 00 00 00 00 00 00 00 00 00 00 00 00 00 00 00 00 00 00 00 00 00 00 00 FF FF 60 DF FF FF 60 DF 03 48
2026-07-24T18:50:45.416979+00:00 TX 01 03 00 20 00 02 C5 C1
2026-07-24T18:50:45.424981+00:00 RX 01 03 04 00 00 02 61 3A BB
2026-07-24T18:50:45.427982+00:00 TX 01 03 01 C4 00 01 C4 0B
2026-07-24T18:50:45.433983+00:00 RX 01 03 02 00 00 B8 44
2026-07-24T18:50:45.484995+00:00 TX 01 03 00 00 00 20 44 12
2026-07-24T18:50:45.530603+00:00 RX 01 03 40 00 00 00 00 00 03 00 00 00 03 00 00 00 00 00 00 00 00 00 00 00 00 00 00 00 01 00 00 01 00 05 0A 00 00 00 00 00 00 00 00 00 00 00 00 00 00 00 00 00 00 00 00 00 00 00 00 FF FF 60 F2 FF FF 60 F2 6F 53
2026-07-24T18:50:45.532603+00:00 TX 01 03 00 20 00 02 C5 C1
2026-07-24T18:50:45.540106+00:00 RX 01 03 04 00 00 02 63 BB 7A
2026-07-24T18:50:45.542107+00:00 TX 01 03 01 C4 00 01 C4 0B
2026-07-24T18:50:45.548108+00:00 RX 01 03 02 00 00 B8 44
2026-07-24T18:50:45.598618+00:00 TX 01 03 00 00 00 20 44 12
2026-07-24T18:50:45.642846+00:00 RX 01 03 40 00 00 00 00 00 03 00 00 00 03 00 00 00 00 00 00 00 00 00 00 00 00 00 00 00 01 00 00 01 00 05 0A 00 00 00 00 00 00 00 00 00 00 00 00 00 00 00 00 00 00 00 00 00 00 00 00 FF FF 60 3B FF FF 60 3B 73 15
2026-07-24T18:50:45.646847+00:00 TX 01 03 00 20 00 02 C5 C1
2026-07-24T18:50:45.653848+00:00 RX 01 03 04 00 00 02 64 FA B8
2026-07-24T18:50:45.656849+00:00 TX 01 03 01 C4 00 01 C4 0B
2026-07-24T18:50:45.662850+00:00 RX 01 03 02 00 00 B8 44
2026-07-24T18:50:45.714512+00:00 TX 01 03 00 00 00 20 44 12
2026-07-24T18:50:45.759059+00:00 RX 01 03 40 00 00 00 00 00 03 00 00 00 03 00 00 00 00 00 00 00 00 00 00 00 00 00 00 00 01 00 00 01 00 05 0A 00 00 00 00 00 00 00 00 00 00 00 00 00 00 00 00 00 00 00 00 00 00 00 00 FF FF 5F F0 FF FF 5F F0 83 AD
2026-07-24T18:50:45.762057+00:00 TX 01 03 00 20 00 02 C5 C1
2026-07-24T18:50:45.770059+00:00 RX 01 03 04 00 00 02 65 3B 78
2026-07-24T18:50:45.772060+00:00 TX 01 03 01 C4 00 01 C4 0B
2026-07-24T18:50:45.778563+00:00 RX 01 03 02 00 00 B8 44
2026-07-24T18:50:45.828600+00:00 TX 01 03 00 00 00 20 44 12
2026-07-24T18:50:45.872610+00:00 RX 01 03 40 00 00 00 00 00 03 00 00 00 03 00 00 00 00 00 00 00 00 00 00 00 00 00 00 00 01 00 00 01 00 05 0A 00 00 00 00 00 00 00 00 00 00 00 00 00 00 00 00 00 00 00 00 00 00 00 00 FF FF 5D B2 FF FF 5D B2 7B 11
2026-07-24T18:50:45.875612+00:00 TX 01 03 00 20 00 02 C5 C1
2026-07-24T18:50:45.883613+00:00 RX 01 03 04 00 00 02 66 7B 79
2026-07-24T18:50:45.885613+00:00 TX 01 03 01 C4 00 01 C4 0B
2026-07-24T18:50:45.891615+00:00 RX 01 03 02 00 00 B8 44
2026-07-24T18:50:45.942625+00:00 TX 01 03 00 00 00 20 44 12
2026-07-24T18:50:45.987133+00:00 RX 01 03 40 00 00 00 00 00 03 00 00 00 03 00 00 00 00 00 00 00 00 00 00 00 00 00 00 00 01 00 00 01 00 05 0A 00 00 00 00 00 00 00 00 00 00 00 00 00 00 00 00 00 00 00 00 00 00 00 00 FF FF 5D 4C FF FF 5D 4C D3 45
2026-07-24T18:50:45.989133+00:00 TX 01 03 00 20 00 02 C5 C1
2026-07-24T18:50:45.996134+00:00 RX 01 03 04 00 00 02 67 BA B9
2026-07-24T18:50:45.999135+00:00 TX 01 03 01 C4 00 01 C4 0B
2026-07-24T18:50:46.005134+00:00 RX 01 03 02 00 00 B8 44
2026-07-24T18:50:46.055650+00:00 TX 01 03 00 00 00 20 44 12
2026-07-24T18:50:46.100658+00:00 RX 01 03 40 00 00 00 00 00 03 00 00 00 03 00 00 00 00 00 00 00 00 00 00 00 00 00 00 00 01 00 00 01 00 05 0A 00 00 00 00 00 00 00 00 00 00 00 00 00 00 00 00 00 00 00 00 00 00 00 00 FF FF 5D B4 FF FF 5D B4 73 13
2026-07-24T18:50:46.103658+00:00 TX 01 03 00 20 00 02 C5 C1
2026-07-24T18:50:46.111167+00:00 RX 01 03 04 00 00 02 68 FA BD
2026-07-24T18:50:46.113168+00:00 TX 01 03 01 C4 00 01 C4 0B
2026-07-24T18:50:46.120201+00:00 RX 01 03 02 00 00 B8 44
2026-07-24T18:50:46.170254+00:00 TX 01 03 00 00 00 20 44 12
2026-07-24T18:50:46.214767+00:00 RX 01 03 40 00 00 00 00 00 03 00 00 00 03 00 00 00 00 00 00 00 00 00 00 00 00 00 00 00 01 00 00 01 00 05 0A 00 00 00 00 00 00 00 00 00 00 00 00 00 00 00 00 00 00 00 00 00 00 00 00 FF FF 5F 3F FF FF 5F 3F 97 E9
2026-07-24T18:50:46.216768+00:00 TX 01 03 00 20 00 02 C5 C1
2026-07-24T18:50:46.225272+00:00 RX 01 03 04 00 00 02 6A 7B 7C
2026-07-24T18:50:46.227272+00:00 TX 01 03 01 C4 00 01 C4 0B
2026-07-24T18:50:46.233273+00:00 RX 01 03 02 00 00 B8 44
2026-07-24T18:50:46.284286+00:00 TX 01 03 00 00 00 20 44 12
2026-07-24T18:50:46.328792+00:00 RX 01 03 40 00 00 00 00 00 03 00 00 00 03 00 00 00 00 00 00 00 00 00 00 00 00 00 00 00 01 00 00 01 00 05 0A 00 00 00 00 00 00 00 00 00 00 00 00 00 00 00 00 00 00 00 00 00 00 00 00 FF FF 60 F8 FF FF 60 F8 77 55
2026-07-24T18:50:46.330793+00:00 TX 01 03 00 20 00 02 C5 C1
2026-07-24T18:50:46.339296+00:00 RX 01 03 04 00 00 02 6B BA BC
2026-07-24T18:50:46.341297+00:00 TX 01 03 01 C4 00 01 C4 0B
2026-07-24T18:50:46.348298+00:00 RX 01 03 02 00 00 B8 44
2026-07-24T18:50:46.398332+00:00 TX 01 03 00 00 00 20 44 12
2026-07-24T18:50:46.442342+00:00 RX 01 03 40 00 00 00 00 00 03 00 00 00 03 00 00 00 00 00 00 00 00 00 00 00 00 00 00 00 01 00 00 01 00 05 0A 00 00 00 00 00 00 00 00 00 00 00 00 00 00 00 00 00 00 00 00 00 00 00 00 FF FF 61 FD FF FF 61 FD 7B 17
2026-07-24T18:50:46.445342+00:00 TX 01 03 00 20 00 02 C5 C1
2026-07-24T18:50:46.453383+00:00 RX 01 03 04 00 00 02 6C FB 7E
2026-07-24T18:50:46.455383+00:00 TX 01 03 01 C4 00 01 C4 0B
2026-07-24T18:50:46.462386+00:00 RX 01 03 02 00 00 B8 44
2026-07-24T18:50:46.512901+00:00 TX 01 03 00 00 00 20 44 12
2026-07-24T18:50:46.556948+00:00 RX 01 03 40 00 00 00 00 00 03 00 00 00 03 00 00 00 00 00 00 00 00 00 00 00 00 00 00 00 01 00 00 01 00 05 0A 00 00 00 00 00 00 00 00 00 00 00 00 00 00 00 00 00 00 00 00 00 00 00 00 FF FF 5E E3 FF FF 5E E3 47 E2
2026-07-24T18:50:46.558948+00:00 TX 01 03 00 20 00 02 C5 C1
2026-07-24T18:50:46.566946+00:00 RX 01 03 04 00 00 02 6D 3A BE
2026-07-24T18:50:46.568947+00:00 TX 01 03 01 C4 00 01 C4 0B
2026-07-24T18:50:46.574948+00:00 RX 01 03 02 00 00 B8 44
2026-07-24T18:50:46.625462+00:00 TX 01 03 00 00 00 20 44 12
2026-07-24T18:50:46.669996+00:00 RX 01 03 40 00 00 00 00 00 03 00 00 00 03 00 00 00 00 00 00 00 00 00 00 00 00 00 00 00 01 00 00 01 00 05 0A 00 00 00 00 00 00 00 00 00 00 00 00 00 00 00 00 00 00 00 00 00 00 00 00 FF FF 5F D9 FF FF 5F D9 1F B5
2026-07-24T18:50:46.671997+00:00 TX 01 03 00 20 00 02 C5 C1
2026-07-24T18:50:46.679999+00:00 RX 01 03 04 00 00 02 6E 7A BF
2026-07-24T18:50:46.681999+00:00 TX 01 03 01 C4 00 01 C4 0B
2026-07-24T18:50:46.688001+00:00 RX 01 03 02 00 00 B8 44
2026-07-24T18:50:46.738536+00:00 TX 01 03 00 00 00 20 44 12
2026-07-24T18:50:46.782560+00:00 RX 01 03 40 00 00 00 00 00 03 00 00 00 03 00 00 00 00 00 00 00 00 00 00 00 00 00 00 00 01 00 00 01 00 05 0A 00 00 00 00 00 00 00 00 00 00 00 00 00 00 00 00 00 00 00 00 00 00 00 00 FF FF 5F B6 FF FF 5F B6 8B 90
2026-07-24T18:50:46.784561+00:00 TX 01 03 00 20 00 02 C5 C1
2026-07-24T18:50:46.792562+00:00 RX 01 03 04 00 00 02 6F BB 7F
2026-07-24T18:50:46.794563+00:00 TX 01 03 01 C4 00 01 C4 0B
2026-07-24T18:50:46.801564+00:00 RX 01 03 02 00 00 B8 44
2026-07-24T18:50:46.851612+00:00 TX 01 03 00 00 00 20 44 12
2026-07-24T18:50:46.896623+00:00 RX 01 03 40 00 00 00 00 00 03 00 00 00 03 00 00 00 00 00 00 00 00 00 00 00 00 00 00 00 01 00 00 01 00 05 0A 00 00 00 00 00 00 00 00 00 00 00 00 00 00 00 00 00 00 00 00 00 00 00 00 FF FF 60 40 FF FF 60 40 D7 3C
2026-07-24T18:50:46.899623+00:00 TX 01 03 00 20 00 02 C5 C1
2026-07-24T18:50:46.907621+00:00 RX 01 03 04 00 00 02 71 3B 77
2026-07-24T18:50:46.909622+00:00 TX 01 03 01 C4 00 01 C4 0B
2026-07-24T18:50:46.915624+00:00 RX 01 03 02 00 00 B8 44
2026-07-24T18:50:46.966155+00:00 TX 01 03 00 00 00 20 44 12
2026-07-24T18:50:47.011168+00:00 RX 01 03 40 00 00 00 00 00 03 00 00 00 03 00 00 00 00 00 00 00 00 00 00 00 00 00 00 00 01 00 00 01 00 05 0A 00 00 00 00 00 00 00 00 00 00 00 00 00 00 00 00 00 00 00 00 00 00 00 00 FF FF 5F F3 FF FF 5F F3 87 AC
2026-07-24T18:50:47.014166+00:00 TX 01 03 00 20 00 02 C5 C1
2026-07-24T18:50:47.023202+00:00 RX 01 03 04 00 00 02 72 7B 76
2026-07-24T18:50:47.025203+00:00 TX 01 03 01 C4 00 01 C4 0B
2026-07-24T18:50:47.032205+00:00 RX 01 03 02 00 00 B8 44
2026-07-24T18:50:47.082216+00:00 TX 01 03 00 00 00 20 44 12
2026-07-24T18:50:47.126852+00:00 RX 01 03 40 00 00 00 00 00 03 00 00 00 03 00 00 00 00 00 00 00 00 00 00 00 00 00 00 00 01 00 00 01 00 05 0A 00 00 00 00 00 00 00 00 00 00 00 00 00 00 00 00 00 00 00 00 00 00 00 00 FF FF 60 05 FF FF 60 05 DB 00
2026-07-24T18:50:47.129389+00:00 TX 01 03 00 20 00 02 C5 C1
2026-07-24T18:50:47.137391+00:00 RX 01 03 04 00 00 02 73 BA B6
2026-07-24T18:50:47.139895+00:00 TX 01 03 01 C4 00 01 C4 0B
2026-07-24T18:50:47.145931+00:00 RX 01 03 02 00 00 B8 44
2026-07-24T18:50:47.196975+00:00 TX 01 03 00 00 00 20 44 12
2026-07-24T18:50:47.241705+00:00 RX 01 03 40 00 00 00 00 00 03 00 00 00 03 00 00 00 00 00 00 00 00 00 00 00 00 00 00 00 01 00 00 01 00 05 0A 00 00 00 00 00 00 00 00 00 00 00 00 00 00 00 00 00 00 00 00 00 00 00 00 FF FF 60 BE FF FF 60 BE 7F 68
2026-07-24T18:50:47.244702+00:00 TX 01 03 00 20 00 02 C5 C1
2026-07-24T18:50:47.252703+00:00 RX 01 03 04 00 00 02 74 FB 74
2026-07-24T18:50:47.254704+00:00 TX 01 03 01 C4 00 01 C4 0B
2026-07-24T18:50:47.261207+00:00 RX 01 03 02 00 00 B8 44
2026-07-24T18:50:47.311214+00:00 TX 01 03 00 00 00 20 44 12
2026-07-24T18:50:47.355726+00:00 RX 01 03 40 00 00 00 00 00 03 00 00 00 03 00 00 00 00 00 00 00 00 00 00 00 00 00 00 00 01 00 00 01 00 05 0A 00 00 00 00 00 00 00 00 00 00 00 00 00 00 00 00 00 00 00 00 00 00 00 00 FF FF 62 03 FF FF 62 03 D3 80
2026-07-24T18:50:47.357727+00:00 TX 01 03 00 20 00 02 C5 C1
2026-07-24T18:50:47.365725+00:00 RX 01 03 04 00 00 02 75 3A B4
2026-07-24T18:50:47.367725+00:00 TX 01 03 01 C4 00 01 C4 0B
2026-07-24T18:50:47.373727+00:00 RX 01 03 02 00 00 B8 44
2026-07-24T18:50:47.423761+00:00 TX 01 03 00 00 00 20 44 12
2026-07-24T18:50:47.468273+00:00 RX 01 03 40 00 00 00 00 00 03 00 00 00 03 00 00 00 00 00 00 00 00 00 00 00 00 00 00 00 01 00 00 01 00 05 0A 00 00 00 00 00 00 00 00 00 00 00 00 00 00 00 00 00 00 00 00 00 00 00 00 FF FF 61 5D FF FF 61 5D FB 76
2026-07-24T18:50:47.470274+00:00 TX 01 03 00 20 00 02 C5 C1
2026-07-24T18:50:47.478276+00:00 RX 01 03 04 00 00 02 76 7A B5
2026-07-24T18:50:47.480276+00:00 TX 01 03 01 C4 00 01 C4 0B
2026-07-24T18:50:47.487278+00:00 RX 01 03 02 00 00 B8 44
2026-07-24T18:50:47.537829+00:00 TX 01 03 00 00 00 20 44 12
2026-07-24T18:50:47.582642+00:00 RX 01 03 40 00 00 00 00 00 03 00 00 00 03 00 00 00 00 00 00 00 00 00 00 00 00 00 00 00 01 00 00 01 00 05 0A 00 00 00 00 00 00 00 00 00 00 00 00 00 00 00 00 00 00 00 00 00 00 00 00 FF FF 61 04 FF FF 61 04 27 41
2026-07-24T18:50:47.585641+00:00 TX 01 03 00 20 00 02 C5 C1
2026-07-24T18:50:47.593643+00:00 RX 01 03 04 00 00 02 78 FB 71
2026-07-24T18:50:47.596643+00:00 TX 01 03 01 C4 00 01 C4 0B
2026-07-24T18:50:47.603645+00:00 RX 01 03 02 00 00 B8 44
2026-07-24T18:50:47.654167+00:00 TX 01 03 00 00 00 20 44 12
2026-07-24T18:50:47.699177+00:00 RX 01 03 40 00 00 00 00 00 03 00 00 00 03 00 00 00 00 00 00 00 00 00 00 00 00 00 00 00 01 00 00 01 00 05 0A 00 00 00 00 00 00 00 00 00 00 00 00 00 00 00 00 00 00 00 00 00 00 00 00 FF FF 5F 18 FF FF 5F 18 E3 F4
2026-07-24T18:50:47.701178+00:00 TX 01 03 00 20 00 02 C5 C1
2026-07-24T18:50:47.709177+00:00 RX 01 03 04 00 00 02 79 3A B1
2026-07-24T18:50:47.711177+00:00 TX 01 03 01 C4 00 01 C4 0B
2026-07-24T18:50:47.718179+00:00 RX 01 03 02 00 00 B8 44
2026-07-24T18:50:47.768735+00:00 TX 01 03 00 00 00 20 44 12
2026-07-24T18:50:47.813750+00:00 RX 01 03 40 00 00 00 00 00 03 00 00 00 03 00 00 00 00 00 00 00 00 00 00 00 00 00 00 00 01 00 00 01 00 05 0A 00 00 00 00 00 00 00 00 00 00 00 00 00 00 00 00 00 00 00 00 00 00 00 00 FF FF 5E 2D FF FF 5E 2D AF A6
2026-07-24T18:50:47.815751+00:00 TX 01 03 00 20 00 02 C5 C1
2026-07-24T18:50:47.823758+00:00 RX 01 03 04 00 00 02 7A 7A B0
2026-07-24T18:50:47.826755+00:00 TX 01 03 01 C4 00 01 C4 0B
2026-07-24T18:50:47.833756+00:00 RX 01 03 02 00 00 B8 44
2026-07-24T18:50:47.884266+00:00 TX 01 03 00 00 00 20 44 12
2026-07-24T18:50:47.929274+00:00 RX 01 03 40 00 00 00 00 00 03 00 00 00 03 00 00 00 00 00 00 00 00 00 00 00 00 00 00 00 01 00 00 01 00 05 0A 00 00 00 00 00 00 00 00 00 00 00 00 00 00 00 00 00 00 00 00 00 00 00 00 FF FF 5D 41 FF FF 5D 41 3F 41
2026-07-24T18:50:47.931275+00:00 TX 01 03 00 20 00 02 C5 C1
2026-07-24T18:50:47.938783+00:00 RX 01 03 04 00 00 02 7B BB 70
2026-07-24T18:50:47.941780+00:00 TX 01 03 01 C4 00 01 C4 0B
2026-07-24T18:50:47.947782+00:00 RX 01 03 02 00 00 B8 44
2026-07-24T18:50:47.999041+00:00 TX 01 03 00 00 00 20 44 12
2026-07-24T18:50:48.044053+00:00 RX 01 03 40 00 00 00 00 00 03 00 00 00 03 00 00 00 00 00 00 00 00 00 00 00 00 00 00 00 01 00 00 01 00 05 0A 00 00 00 00 00 00 00 00 00 00 00 00 00 00 00 00 00 00 00 00 00 00 00 00 FF FF 5D 89 FF FF 5D 89 DF 07
2026-07-24T18:50:48.046054+00:00 TX 01 03 00 20 00 02 C5 C1
2026-07-24T18:50:48.054056+00:00 RX 01 03 04 00 00 02 7C FA B2
2026-07-24T18:50:48.056056+00:00 TX 01 03 01 C4 00 01 C4 0B
2026-07-24T18:50:48.064058+00:00 RX 01 03 02 00 00 B8 44
2026-07-24T18:50:48.114136+00:00 TX 01 03 00 00 00 20 44 12
2026-07-24T18:50:48.159255+00:00 RX 01 03 40 00 00 00 00 00 03 00 00 00 03 00 00 00 00 00 00 00 00 00 00 00 00 00 00 00 01 00 00 01 00 05 0A 00 00 00 00 00 00 00 00 00 00 00 00 00 00 00 00 00 00 00 00 00 00 00 00 FF FF 5C F7 FF FF 5C F7 77 6C
2026-07-24T18:50:48.161255+00:00 TX 01 03 00 20 00 02 C5 C1
2026-07-24T18:50:48.169254+00:00 RX 01 03 04 00 00 02 7D 3B 72
2026-07-24T18:50:48.171255+00:00 TX 01 03 01 C4 00 01 C4 0B
2026-07-24T18:50:48.177256+00:00 RX 01 03 02 00 00 B8 44
2026-07-24T18:50:48.227261+00:00 TX 01 03 00 00 00 20 44 12
2026-07-24T18:50:48.272272+00:00 RX 01 03 40 00 00 00 00 00 03 00 00 00 03 00 00 00 00 00 00 00 00 00 00 00 00 00 00 00 01 00 00 01 00 05 0A 00 00 00 00 00 00 00 00 00 00 00 00 00 00 00 00 00 00 00 00 00 00 00 00 FF FF 5B D2 FF FF 5B D2 F8 F7
2026-07-24T18:50:48.274272+00:00 TX 01 03 00 20 00 02 C5 C1
2026-07-24T18:50:48.282274+00:00 RX 01 03 04 00 00 02 7F BA B3
2026-07-24T18:50:48.285275+00:00 TX 01 03 01 C4 00 01 C4 0B
2026-07-24T18:50:48.291276+00:00 RX 01 03 02 00 00 B8 44
2026-07-24T18:50:48.342747+00:00 TX 01 03 00 00 00 20 44 12
2026-07-24T18:50:48.387256+00:00 RX 01 03 40 00 00 00 00 00 03 00 00 00 03 00 00 00 00 00 00 00 00 00 00 00 00 00 00 00 01 00 00 01 00 05 0A 00 00 00 00 00 00 00 00 00 00 00 00 00 00 00 00 00 00 00 00 00 00 00 00 FF FF 5D 5F FF FF 5D 5F 17 4B
2026-07-24T18:50:48.389290+00:00 TX 01 03 00 20 00 02 C5 C1
2026-07-24T18:50:48.396804+00:00 RX 01 03 04 00 00 02 80 FA F3
2026-07-24T18:50:48.398804+00:00 TX 01 03 01 C4 00 01 C4 0B
2026-07-24T18:50:48.404806+00:00 RX 01 03 02 00 00 B8 44
2026-07-24T18:50:48.455817+00:00 TX 01 03 00 00 00 20 44 12
2026-07-24T18:50:48.501825+00:00 RX 01 03 40 00 00 00 00 00 03 00 00 00 03 00 00 00 00 00 00 00 00 00 00 00 00 00 00 00 01 00 00 01 00 05 0A 00 00 00 00 00 00 00 00 00 00 00 00 00 00 00 00 00 00 00 00 00 00 00 00 FF FF 5E F9 FF FF 5E F9 9F EB
2026-07-24T18:50:48.503924+00:00 TX 01 03 00 20 00 02 C5 C1
2026-07-24T18:50:48.511920+00:00 RX 01 03 04 00 00 02 81 3B 33
2026-07-24T18:50:48.513920+00:00 TX 01 03 01 C4 00 01 C4 0B
2026-07-24T18:50:48.520922+00:00 RX 01 03 02 00 00 B8 44
2026-07-24T18:50:48.571457+00:00 TX 01 03 00 00 00 20 44 12
2026-07-24T18:50:48.616713+00:00 RX 01 03 40 00 00 00 00 00 03 00 00 00 03 00 00 00 00 00 00 00 00 00 00 00 00 00 00 00 01 00 00 01 00 05 0A 00 00 00 00 00 00 00 00 00 00 00 00 00 00 00 00 00 00 00 00 00 00 00 00 FF FF 5E A1 FF FF 5E A1 BF DC
2026-07-24T18:50:48.619224+00:00 TX 01 03 00 20 00 02 C5 C1
2026-07-24T18:50:48.627229+00:00 RX 01 03 04 00 00 02 82 7B 32
2026-07-24T18:50:48.629275+00:00 TX 01 03 01 C4 00 01 C4 0B
2026-07-24T18:50:48.636273+00:00 RX 01 03 02 00 00 B8 44
2026-07-24T18:50:48.686974+00:00 TX 01 03 00 00 00 20 44 12
2026-07-24T18:50:48.731992+00:00 RX 01 03 40 00 00 00 00 00 03 00 00 00 03 00 00 00 00 00 00 00 00 00 00 00 00 00 00 00 01 00 00 01 00 05 0A 00 00 00 00 00 00 00 00 00 00 00 00 00 00 00 00 00 00 00 00 00 00 00 00 FF FF 62 0A FF FF 62 0A CF 87
2026-07-24T18:50:48.733993+00:00 TX 01 03 00 20 00 02 C5 C1
2026-07-24T18:50:48.742496+00:00 RX 01 03 04 00 00 02 83 BA F2
2026-07-24T18:50:48.745497+00:00 TX 01 03 01 C4 00 01 C4 0B
2026-07-24T18:50:48.751498+00:00 RX 01 03 02 00 00 B8 44
2026-07-24T18:50:48.801509+00:00 TX 01 03 00 00 00 20 44 12
2026-07-24T18:50:48.846018+00:00 RX 01 03 40 00 00 00 00 00 03 00 00 00 03 00 00 00 00 00 00 00 00 00 00 00 00 00 00 00 01 00 00 01 00 05 0A 00 00 00 00 00 00 00 00 00 00 00 00 00 00 00 00 00 00 00 00 00 00 00 00 FF FF 62 CC FF FF 62 CC C7 C4
2026-07-24T18:50:48.848018+00:00 TX 01 03 00 20 00 02 C5 C1
2026-07-24T18:50:48.856021+00:00 RX 01 03 04 00 00 02 84 FB 30
2026-07-24T18:50:48.859021+00:00 TX 01 03 01 C4 00 01 C4 0B
2026-07-24T18:50:48.865022+00:00 RX 01 03 02 00 00 B8 44
2026-07-24T18:50:48.915030+00:00 TX 01 03 00 00 00 20 44 12
2026-07-24T18:50:48.960056+00:00 RX 01 03 40 00 00 00 00 00 03 00 00 00 03 00 00 00 00 00 00 00 00 00 00 00 00 00 00 00 01 00 00 01 00 05 0A 00 00 00 00 00 00 00 00 00 00 00 00 00 00 00 00 00 00 00 00 00 00 00 00 FF FF 61 40 FF FF 61 40 D7 7D
2026-07-24T18:50:48.962057+00:00 TX 01 03 00 20 00 02 C5 C1
2026-07-24T18:50:48.970055+00:00 RX 01 03 04 00 00 02 86 7A F1
2026-07-24T18:50:48.972056+00:00 TX 01 03 01 C4 00 01 C4 0B
2026-07-24T18:50:48.978057+00:00 RX 01 03 02 00 00 B8 44
2026-07-24T18:50:49.028069+00:00 TX 01 03 00 00 00 20 44 12
2026-07-24T18:50:49.073080+00:00 RX 01 03 40 00 00 00 00 00 03 00 00 00 03 00 00 00 00 00 00 00 00 00 00 00 00 00 00 00 01 00 00 01 00 05 0A 00 00 00 00 00 00 00 00 00 00 00 00 00 00 00 00 00 00 00 00 00 00 00 00 FF FF 5F 7A FF FF 5F 7A 9B D5
2026-07-24T18:50:49.075080+00:00 TX 01 03 00 20 00 02 C5 C1
2026-07-24T18:50:49.083082+00:00 RX 01 03 04 00 00 02 87 BB 31
2026-07-24T18:50:49.085083+00:00 TX 01 03 01 C4 00 01 C4 0B
2026-07-24T18:50:49.092084+00:00 RX 01 03 02 00 00 B8 44
2026-07-24T18:50:49.142636+00:00 TX 01 03 00 00 00 20 44 12
2026-07-24T18:50:49.188154+00:00 RX 01 03 40 00 00 00 00 00 03 00 00 00 03 00 00 00 00 00 00 00 00 00 00 00 00 00 00 00 01 00 00 01 00 05 0A 00 00 00 00 00 00 00 00 00 00 00 00 00 00 00 00 00 00 00 00 00 00 00 00 FF FF 5D C8 FF FF 5D C8 23 38
2026-07-24T18:50:49.190155+00:00 TX 01 03 00 20 00 02 C5 C1
2026-07-24T18:50:49.198156+00:00 RX 01 03 04 00 00 02 88 FB 35
2026-07-24T18:50:49.200157+00:00 TX 01 03 01 C4 00 01 C4 0B
2026-07-24T18:50:49.207158+00:00 RX 01 03 02 00 00 B8 44
2026-07-24T18:50:49.258170+00:00 TX 01 03 00 00 00 20 44 12
2026-07-24T18:50:49.303151+00:00 RX 01 03 40 00 00 00 00 00 03 00 00 00 03 00 00 00 00 00 00 00 00 00 00 00 00 00 00 00 01 00 00 01 00 05 0A 00 00 00 00 00 00 00 00 00 00 00 00 00 00 00 00 00 00 00 00 00 00 00 00 FF FF 5D 0B FF FF 5D 0B 27 78
2026-07-24T18:50:49.305152+00:00 TX 01 03 00 20 00 02 C5 C1
2026-07-24T18:50:49.313152+00:00 RX 01 03 04 00 00 02 89 3A F5
2026-07-24T18:50:49.315152+00:00 TX 01 03 01 C4 00 01 C4 0B
2026-07-24T18:50:49.322154+00:00 RX 01 03 02 00 00 B8 44
2026-07-24T18:50:49.372725+00:00 TX 01 03 00 00 00 20 44 12
2026-07-24T18:50:49.416752+00:00 RX 01 03 40 00 00 00 00 00 03 00 00 00 03 00 00 00 00 00 00 00 00 00 00 00 00 00 00 00 01 00 00 01 00 05 0A 00 00 00 00 00 00 00 00 00 00 00 00 00 00 00 00 00 00 00 00 00 00 00 00 FF FF 5C 77 FF FF 5C 77 77 12
2026-07-24T18:50:49.419753+00:00 TX 01 03 00 20 00 02 C5 C1
2026-07-24T18:50:49.428259+00:00 RX 01 03 04 00 00 02 8A 7A F4
2026-07-24T18:50:49.431257+00:00 TX 01 03 01 C4 00 01 C4 0B
2026-07-24T18:50:49.437258+00:00 RX 01 03 02 00 00 B8 44
2026-07-24T18:50:49.488270+00:00 TX 01 03 00 00 00 20 44 12
2026-07-24T18:50:49.533306+00:00 RX 01 03 40 00 00 00 00 00 03 00 00 00 03 00 00 00 00 00 00 00 00 00 00 00 00 00 00 00 01 00 00 01 00 05 0A 00 00 00 00 00 00 00 00 00 00 00 00 00 00 00 00 00 00 00 00 00 00 00 00 FF FF 5E 15 FF FF 5E 15 0F B1
2026-07-24T18:50:49.535307+00:00 TX 01 03 00 20 00 02 C5 C1
2026-07-24T18:50:49.543315+00:00 RX 01 03 04 00 00 02 8B BB 34
2026-07-24T18:50:49.545315+00:00 TX 01 03 01 C4 00 01 C4 0B
2026-07-24T18:50:49.551316+00:00 RX 01 03 02 00 00 B8 44
2026-07-24T18:50:49.602332+00:00 TX 01 03 00 00 00 20 44 12
2026-07-24T18:50:49.646903+00:00 RX 01 03 40 00 00 00 00 00 03 00 00 00 03 00 00 00 00 00 00 00 00 00 00 00 00 00 00 00 01 00 00 01 00 05 0A 00 00 00 00 00 00 00 00 00 00 00 00 00 00 00 00 00 00 00 00 00 00 00 00 FF FF 5D 80 FF FF 5D 80 C3 00
2026-07-24T18:50:49.648903+00:00 TX 01 03 00 20 00 02 C5 C1
2026-07-24T18:50:49.656905+00:00 RX 01 03 04 00 00 02 8D 3B 36
2026-07-24T18:50:49.658906+00:00 TX 01 03 01 C4 00 01 C4 0B
2026-07-24T18:50:49.664907+00:00 RX 01 03 02 00 00 B8 44
2026-07-24T18:50:49.714915+00:00 TX 01 03 00 00 00 20 44 12
2026-07-24T18:50:49.760994+00:00 RX 01 03 40 00 00 00 00 00 03 00 00 00 03 00 00 00 00 00 00 00 00 00 00 00 00 00 00 00 01 00 00 01 00 05 0A 00 00 00 00 00 00 00 00 00 00 00 00 00 00 00 00 00 00 00 00 00 00 00 00 FF FF 5D B6 FF FF 5D B6 8B 12
2026-07-24T18:50:49.762994+00:00 TX 01 03 00 20 00 02 C5 C1
2026-07-24T18:50:49.770993+00:00 RX 01 03 04 00 00 02 8E 7B 37
2026-07-24T18:50:49.772993+00:00 TX 01 03 01 C4 00 01 C4 0B
2026-07-24T18:50:49.779500+00:00 RX 01 03 02 00 00 B8 44
2026-07-24T18:50:49.830007+00:00 TX 01 03 00 00 00 20 44 12
