2026-09-11T19:49:16.433754+00:00 TX 01 03 00 00 00 20 44 12
2026-09-11T19:49:16.487806+00:00 RX 01 03 40 00 00 C3 58 00 02 00 01 00 1F 00 00 00 00 C3 55 00 00 C3 55 00 00 00 00 00 01 00 00 01 04 05 10 00 00 00 00 1D CE 15 03 00 00 00 00 1D CE 15 03 00 00 00 00 00 00 00 00 FF F8 8E 28 FF F8 8E 2E 43 23
2026-09-11T19:49:16.490307+00:00 TX 01 03 00 20 00 1B 04 0B
2026-09-11T19:49:16.537368+00:00 RX 01 03 36 00 00 97 6B 00 3B 40 4C 00 00 00 00 00 00 08 CD 00 00 00 00 00 03 00 04 00 00 00 00 00 00 00 03 00 00 00 01 00 00 00 00 00 03 00 00 00 03 00 00 00 00 00 00 00 00 CE 38
2026-09-11T19:49:16.539880+00:00 TX 01 03 01 3E 00 01 E4 3A
2026-09-11T19:49:16.546878+00:00 RX 01 03 02 00 02 39 85
2026-09-11T19:49:16.548878+00:00 TX 01 03 01 C0 00 05 84 09
2026-09-11T19:49:16.562888+00:00 RX 01 03 0A 00 03 00 01 00 00 00 03 00 00 D0 86
2026-09-11T19:49:16.564889+00:00 TX 01 03 01 03 00 01 75 F6
2026-09-11T19:49:16.571388+00:00 RX 01 03 02 00 00 B8 44
2026-09-11T19:49:16.573389+00:00 TX 01 03 00 20 00 02 C5 C1
2026-09-11T19:49:16.581906+00:00 RX 01 03 04 00 00 97 6B D5 EC
2026-09-11T19:49:16.631958+00:00 TX 01 03 00 20 00 02 C5 C1
2026-09-11T19:49:16.641457+00:00 RX 01 03 04 00 00 97 6C 94 2E
2026-09-11T19:49:16.692036+00:00 TX 01 03 00 20 00 02 C5 C1
2026-09-11T19:49:16.702537+00:00 RX 01 03 04 00 00 97 6D 55 EE
2026-09-11T19:49:16.752641+00:00 TX 01 03 00 20 00 02 C5 C1
2026-09-11T19:49:16.761160+00:00 RX 01 03 04 00 00 97 6D 55 EE
2026-09-11T19:49:16.812717+00:00 TX 01 03 00 20 00 02 C5 C1
2026-09-11T19:49:16.821733+00:00 RX 01 03 04 00 00 97 6E 15 EF
2026-09-11T19:49:16.872261+00:00 TX 01 03 00 20 00 02 C5 C1
2026-09-11T19:49:16.881770+00:00 RX 01 03 04 00 00 97 6E 15 EF
2026-09-11T19:49:16.931807+00:00 TX 01 03 00 20 00 02 C5 C1
2026-09-11T19:49:16.941310+00:00 RX 01 03 04 00 00 97 6F D4 2F
2026-09-11T19:49:16.991883+00:00 TX 01 03 00 20 00 02 C5 C1
2026-09-11T19:49:17.002384+00:00 RX 01 03 04 00 00 97 70 95 E7
2026-09-11T19:49:17.052589+00:00 TX 01 03 00 20 00 02 C5 C1
2026-09-11T19:49:17.061155+00:00 RX 01 03 04 00 00 97 70 95 E7
2026-09-11T19:49:17.113012+00:00 TX 01 03 00 20 00 02 C5 C1
2026-09-11T19:49:17.122022+00:00 RX 01 03 04 00 00 97 71 54 27
2026-09-11T19:49:17.172552+00:00 TX 01 03 00 20 00 02 C5 C1
2026-09-11T19:49:17.181062+00:00 RX 01 03 04 00 00 97 71 54 27
2026-09-11T19:49:17.232128+00:00 TX 01 03 00 20 00 02 C5 C1
2026-09-11T19:49:17.241629+00:00 RX 01 03 04 00 00 97 72 14 26
2026-09-11T19:49:17.292170+00:00 TX 01 03 00 20 00 02 C5 C1
2026-09-11T19:49:17.302685+00:00 RX 01 03 04 00 00 97 73 D5 E6
2026-09-11T19:49:17.352708+00:00 TX 01 03 00 20 00 02 C5 C1
2026-09-11T19:49:17.361208+00:00 RX 01 03 04 00 00 97 73 D5 E6
2026-09-11T19:49:17.411773+00:00 TX 01 03 00 20 00 02 C5 C1
2026-09-11T19:49:17.421810+00:00 RX 01 03 04 00 00 97 74 94 24
2026-09-11T19:49:17.471861+00:00 TX 01 03 00 20 00 02 C5 C1
2026-09-11T19:49:17.481361+00:00 RX 01 03 04 00 00 97 74 94 24
2026-09-11T19:49:17.531824+00:00 TX 01 03 00 20 00 02 C5 C1
2026-09-11T19:49:17.541327+00:00 RX 01 03 04 00 00 97 75 55 E4
2026-09-11T19:49:17.591899+00:00 TX 01 03 00 20 00 02 C5 C1
2026-09-11T19:49:17.601399+00:00 RX 01 03 04 00 00 97 76 15 E5
2026-09-11T19:49:17.651459+00:00 TX 01 03 00 20 00 02 C5 C1
2026-09-11T19:49:17.659971+00:00 RX 01 03 04 00 00 97 76 15 E5
2026-09-11T19:49:17.711717+00:00 TX 01 03 00 20 00 02 C5 C1
2026-09-11T19:49:17.720735+00:00 RX 01 03 04 00 00 97 77 D4 25
2026-09-11T19:49:17.771267+00:00 TX 01 03 00 20 00 02 C5 C1
2026-09-11T19:49:17.780789+00:00 RX 01 03 04 00 00 97 77 D4 25
2026-09-11T19:49:17.830853+00:00 TX 01 03 00 20 00 02 C5 C1
2026-09-11T19:49:17.839355+00:00 RX 01 03 04 00 00 97 78 94 21
2026-09-11T19:49:17.889939+00:00 TX 01 03 00 20 00 02 C5 C1
2026-09-11T19:49:17.899966+00:00 RX 01 03 04 00 00 97 78 94 21
2026-09-11T19:49:17.951022+00:00 TX 01 03 00 20 00 02 C5 C1
2026-09-11T19:49:17.959529+00:00 RX 01 03 04 00 00 97 79 55 E1
2026-09-11T19:49:18.010160+00:00 TX 01 03 00 20 00 02 C5 C1
2026-09-11T19:49:18.018659+00:00 RX 01 03 04 00 00 97 7A 15 E0
2026-09-11T19:49:18.068746+00:00 TX 01 03 00 20 00 02 C5 C1
2026-09-11T19:49:18.076749+00:00 RX 01 03 04 00 00 97 7A 15 E0
2026-09-11T19:49:18.127469+00:00 TX 01 03 00 20 00 02 C5 C1
2026-09-11T19:49:18.135981+00:00 RX 01 03 04 00 00 97 7B D4 20
2026-09-11T19:49:18.186038+00:00 TX 01 03 00 20 00 02 C5 C1
2026-09-11T19:49:18.194538+00:00 RX 01 03 04 00 00 97 7B D4 20
2026-09-11T19:49:18.244566+00:00 TX 01 03 00 20 00 02 C5 C1
2026-09-11T19:49:18.253090+00:00 RX 01 03 04 00 00 97 7C 95 E2
2026-09-11T19:49:18.303644+00:00 TX 01 03 00 20 00 02 C5 C1
2026-09-11T19:49:18.312144+00:00 RX 01 03 04 00 00 97 7D 54 22
2026-09-11T19:49:18.362199+00:00 TX 01 03 00 20 00 02 C5 C1
2026-09-11T19:49:18.370798+00:00 RX 01 03 04 00 00 97 7D 54 22
2026-09-11T19:49:18.420844+00:00 TX 01 03 00 20 00 02 C5 C1
2026-09-11T19:49:18.429346+00:00 RX 01 03 04 00 00 97 7E 14 23
2026-09-11T19:49:18.479524+00:00 TX 01 03 00 20 00 02 C5 C1
2026-09-11T19:49:18.487519+00:00 RX 01 03 04 00 00 97 7E 14 23
2026-09-11T19:49:18.538089+00:00 TX 01 03 00 20 00 02 C5 C1
2026-09-11T19:49:18.546590+00:00 RX 01 03 04 00 00 97 7F D5 E3
2026-09-11T19:49:18.597141+00:00 TX 01 03 00 20 00 02 C5 C1
2026-09-11T19:49:18.605651+00:00 RX 01 03 04 00 00 97 80 95 A3
2026-09-11T19:49:18.655670+00:00 TX 01 03 00 20 00 02 C5 C1
2026-09-11T19:49:18.664170+00:00 RX 01 03 04 00 00 97 80 95 A3
2026-09-11T19:49:18.715439+00:00 TX 01 03 00 20 00 02 C5 C1
2026-09-11T19:49:18.723966+00:00 RX 01 03 04 00 00 97 81 54 63
2026-09-11T19:49:18.775481+00:00 TX 01 03 00 20 00 02 C5 C1
2026-09-11T19:49:18.784000+00:00 RX 01 03 04 00 00 97 81 54 63
2026-09-11T19:49:18.834310+00:00 TX 01 03 00 20 00 02 C5 C1
2026-09-11T19:49:18.843840+00:00 RX 01 03 04 00 00 97 82 14 62
2026-09-11T19:49:18.894357+00:00 TX 01 03 00 20 00 02 C5 C1
2026-09-11T19:49:18.903874+00:00 RX 01 03 04 00 00 97 83 D5 A2
2026-09-11T19:49:18.953896+00:00 TX 01 03 00 20 00 02 C5 C1
2026-09-11T19:49:18.962395+00:00 RX 01 03 04 00 00 97 83 D5 A2
2026-09-11T19:49:19.013976+00:00 TX 01 03 00 20 00 02 C5 C1
2026-09-11T19:49:19.023007+00:00 RX 01 03 04 00 00 97 84 94 60
2026-09-11T19:49:19.074581+00:00 TX 01 03 00 20 00 02 C5 C1
2026-09-11T19:49:19.083104+00:00 RX 01 03 04 00 00 97 84 94 60
2026-09-11T19:49:19.133160+00:00 TX 01 03 00 20 00 02 C5 C1
2026-09-11T19:49:19.142673+00:00 RX 01 03 04 00 00 97 85 55 A0
2026-09-11T19:49:19.193195+00:00 TX 01 03 00 20 00 02 C5 C1
2026-09-11T19:49:19.203706+00:00 RX 01 03 04 00 00 97 85 55 A0
2026-09-11T19:49:19.254261+00:00 TX 01 03 00 20 00 02 C5 C1
2026-09-11T19:49:19.263319+00:00 RX 01 03 04 00 00 97 86 15 A1
2026-09-11T19:49:19.313398+00:00 TX 01 03 00 20 00 02 C5 C1
2026-09-11T19:49:19.322411+00:00 RX 01 03 04 00 00 97 87 D4 61
2026-09-11T19:49:19.372973+00:00 TX 01 03 00 20 00 02 C5 C1
2026-09-11T19:49:19.381472+00:00 RX 01 03 04 00 00 97 87 D4 61
2026-09-11T19:49:19.432517+00:00 TX 01 03 00 20 00 02 C5 C1
2026-09-11T19:49:19.442030+00:00 RX 01 03 04 00 00 97 88 94 65
2026-09-11T19:49:19.492092+00:00 TX 01 03 00 20 00 02 C5 C1
2026-09-11T19:49:19.502119+00:00 RX 01 03 04 00 00 97 88 94 65
2026-09-11T19:49:19.553198+00:00 TX 01 03 00 20 00 02 C5 C1
2026-09-11T19:49:19.562731+00:00 RX 01 03 04 00 00 97 89 55 A5
2026-09-11T19:49:19.613270+00:00 TX 01 03 00 20 00 02 C5 C1
2026-09-11T19:49:19.622271+00:00 RX 01 03 04 00 00 97 8A 15 A4
2026-09-11T19:49:19.672839+00:00 TX 01 03 00 20 00 02 C5 C1
2026-09-11T19:49:19.682339+00:00 RX 01 03 04 00 00 97 8A 15 A4
2026-09-11T19:49:19.732940+00:00 TX 01 03 00 20 00 02 C5 C1
2026-09-11T19:49:19.742064+00:00 RX 01 03 04 00 00 97 8B D4 64
2026-09-11T19:49:19.792313+00:00 TX 01 03 00 20 00 02 C5 C1
2026-09-11T19:49:19.802829+00:00 RX 01 03 04 00 00 97 8B D4 64
2026-09-11T19:49:19.852856+00:00 TX 01 03 00 20 00 02 C5 C1
2026-09-11T19:49:19.862355+00:00 RX 01 03 04 00 00 97 8C 95 A6
2026-09-11T19:49:19.912894+00:00 TX 01 03 00 20 00 02 C5 C1
2026-09-11T19:49:19.921924+00:00 RX 01 03 04 00 00 97 8D 54 66
2026-09-11T19:49:19.973189+00:00 TX 01 03 00 20 00 02 C5 C1
2026-09-11T19:49:19.982696+00:00 RX 01 03 04 00 00 97 8D 54 66
2026-09-11T19:49:20.032710+00:00 TX 01 03 00 20 00 02 C5 C1
2026-09-11T19:49:20.042210+00:00 RX 01 03 04 00 00 97 8E 14 67
2026-09-11T19:49:20.092820+00:00 TX 01 03 00 20 00 02 C5 C1
2026-09-11T19:49:20.103320+00:00 RX 01 03 04 00 00 97 8E 14 67
