2026-09-11T19:37:22.532917+00:00 TX 01 03 00 00 00 20 44 12
2026-09-11T19:37:22.588114+00:00 RX 01 03 40 00 00 C3 58 00 02 00 01 00 1F 00 00 00 00 C3 56 00 00 C3 56 00 00 00 00 00 01 00 00 01 04 05 10 00 00 00 00 1D CE 4E 37 00 00 00 00 1D CE 4E 37 00 00 00 00 00 00 00 00 FF F8 8E 2B FF F8 8E 21 1C 7C
2026-09-11T19:37:22.590609+00:00 TX 01 03 00 20 00 1B 04 0B
2026-09-11T19:37:22.640080+00:00 RX 01 03 36 00 00 7B 9C 00 30 5F 10 00 00 00 00 00 00 23 34 00 00 00 00 00 03 00 04 00 00 00 00 00 00 00 03 00 00 00 01 00 00 00 00 00 03 00 00 00 03 00 00 00 00 00 00 00 00 9B D6
2026-09-11T19:37:22.641586+00:00 TX 01 03 01 3E 00 01 E4 3A
2026-09-11T19:37:22.648605+00:00 RX 01 03 02 00 02 39 85
2026-09-11T19:37:22.650606+00:00 TX 01 03 01 C0 00 05 84 09
2026-09-11T19:37:22.664135+00:00 RX 01 03 0A 00 03 00 01 00 00 00 03 00 00 D0 86
2026-09-11T19:37:22.666135+00:00 TX 01 03 01 03 00 01 75 F6
2026-09-11T19:37:22.673663+00:00 RX 01 03 02 00 00 B8 44
2026-09-11T19:37:22.676106+00:00 TX 01 03 00 20 00 02 C5 C1
2026-09-11T19:37:22.685492+00:00 RX 01 03 04 00 00 7B 9D 19 6A
2026-09-11T19:37:22.736045+00:00 TX 01 03 00 20 00 02 C5 C1
2026-09-11T19:37:22.745563+00:00 RX 01 03 04 00 00 7B 9E 59 6B
2026-09-11T19:37:22.795660+00:00 TX 01 03 00 20 00 02 C5 C1
2026-09-11T19:37:22.804160+00:00 RX 01 03 04 00 00 7B 9E 59 6B
2026-09-11T19:37:22.854828+00:00 TX 01 03 00 20 00 02 C5 C1
2026-09-11T19:37:22.863331+00:00 RX 01 03 04 00 00 7B 9F 98 AB
2026-09-11T19:37:22.913967+00:00 TX 01 03 00 20 00 02 C5 C1
2026-09-11T19:37:22.922819+00:00 RX 01 03 04 00 00 7B A0 D8 BB
2026-09-11T19:37:22.973473+00:00 TX 01 03 00 20 00 02 C5 C1
2026-09-11T19:37:22.982481+00:00 RX 01 03 04 00 00 7B A0 D8 BB
2026-09-11T19:37:23.032561+00:00 TX 01 03 00 20 00 02 C5 C1
2026-09-11T19:37:23.041651+00:00 RX 01 03 04 00 00 7B A1 19 7B
2026-09-11T19:37:23.091694+00:00 TX 01 03 00 20 00 02 C5 C1
2026-09-11T19:37:23.100710+00:00 RX 01 03 04 00 00 7B A1 19 7B
2026-09-11T19:37:23.150802+00:00 TX 01 03 00 20 00 02 C5 C1
2026-09-11T19:37:23.159807+00:00 RX 01 03 04 00 00 7B A2 59 7A
2026-09-11T19:37:23.210080+00:00 TX 01 03 00 20 00 02 C5 C1
2026-09-11T19:37:23.219596+00:00 RX 01 03 04 00 00 7B A3 98 BA
2026-09-11T19:37:23.269732+00:00 TX 01 03 00 20 00 02 C5 C1
2026-09-11T19:37:23.278232+00:00 RX 01 03 04 00 00 7B A3 98 BA
2026-09-11T19:37:23.328944+00:00 TX 01 03 00 20 00 02 C5 C1
2026-09-11T19:37:23.338466+00:00 RX 01 03 04 00 00 7B A4 D9 78
2026-09-11T19:37:23.388634+00:00 TX 01 03 00 20 00 02 C5 C1
2026-09-11T19:37:23.398134+00:00 RX 01 03 04 00 00 7B A4 D9 78
2026-09-11T19:37:23.448498+00:00 TX 01 03 00 20 00 02 C5 C1
2026-09-11T19:37:23.458502+00:00 RX 01 03 04 00 00 7B A5 18 B8
2026-09-11T19:37:23.510065+00:00 TX 01 03 00 20 00 02 C5 C1
2026-09-11T19:37:23.519584+00:00 RX 01 03 04 00 00 7B A6 58 B9
2026-09-11T19:37:23.569675+00:00 TX 01 03 00 20 00 02 C5 C1
2026-09-11T19:37:23.578175+00:00 RX 01 03 04 00 00 7B A6 58 B9
2026-09-11T19:37:23.628739+00:00 TX 01 03 00 20 00 02 C5 C1
2026-09-11T19:37:23.638240+00:00 RX 01 03 04 00 00 7B A7 99 79
2026-09-11T19:37:23.688385+00:00 TX 01 03 00 20 00 02 C5 C1
2026-09-11T19:37:23.697932+00:00 RX 01 03 04 00 00 7B A7 99 79
2026-09-11T19:37:23.748494+00:00 TX 01 03 00 20 00 02 C5 C1
2026-09-11T19:37:23.758497+00:00 RX 01 03 04 00 00 7B A8 D9 7D
2026-09-11T19:37:23.808693+00:00 TX 01 03 00 20 00 02 C5 C1
2026-09-11T19:37:23.818194+00:00 RX 01 03 04 00 00 7B A9 18 BD
2026-09-11T19:37:23.868959+00:00 TX 01 03 00 20 00 02 C5 C1
2026-09-11T19:37:23.878475+00:00 RX 01 03 04 00 00 7B A9 18 BD
2026-09-11T19:37:23.928676+00:00 TX 01 03 00 20 00 02 C5 C1
2026-09-11T19:37:23.938177+00:00 RX 01 03 04 00 00 7B AA 58 BC
2026-09-11T19:37:23.989175+00:00 TX 01 03 00 20 00 02 C5 C1
2026-09-11T19:37:23.998198+00:00 RX 01 03 04 00 00 7B AA 58 BC
2026-09-11T19:37:24.048305+00:00 TX 01 03 00 20 00 02 C5 C1
2026-09-11T19:37:24.057340+00:00 RX 01 03 04 00 00 7B AB 99 7C
2026-09-11T19:37:24.108995+00:00 TX 01 03 00 20 00 02 C5 C1
2026-09-11T19:37:24.119537+00:00 RX 01 03 04 00 00 7B AC D8 BE
2026-09-11T19:37:24.170302+00:00 TX 01 03 00 20 00 02 C5 C1
2026-09-11T19:37:24.178844+00:00 RX 01 03 04 00 00 7B AC D8 BE
2026-09-11T19:37:24.230493+00:00 TX 01 03 00 20 00 02 C5 C1
2026-09-11T19:37:24.239994+00:00 RX 01 03 04 00 00 7B AD 19 7E
2026-09-11T19:37:24.290090+00:00 TX 01 03 00 20 00 02 C5 C1
2026-09-11T19:37:24.299610+00:00 RX 01 03 04 00 00 7B AD 19 7E
2026-09-11T19:37:24.350161+00:00 TX 01 03 00 20 00 02 C5 C1
2026-09-11T19:37:24.359182+00:00 RX 01 03 04 00 00 7B AE 59 7F
2026-09-11T19:37:24.409430+00:00 TX 01 03 00 20 00 02 C5 C1
2026-09-11T19:37:24.418931+00:00 RX 01 03 04 00 00 7B AF 98 BF
2026-09-11T19:37:24.468969+00:00 TX 01 03 00 20 00 02 C5 C1
2026-09-11T19:37:24.478490+00:00 RX 01 03 04 00 00 7B AF 98 BF
2026-09-11T19:37:24.529036+00:00 TX 01 03 00 20 00 02 C5 C1
2026-09-11T19:37:24.538565+00:00 RX 01 03 04 00 00 7B B0 D9 77
2026-09-11T19:37:24.588641+00:00 TX 01 03 00 20 00 02 C5 C1
2026-09-11T19:37:24.598141+00:00 RX 01 03 04 00 00 7B B0 D9 77
2026-09-11T19:37:24.648720+00:00 TX 01 03 00 20 00 02 C5 C1
2026-09-11T19:37:24.657725+00:00 RX 01 03 04 00 00 7B B1 18 B7
2026-09-11T19:37:24.708927+00:00 TX 01 03 00 20 00 02 C5 C1
2026-09-11T19:37:24.718445+00:00 RX 01 03 04 00 00 7B B2 58 B6
2026-09-11T19:37:24.768547+00:00 TX 01 03 00 20 00 02 C5 C1
2026-09-11T19:37:24.778048+00:00 RX 01 03 04 00 00 7B B2 58 B6
2026-09-11T19:37:24.828595+00:00 TX 01 03 00 20 00 02 C5 C1
2026-09-11T19:37:24.838095+00:00 RX 01 03 04 00 00 7B B3 99 76
2026-09-11T19:37:24.888243+00:00 TX 01 03 00 20 00 02 C5 C1
2026-09-11T19:37:24.897812+00:00 RX 01 03 04 00 00 7B B3 99 76
2026-09-11T19:37:24.949469+00:00 TX 01 03 00 20 00 02 C5 C1
2026-09-11T19:37:24.958498+00:00 RX 01 03 04 00 00 7B B4 D8 B4
2026-09-11T19:37:25.009114+00:00 TX 01 03 00 20 00 02 C5 C1
2026-09-11T19:37:25.018658+00:00 RX 01 03 04 00 00 7B B5 19 74
2026-09-11T19:37:25.070330+00:00 TX 01 03 00 20 00 02 C5 C1
2026-09-11T19:37:25.078846+00:00 RX 01 03 04 00 00 7B B5 19 74
2026-09-11T19:37:25.129922+00:00 TX 01 03 00 20 00 02 C5 C1
2026-09-11T19:37:25.138984+00:00 RX 01 03 04 00 00 7B B6 59 75
2026-09-11T19:37:25.189073+00:00 TX 01 03 00 20 00 02 C5 C1
2026-09-11T19:37:25.198621+00:00 RX 01 03 04 00 00 7B B6 59 75
2026-09-11T19:37:25.248771+00:00 TX 01 03 00 20 00 02 C5 C1
2026-09-11T19:37:25.257804+00:00 RX 01 03 04 00 00 7B B7 98 B5
2026-09-11T19:37:25.308910+00:00 TX 01 03 00 20 00 02 C5 C1
2026-09-11T19:37:25.319428+00:00 RX 01 03 04 00 00 7B B8 D8 B1
2026-09-11T19:37:25.370129+00:00 TX 01 03 00 20 00 02 C5 C1
2026-09-11T19:37:25.379227+00:00 RX 01 03 04 00 00 7B B8 D8 B1
2026-09-11T19:37:25.429788+00:00 TX 01 03 00 20 00 02 C5 C1
2026-09-11T19:37:25.438289+00:00 RX 01 03 04 00 00 7B B9 19 71
2026-09-11T19:37:25.488401+00:00 TX 01 03 00 20 00 02 C5 C1
2026-09-11T19:37:25.497902+00:00 RX 01 03 04 00 00 7B B9 19 71
2026-09-11T19:37:25.548536+00:00 TX 01 03 00 20 00 02 C5 C1
2026-09-11T19:37:25.558537+00:00 RX 01 03 04 00 00 7B BA 59 70
2026-09-11T19:37:25.609112+00:00 TX 01 03 00 20 00 02 C5 C1
2026-09-11T19:37:25.619652+00:00 RX 01 03 04 00 00 7B BB 98 B0
2026-09-11T19:37:25.670546+00:00 TX 01 03 00 20 00 02 C5 C1
2026-09-11T19:37:25.680046+00:00 RX 01 03 04 00 00 7B BB 98 B0
2026-09-11T19:37:25.730628+00:00 TX 01 03 00 20 00 02 C5 C1
2026-09-11T19:37:25.740127+00:00 RX 01 03 04 00 00 7B BC D9 72
2026-09-11T19:37:25.790182+00:00 TX 01 03 00 20 00 02 C5 C1
2026-09-11T19:37:25.798715+00:00 RX 01 03 04 00 00 7B BC D9 72
2026-09-11T19:37:25.850253+00:00 TX 01 03 00 20 00 02 C5 C1
2026-09-11T19:37:25.859294+00:00 RX 01 03 04 00 00 7B BD 18 B2
2026-09-11T19:37:25.909516+00:00 TX 01 03 00 20 00 02 C5 C1
2026-09-11T19:37:25.920017+00:00 RX 01 03 04 00 00 7B BE 58 B3
2026-09-11T19:37:25.970138+00:00 TX 01 03 00 20 00 02 C5 C1
2026-09-11T19:37:25.978697+00:00 RX 01 03 04 00 00 7B BE 58 B3
2026-09-11T19:37:26.029892+00:00 TX 01 03 00 20 00 02 C5 C1
2026-09-11T19:37:26.039404+00:00 RX 01 03 04 00 00 7B BF 99 73
2026-09-11T19:37:26.090007+00:00 TX 01 03 00 20 00 02 C5 C1
2026-09-11T19:37:26.099527+00:00 RX 01 03 04 00 00 7B BF 99 73
2026-09-11T19:37:26.149567+00:00 TX 01 03 00 20 00 02 C5 C1
2026-09-11T19:37:26.158568+00:00 RX 01 03 04 00 00 7B C0 D8 93
2026-09-11T19:37:26.209116+00:00 TX 01 03 00 20 00 02 C5 C1
2026-09-11T19:37:26.220139+00:00 RX 01 03 04 00 00 7B C0 D8 93
2026-09-11T19:37:26.270369+00:00 TX 01 03 00 20 00 02 C5 C1
2026-09-11T19:37:26.279869+00:00 RX 01 03 04 00 00 7B C1 19 53
2026-09-11T19:37:26.330513+00:00 TX 01 03 00 20 00 02 C5 C1
2026-09-11T19:37:26.340014+00:00 RX 01 03 04 00 00 7B C2 59 52
2026-09-11T19:37:26.391516+00:00 TX 01 03 00 20 00 02 C5 C1
2026-09-11T19:37:26.400533+00:00 RX 01 03 04 00 00 7B C2 59 52
2026-09-11T19:37:26.451591+00:00 TX 01 03 00 20 00 02 C5 C1
2026-09-11T19:37:26.460707+00:00 RX 01 03 04 00 00 7B C3 98 92
2026-09-11T19:37:26.511549+00:00 TX 01 03 00 20 00 02 C5 C1
2026-09-11T19:37:26.521555+00:00 RX 01 03 04 00 00 7B C4 D9 50
2026-09-11T19:37:26.571718+00:00 TX 01 03 00 20 00 02 C5 C1
2026-09-11T19:37:26.579765+00:00 RX 01 03 04 00 00 7B C4 D9 50
2026-09-11T19:37:26.631382+00:00 TX 01 03 00 20 00 02 C5 C1
2026-09-11T19:37:26.640398+00:00 RX 01 03 04 00 00 7B C5 18 90
2026-09-11T19:37:26.691648+00:00 TX 01 03 00 20 00 02 C5 C1
2026-09-11T19:37:26.699669+00:00 RX 01 03 04 00 00 7B C5 18 90
2026-09-11T19:37:26.751712+00:00 TX 01 03 00 20 00 02 C5 C1
2026-09-11T19:37:26.760278+00:00 RX 01 03 04 00 00 7B C6 58 91
2026-09-11T19:37:26.811353+00:00 TX 01 03 00 20 00 02 C5 C1
2026-09-11T19:37:26.820409+00:00 RX 01 03 04 00 00 7B C7 99 51
2026-09-11T19:37:26.871547+00:00 TX 01 03 00 20 00 02 C5 C1
2026-09-11T19:37:26.880048+00:00 RX 01 03 04 00 00 7B C7 99 51
2026-09-11T19:37:26.930622+00:00 TX 01 03 00 20 00 02 C5 C1
2026-09-11T19:37:26.940122+00:00 RX 01 03 04 00 00 7B C8 D9 55
2026-09-11T19:37:26.990202+00:00 TX 01 03 00 20 00 02 C5 C1
2026-09-11T19:37:26.999791+00:00 RX 01 03 04 00 00 7B C8 D9 55
2026-09-11T19:37:27.049859+00:00 TX 01 03 00 20 00 02 C5 C1
2026-09-11T19:37:27.059246+00:00 RX 01 03 04 00 00 7B C9 18 95
2026-09-11T19:37:27.109838+00:00 TX 01 03 00 20 00 02 C5 C1
2026-09-11T19:37:27.120559+00:00 RX 01 03 04 00 00 7B C9 18 95
2026-09-11T19:37:27.171692+00:00 TX 01 03 00 20 00 02 C5 C1
2026-09-11T19:37:27.179718+00:00 RX 01 03 04 00 00 7B CA 58 94
2026-09-11T19:37:27.231701+00:00 TX 01 03 00 20 00 02 C5 C1
2026-09-11T19:37:27.240201+00:00 RX 01 03 04 00 00 7B CB 99 54
2026-09-11T19:37:27.290611+00:00 TX 01 03 00 20 00 02 C5 C1
2026-09-11T19:37:27.300112+00:00 RX 01 03 04 00 00 7B CB 99 54
2026-09-11T19:37:27.350759+00:00 TX 01 03 00 20 00 02 C5 C1
2026-09-11T19:37:27.359782+00:00 RX 01 03 04 00 00 7B CC D8 96
2026-09-11T19:37:27.410386+00:00 TX 01 03 00 20 00 02 C5 C1
2026-09-11T19:37:27.421392+00:00 RX 01 03 04 00 00 7B CC D8 96
2026-09-11T19:37:27.471457+00:00 TX 01 03 00 20 00 02 C5 C1
2026-09-11T19:37:27.480480+00:00 RX 01 03 04 00 00 7B CD 19 56
2026-09-11T19:37:27.531310+00:00 TX 01 03 00 20 00 02 C5 C1
2026-09-11T19:37:27.540326+00:00 RX 01 03 04 00 00 7B CE 59 57
2026-09-11T19:37:27.590491+00:00 TX 01 03 00 20 00 02 C5 C1
2026-09-11T19:37:27.599991+00:00 RX 01 03 04 00 00 7B CE 59 57
2026-09-11T19:37:27.650734+00:00 TX 01 03 00 20 00 02 C5 C1
2026-09-11T19:37:27.659754+00:00 RX 01 03 04 00 00 7B CF 98 97
2026-09-11T19:37:27.710353+00:00 TX 01 03 00 20 00 02 C5 C1
2026-09-11T19:37:27.721358+00:00 RX 01 03 04 00 00 7B CF 98 97
2026-09-11T19:37:27.771480+00:00 TX 01 03 00 20 00 02 C5 C1
2026-09-11T19:37:27.780532+00:00 RX 01 03 04 00 00 7B D0 D9 5F
2026-09-11T19:37:27.831580+00:00 TX 01 03 00 20 00 02 C5 C1
2026-09-11T19:37:27.840597+00:00 RX 01 03 04 00 00 7B D1 18 9F
2026-09-11T19:37:27.891370+00:00 TX 01 03 00 20 00 02 C5 C1
2026-09-11T19:37:27.900416+00:00 RX 01 03 04 00 00 7B D1 18 9F
2026-09-11T19:37:27.951536+00:00 TX 01 03 00 20 00 02 C5 C1
2026-09-11T19:37:27.960077+00:00 RX 01 03 04 00 00 7B D2 58 9E
2026-09-11T19:37:28.011298+00:00 TX 01 03 00 20 00 02 C5 C1
2026-09-11T19:37:28.021822+00:00 RX 01 03 04 00 00 7B D2 58 9E
2026-09-11T19:37:28.072433+00:00 TX 01 03 00 20 00 02 C5 C1
2026-09-11T19:37:28.081432+00:00 RX 01 03 04 00 00 7B D3 99 5E
2026-09-11T19:37:28.131477+00:00 TX 01 03 00 20 00 02 C5 C1
2026-09-11T19:37:28.139990+00:00 RX 01 03 04 00 00 7B D4 D8 9C
2026-09-11T19:37:28.190052+00:00 TX 01 03 00 20 00 02 C5 C1
2026-09-11T19:37:28.199591+00:00 RX 01 03 04 00 00 7B D4 D8 9C
2026-09-11T19:37:28.250165+00:00 TX 01 03 00 20 00 02 C5 C1
2026-09-11T19:37:28.258213+00:00 RX 01 03 04 00 00 7B D5 19 5C
2026-09-11T19:37:28.309863+00:00 TX 01 03 00 20 00 02 C5 C1
2026-09-11T19:37:28.320380+00:00 RX 01 03 04 00 00 7B D5 19 5C
2026-09-11T19:37:28.370618+00:00 TX 01 03 00 20 00 02 C5 C1
2026-09-11T19:37:28.380120+00:00 RX 01 03 04 00 00 7B D6 59 5D
2026-09-11T19:37:28.430706+00:00 TX 01 03 00 20 00 02 C5 C1
2026-09-11T19:37:28.440208+00:00 RX 01 03 04 00 00 7B D7 98 9D
2026-09-11T19:37:28.490445+00:00 TX 01 03 00 20 00 02 C5 C1
2026-09-11T19:37:28.499945+00:00 RX 01 03 04 00 00 7B D7 98 9D
2026-09-11T19:37:28.550671+00:00 TX 01 03 00 20 00 02 C5 C1
2026-09-11T19:37:28.559675+00:00 RX 01 03 04 00 00 7B D8 D8 99
2026-09-11T19:37:28.610348+00:00 TX 01 03 00 20 00 02 C5 C1
2026-09-11T19:37:28.621353+00:00 RX 01 03 04 00 00 7B D8 D8 99
2026-09-11T19:37:28.671459+00:00 TX 01 03 00 00 00 01 84 0B
2026-09-11T19:37:28.973506+00:00 RX
2026-09-11T19:37:28.984003+00:00 TX 02 03 00 00 00 01 84 39
2026-09-11T19:37:29.285928+00:00 RX
2026-09-11T19:37:29.296964+00:00 TX 00 03 00 00 00 01 85 DB
2026-09-11T19:37:29.599827+00:00 RX
2026-09-11T19:37:29.610368+00:00 TX 00 06 01 16 00 00 68 23
2026-09-11T19:37:29.911521+00:00 RX
2026-09-11T19:37:29.922581+00:00 TX 00 10 01 56 00 01 02 00 00 B7 36
2026-09-11T19:37:30.223613+00:00 RX
2026-09-11T19:37:30.234114+00:00 TX 01 04 00 00 00 01 31 CA
2026-09-11T19:37:30.239115+00:00 RX 01 84 01 82 C0
2026-09-11T19:37:30.250662+00:00 TX 01 03 00 00 00 00 45 CA
2026-09-11T19:37:30.257698+00:00 RX 01 83 03 01 31
2026-09-11T19:37:30.269198+00:00 TX 01 03 00 00 00 7E C5 EA
2026-09-11T19:37:30.274747+00:00 RX 01 83 03 01 31
2026-09-11T19:37:30.285270+00:00 TX 01 03 FF FF 00 01 84 2E
2026-09-11T19:37:30.292327+00:00 RX 01 83 02 C0 F1
2026-09-11T19:37:30.302828+00:00 TX 01 06 00 00 00 00 89 CA
2026-09-11T19:37:30.307825+00:00 RX 01 86 02 C3 A1
2026-09-11T19:37:30.318343+00:00 TX 01 06 01 A1 00 00 D9 D4
2026-09-11T19:37:30.324842+00:00 RX 01 86 03 02 61
2026-09-11T19:37:30.335362+00:00 TX 01 10 01 40 00 00 00 21 50
2026-09-11T19:37:30.340363+00:00 RX 01 90 03 0C 01
2026-09-11T19:37:30.350420+00:00 TX 01 10 01 40 00 7C 00 01 90
2026-09-11T19:37:30.356449+00:00 RX 01 90 03 0C 01
2026-09-11T19:37:30.366964+00:00 TX 01 10 01 40 00 01 01 00 C0 48
2026-09-11T19:37:30.373041+00:00 RX 01 90 03 0C 01
2026-09-11T19:37:30.383526+00:00 TX 01 10 01 56 00 01 02 00
2026-09-11T19:37:30.685370+00:00 RX
2026-09-11T19:37:30.695871+00:00 TX 01 10 01 56 00 01 02 00 01 00 26 23
2026-09-11T19:37:30.702397+00:00 RX 01 90 03 0C 01
2026-09-11T19:37:30.712897+00:00 TX 01 03 00
2026-09-11T19:37:31.014315+00:00 RX
2026-09-11T19:37:31.024815+00:00 TX F8 F8 F8 F8 F8 F8 F8 F8 F8 F8 F8 F8 F8 F8 F8 F8 F8 F8 F8 F8 F8 F8 F8 F8 F8 F8 F8 F8 F8 F8 F8 F8 F8 F8 F8 F8 F8 F8 F8 F8 F8 F8 F8 F8 F8 F8 F8 F8 F8 F8 F8 F8 F8 F8 F8 F8 F8 F8 F8 F8 F8 F8 F8 F8 F8 F8 F8 F8 F8 F8 F8 F8 F8 F8 F8 F8 F8 F8 F8 F8 F8 F8 F8 F8 F8 F8 F8 F8 F8 F8 F8 F8 F8 F8 F8 F8 F8 F8 F8 F8 F8 F8 F8 F8 F8 F8 F8 F8 F8 F8 F8 F8 F8 F8 F8 F8 F8 F8 F8 F8 F8 F8 F8 F8 F8 F8 F8 F8 F8 F8 F8 F8 F8 F8 F8 F8 F8 F8 F8 F8 F8 F8 F8 F8 F8 F8 F8 F8 F8 F8 F8 F8 F8 F8 F8 F8 F8 F8 F8 F8 F8 F8 F8 F8 F8 F8 F8 F8 F8 F8 F8 F8 F8 F8 F8 F8 F8 F8 F8 F8 F8 F8 F8 F8 F8 F8 F8 F8 F8 F8 F8 F8 F8 F8 F8 F8 F8 F8 F8 F8 F8 F8 F8 F8 F8 F8 F8 F8 F8 F8 F8 F8 F8 F8 F8 F8 F8 F8 F8 F8 F8 F8 F8 F8 F8 F8 F8 F8 F8 F8 F8 F8 F8 F8 F8 F8 F8 F8 F8 F8 F8 F8 F8 F8 F8 F8 F8 F8 F8 F8 F8 F8 F8 F8 F8 F8 F8
2026-09-11T19:37:31.346007+00:00 RX
2026-09-11T19:37:31.356524+00:00 TX 2A 58 52 CD EA E1 EE EA 82 7C 60
2026-09-11T19:37:31.658492+00:00 RX
2026-09-11T19:37:31.968729+00:00 TX 01 03 00 00 00 01 84 0A
2026-09-11T19:37:31.976294+00:00 RX 01 03 02 00 00 B8 44
